!  1-Port S-parameters saved by WinCal
! VAR NAME=2-Port SOLT labuser 7
! VAR Error Term Name=EDir phys rcv port 1 phys src port 1
!
# Hz S RI R 50
5000000000.000 -6.1040988957E-002 -6.3913556283E-002 
5010000000.000 -7.7065575943E-002 -1.5410699144E-002 
5020000000.000 -5.6086772076E-002 +2.1063093360E-002 
5030000000.000 -2.6501763150E-002 +2.5032045577E-002 
5040000000.000 -1.7426623778E-002 +9.5104531811E-003 
5050000000.000 -3.1221983038E-002 +3.7649617033E-003 
5060000000.000 -4.4314593503E-002 +2.1117299456E-002 
5070000000.000 -3.6579787679E-002 +4.8233819180E-002 
5080000000.000 -1.0060731157E-002 +6.2972132306E-002 
5090000000.000 +1.6692398445E-002 +5.7619700541E-002 
5100000000.000 +3.0968289009E-002 +4.3557297464E-002 
5110000000.000 +3.7294160650E-002 +3.2690594466E-002 
5120000000.000 +4.5479033339E-002 +2.4250791644E-002 
5130000000.000 +5.5134247426E-002 +8.7502307107E-003 
5140000000.000 +5.4542378870E-002 -1.4767787753E-002 
5150000000.000 +3.8305751787E-002 -3.2973823829E-002 
5160000000.000 +1.7165915309E-002 -3.3057497362E-002 
5170000000.000 +1.0939805652E-002 -1.9661903166E-002 
5180000000.000 +2.4462507077E-002 -1.5522822042E-002 
5190000000.000 +3.7023083723E-002 -3.6910319227E-002 
5200000000.000 +2.1706342870E-002 -7.1825616506E-002 
5210000000.000 -2.5220655005E-002 -8.6964445325E-002 
5220000000.000 -7.4076670090E-002 -6.0115553931E-002 
5230000000.000 -8.7861352585E-002 -5.2118103183E-003 
5240000000.000 -5.7998860857E-002 +3.6615885247E-002 
5250000000.000 -1.6569589492E-002 +3.6005001316E-002 
5260000000.000 -4.0857239229E-003 +6.4509112584E-003 
5270000000.000 -2.9798636865E-002 -1.1002613707E-002 
5280000000.000 -6.1839717955E-002 +1.2874817087E-002 
5290000000.000 -5.7750734706E-002 +6.3733322528E-002 
5300000000.000 -9.3106944364E-003 +9.6540291510E-002 
5310000000.000 +4.9363980157E-002 +8.0922449893E-002 
5320000000.000 +7.3997318270E-002 +2.9774651946E-002 
5330000000.000 +5.2862391460E-002 -1.3145796398E-002 
5340000000.000 +1.5983515177E-002 -1.6184842333E-002 
5350000000.000 +4.2801384403E-003 +1.1513366214E-002 
5360000000.000 +2.9472522586E-002 +3.0774747934E-002 
5370000000.000 +6.4482205503E-002 +1.4234148031E-002 
5380000000.000 +7.3678890816E-002 -2.9189909951E-002 
5390000000.000 +4.7357222265E-002 -6.6298720309E-002 
5400000000.000 +7.0538233220E-003 -7.3810817551E-002 
5410000000.000 -2.0718388945E-002 -5.7476799876E-002 
5420000000.000 -2.8016347487E-002 -3.8224255630E-002 
5430000000.000 -2.7355360561E-002 -2.9996296868E-002 
5440000000.000 -3.2638272907E-002 -2.7552770948E-002 
5450000000.000 -4.2387906258E-002 -1.8948491714E-002 
5460000000.000 -4.5888877942E-002 -2.5896322056E-003 
5470000000.000 -3.8281125504E-002 +1.0238746647E-002 
5480000000.000 -3.0482222503E-002 +1.1431620506E-002 
5490000000.000 -3.4627709290E-002 +9.9990876459E-003 
5500000000.000 -4.5879867539E-002 +2.2774211302E-002 
5510000000.000 -4.3110451352E-002 +5.2776832005E-002 
5520000000.000 -1.2029800181E-002 +7.8265340985E-002 
5530000000.000 +3.3475861150E-002 +7.3536990044E-002 
5540000000.000 +6.1280748448E-002 +3.6682106021E-002 
5550000000.000 +5.1103072793E-002 -4.0357210748E-003 
5560000000.000 +1.7869771768E-002 -1.4381910626E-002 
5570000000.000 -2.5839232894E-004 +1.0561960196E-002 
5580000000.000 +2.1459856152E-002 +3.8141492032E-002 
5590000000.000 +6.5783342535E-002 +2.9679049704E-002 
5600000000.000 +8.9845260917E-002 -2.0197470786E-002 
5610000000.000 +6.4905689360E-002 -7.7839933111E-002 
5620000000.000 +2.9014704477E-003 -9.7665358037E-002 
5630000000.000 -4.8959126039E-002 -6.4979942806E-002 
5640000000.000 -5.3240263650E-002 -1.2160411365E-002 
5650000000.000 -1.7731939105E-002 +1.2738044239E-002 
5660000000.000 +1.3435274721E-002 -8.0277500691E-003 
5670000000.000 +4.5778118502E-003 -4.6541232068E-002 
5680000000.000 -3.9823937971E-002 -5.9853166864E-002 
5690000000.000 -8.2368358823E-002 -2.9175260779E-002 
5700000000.000 -8.8335892731E-002 +2.5277869536E-002 
5710000000.000 -5.5602809195E-002 +6.5921573995E-002 
5720000000.000 -1.0467771416E-002 +7.1327781370E-002 
5730000000.000 +1.7126360151E-002 +4.9973671831E-002 
5740000000.000 +1.9382884919E-002 +2.7323873658E-002 
5750000000.000 +1.0049704430E-002 +1.9829181362E-002 
5760000000.000 +6.0746086326E-003 +2.6109247944E-002 
5770000000.000 +1.3665947907E-002 +3.3987619166E-002 
5780000000.000 +2.8648509132E-002 +3.5602571588E-002 
5790000000.000 +4.6029081729E-002 +2.8274928509E-002 
5800000000.000 +6.1288267688E-002 +1.0578227380E-002 
5810000000.000 +6.7297748026E-002 -1.7967011870E-002 
5820000000.000 +5.3804300580E-002 -5.0559235249E-002 
5830000000.000 +1.9755311629E-002 -6.9335522576E-002 
5840000000.000 -1.8719809757E-002 -5.9828457107E-002 
5850000000.000 -3.6100274301E-002 -2.6541485274E-002 
5860000000.000 -1.9399565564E-002 +2.5815275545E-003 
5870000000.000 +1.2547150255E-002 -7.2803395773E-004 
5880000000.000 +2.2852164253E-002 -3.6754973747E-002 
5890000000.000 -1.0415871773E-002 -7.1169808616E-002 
5900000000.000 -6.9138587277E-002 -6.3919059337E-002 
5910000000.000 -1.0663629851E-001 -7.0408279600E-003 
5920000000.000 -8.7024952956E-002 +6.3205762973E-002 
5930000000.000 -2.1540874760E-002 +9.3126800666E-002 
5940000000.000 +3.7425297652E-002 +6.2749504670E-002 
5950000000.000 +4.4533823476E-002 +4.9242877635E-003 
5960000000.000 +2.1121841281E-003 -2.5369413868E-002 
5970000000.000 -4.2418676015E-002 -4.8650641685E-004 
5980000000.000 -4.1514615296E-002 +5.5293298781E-002 
5990000000.000 +1.1311830581E-002 +8.9212180358E-002 
6000000000.000 +7.5285292110E-002 +6.6860117830E-002 
6010000000.000 +9.9816876095E-002 +3.1367847402E-003 
6020000000.000 +7.0446928587E-002 -5.4700617849E-002 
6030000000.000 +1.4581241424E-002 -6.8229549859E-002 
6040000000.000 -2.2764427744E-002 -3.9014364678E-002 
6050000000.000 -1.9945279067E-002 -1.5483450431E-003 
6060000000.000 +8.8650520268E-003 +1.0693147980E-002 
6070000000.000 +3.1346101411E-002 -9.0189674293E-003 
6080000000.000 +2.6751981289E-002 -4.0497581953E-002 
6090000000.000 -2.3123110577E-003 -5.8731511408E-002 
6100000000.000 -3.7145753048E-002 -5.1308445537E-002 
6110000000.000 -5.8622636796E-002 -2.3452194147E-002 
6120000000.000 -5.8657857339E-002 +1.0643195792E-002 
6130000000.000 -3.8376409752E-002 +3.6003178913E-002 
6140000000.000 -8.5116614810E-003 +4.1734061335E-002 
6150000000.000 +1.5089772670E-002 +2.5737503487E-002 
6160000000.000 +1.7010947517E-002 -1.6987259710E-003 
6170000000.000 -5.7861987338E-003 -1.8386488724E-002 
6180000000.000 -3.6061777472E-002 -6.3427641754E-003 
6190000000.000 -4.5064671478E-002 +3.2410984772E-002 
6200000000.000 -1.5265265024E-002 +6.9697524854E-002 
6210000000.000 +3.9106942902E-002 +7.1553866117E-002 
6220000000.000 +7.9833152896E-002 +2.8901452807E-002 
6230000000.000 +7.3872919448E-002 -3.1509550511E-002 
6240000000.000 +2.4192431007E-002 -6.4566143859E-002 
6250000000.000 -2.9472293498E-002 -4.5315596794E-002 
6260000000.000 -4.1884155182E-002 +7.2195646801E-003 
6270000000.000 -3.8305645326E-003 +4.3357126453E-002 
6280000000.000 +4.7899857542E-002 +2.8716338624E-002 
6290000000.000 +6.4628828274E-002 -2.6081226386E-002 
6300000000.000 +2.7413073718E-002 -7.4332554704E-002 
6310000000.000 -3.5559480260E-002 -7.4009533135E-002 
6320000000.000 -7.4383697545E-002 -2.4981209097E-002 
6330000000.000 -6.0357588790E-002 +3.3983903729E-002 
6340000000.000 -8.6996009917E-003 +5.6737501870E-002 
6350000000.000 +3.6115710276E-002 +3.0587524345E-002 
6360000000.000 +4.0015114686E-002 -1.7583893322E-002 
6370000000.000 +4.0593080169E-003 -4.6833031332E-002 
6380000000.000 -3.9636879909E-002 -3.5447083870E-002 
6390000000.000 -5.8058151689E-002 +5.6092520295E-003 
6400000000.000 -3.8972408131E-002 +4.5988241376E-002 
6410000000.000 +2.9438105753E-003 +5.8583767660E-002 
6420000000.000 +3.9315466661E-002 +3.7497537414E-002 
6430000000.000 +4.8207837220E-002 -1.9004742936E-003 
6440000000.000 +2.5783751965E-002 -3.3203231159E-002 
6450000000.000 -1.1748904776E-002 -3.6542629122E-002 
6460000000.000 -3.8516018759E-002 -9.1964472896E-003 
6470000000.000 -3.3319273562E-002 +3.0705826086E-002 
6480000000.000 +3.3407905452E-003 +5.2999253052E-002 
6490000000.000 +4.7429113539E-002 +3.7528766840E-002 
6500000000.000 +6.4617252646E-002 -9.8042959035E-003 
6510000000.000 +3.7367374989E-002 -5.5231395289E-002 
6520000000.000 -1.6718051262E-002 -6.2550150246E-002 
6530000000.000 -5.6359900273E-002 -2.3224484866E-002 
6540000000.000 -4.8075409793E-002 +3.2303653542E-002 
6550000000.000 +2.5257571507E-003 +5.8631618774E-002 
6560000000.000 +5.5237379199E-002 +3.1807324680E-002 
6570000000.000 +6.4010587953E-002 -2.9505998869E-002 
6580000000.000 +1.7960119316E-002 -7.3121679697E-002 
6590000000.000 -4.4098450964E-002 -6.2153644923E-002 
6600000000.000 -7.1880428593E-002 -7.8840759847E-003 
6610000000.000 -4.6834156586E-002 +4.4304293648E-002 
6620000000.000 +6.6361956825E-003 +5.4303006195E-002 
6630000000.000 +4.3307860148E-002 +1.7668340554E-002 
6640000000.000 +3.2018976807E-002 -3.0959613918E-002 
6650000000.000 -1.4127779720E-002 -4.6820948909E-002 
6660000000.000 -5.2888436407E-002 -1.7429330659E-002 
6670000000.000 -5.2219773723E-002 +3.1146459595E-002 
6680000000.000 -1.4323866208E-002 +5.9938359950E-002 
6690000000.000 +2.9743841043E-002 +4.9856465344E-002 
6700000000.000 +4.8864226678E-002 +1.2752950263E-002 
6710000000.000 +3.4309967640E-002 -2.1721850591E-002 
6720000000.000 +2.5112762145E-003 -3.0971356732E-002 
6730000000.000 -2.2403002526E-002 -1.3643410595E-002 
6740000000.000 -2.3844985252E-002 +1.5846148130E-002 
6750000000.000 -1.7533945840E-003 +3.5953666734E-002 
6760000000.000 +2.9635724325E-002 +3.3161865738E-002 
6770000000.000 +5.1333791401E-002 +7.0262561923E-003 
6780000000.000 +4.8161095813E-002 -2.9195601400E-002 
6790000000.000 +1.9456411853E-002 -5.4355940219E-002 
6800000000.000 -1.9880734170E-002 -5.1398919377E-002 
6810000000.000 -4.3803983128E-002 -1.9869041510E-002 
6820000000.000 -3.3784676867E-002 +1.7589630526E-002 
6830000000.000 +2.4445526753E-003 +3.0187458163E-002 
6840000000.000 +3.2833464296E-002 +4.8448470674E-003 
6850000000.000 +2.6981059025E-002 -3.7535338524E-002 
6860000000.000 -1.5710464156E-002 -5.9138362451E-002 
6870000000.000 -6.3564714760E-002 -3.5897048312E-002 
6880000000.000 -7.5857347320E-002 +1.9896513733E-002 
6890000000.000 -3.9554505660E-002 +6.5303324584E-002 
6900000000.000 +1.6945085188E-002 +6.4493843161E-002 
6910000000.000 +4.6676705781E-002 +2.1514535179E-002 
6920000000.000 +2.8411690630E-002 -2.2334027856E-002 
6930000000.000 -1.5829140167E-002 -2.8683701549E-002 
6940000000.000 -4.4158148945E-002 +7.0988072111E-003 
6950000000.000 -2.8492997257E-002 +5.3057858178E-002 
6960000000.000 +2.0781589537E-002 +6.8869189808E-002 
6970000000.000 +6.5411950087E-002 +4.0163240431E-002 
6980000000.000 +7.2682225143E-002 -1.0505429092E-002 
6990000000.000 +4.3744708618E-002 -4.5255053923E-002 
7000000000.000 +6.2204776590E-003 -4.7112984795E-002 
7010000000.000 -1.3831335521E-002 -2.5878242617E-002 
7020000000.000 -9.6755425057E-003 -4.5328997056E-003 
7030000000.000 +6.4544593891E-003 +8.0828791901E-004 
7040000000.000 +1.8771051860E-002 -1.0583952558E-002 
7050000000.000 +1.7010543749E-002 -2.9285248025E-002 
7060000000.000 +1.1204810485E-003 -4.3895232835E-002 
7070000000.000 -2.3688508953E-002 -4.6533990960E-002 
7080000000.000 -4.8613967628E-002 -3.2004801039E-002 
7090000000.000 -6.0649609127E-002 -2.4075788089E-003 
7100000000.000 -4.9895061715E-002 +3.0402474193E-002 
7110000000.000 -1.8838250856E-002 +4.6191406248E-002 
7120000000.000 +1.1493276929E-002 +3.3139424290E-002 
7130000000.000 +1.6855609959E-002 +2.4172852276E-003 
7140000000.000 -9.5801295604E-003 -1.7084192773E-002 
7150000000.000 -4.4064126744E-002 +5.7788112890E-004 
7160000000.000 -4.8285180133E-002 +4.8015626137E-002 
7170000000.000 -6.7114370820E-003 +8.5921583284E-002 
7180000000.000 +5.5124833005E-002 +7.8156703004E-002 
7190000000.000 +9.1798568500E-002 +2.5320725631E-002 
7200000000.000 +7.6829346023E-002 -3.6017838985E-002 
7210000000.000 +2.3432478747E-002 -6.0056316946E-002 
7220000000.000 -1.9713467798E-002 -3.1703441588E-002 
7230000000.000 -1.4180445606E-002 +1.3860412363E-002 
7240000000.000 +2.9800382685E-002 +2.7623268932E-002 
7250000000.000 +6.6595530876E-002 -8.6147172388E-003 
7260000000.000 +5.6413717828E-002 -6.6423110320E-002 
7270000000.000 +6.9512216761E-004 -9.6969601308E-002 
7280000000.000 -5.8803155751E-002 -7.4554435156E-002 
7290000000.000 -7.8775112434E-002 -1.9983715951E-002 
7300000000.000 -5.4771071392E-002 +2.1893286691E-002 
7310000000.000 -1.8183768277E-002 +2.5814594079E-002 
7320000000.000 -4.0224503767E-003 +3.2524928644E-003 
7330000000.000 -1.9361391137E-002 -1.3352829978E-002 
7340000000.000 -4.2940550272E-002 -4.9403581807E-003 
7350000000.000 -5.1387844699E-002 +2.2537639485E-002 
7360000000.000 -3.7610893978E-002 +4.8750356222E-002 
7370000000.000 -1.2791181693E-002 +6.0086659240E-002 
7380000000.000 +1.0338652937E-002 +5.7896000159E-002 
7390000000.000 +2.7850627357E-002 +4.8918587979E-002 
7400000000.000 +4.1793161272E-002 +3.6306925920E-002 
7410000000.000 +5.0358873860E-002 +1.7560135572E-002 
7420000000.000 +4.7080158375E-002 -3.0527852387E-003 
7430000000.000 +3.2867070640E-002 -1.4207614089E-002 
7440000000.000 +2.0810177648E-002 -8.9823479074E-003 
7450000000.000 +2.7029432877E-002 +1.8043084130E-003 
7460000000.000 +4.8517052884E-002 -4.2718947736E-003 
7470000000.000 +6.1121510151E-002 -3.7634323872E-002 
7480000000.000 +3.9476223664E-002 -8.0291546527E-002 
7490000000.000 -1.3979035654E-002 -9.6264994298E-002 
7500000000.000 -6.4306205504E-002 -6.8032647521E-002 
7510000000.000 -7.6795612559E-002 -1.4928921744E-002 
7520000000.000 -4.7777574100E-002 +2.2617969138E-002 
7530000000.000 -8.7352410816E-003 +1.8703873905E-002 
7540000000.000 +1.1575271797E-003 -1.5443155473E-002 
7550000000.000 -3.2026924057E-002 -3.8966017211E-002 
7560000000.000 -7.7019024677E-002 -1.6926763378E-002 
7570000000.000 -8.7933806615E-002 +4.0221997278E-002 
7580000000.000 -5.0553434171E-002 +8.9129344930E-002 
7590000000.000 +8.9807756564E-003 +9.5799327403E-002 
7600000000.000 +4.9813309933E-002 +6.1593721017E-002 
7610000000.000 +5.0383028438E-002 +1.8599156975E-002 
7620000000.000 +2.4543610256E-002 +2.0241835639E-003 
7630000000.000 +8.4604144451E-003 +1.7348591840E-002 
7640000000.000 +2.2322626379E-002 +3.7205743094E-002 
7650000000.000 +5.3933684817E-002 +3.4063663922E-002 
7660000000.000 +7.5245659416E-002 +3.5931385158E-003 
7670000000.000 +6.9863604476E-002 -3.3902218507E-002 
7680000000.000 +4.4808895623E-002 -5.7242799172E-002 
7690000000.000 +1.7502312908E-002 -6.1419118714E-002 
7700000000.000 -6.5038647610E-004 -5.5667017765E-002 
7710000000.000 -1.2753097713E-002 -4.9986769624E-002 
7720000000.000 -2.4232362826E-002 -4.3512581323E-002 
7730000000.000 -3.3400583330E-002 -3.2854972982E-002 
7740000000.000 -3.5178081479E-002 -2.1025747264E-002 
7750000000.000 -3.2304036386E-002 -1.6871491857E-002 
7760000000.000 -3.6642277866E-002 -1.9878751849E-002 
7770000000.000 -5.4047148572E-002 -1.7170227298E-002 
7780000000.000 -7.3963885316E-002 +6.0250229326E-003 
7790000000.000 -7.3347482461E-002 +4.7633238993E-002 
7800000000.000 -4.0178815744E-002 +8.2541152925E-002 
7810000000.000 +9.5935449921E-003 +8.4987837160E-002 
7820000000.000 +4.2739678322E-002 +5.3221425203E-002 
7830000000.000 +3.9175744017E-002 +1.5402649936E-002 
7840000000.000 +1.1387388388E-002 +4.1983608838E-003 
7850000000.000 -5.3905917930E-003 +2.8034352520E-002 
7860000000.000 +1.6844892625E-002 +5.8530211743E-002 
7870000000.000 +6.5714649919E-002 +5.6090513738E-002 
7880000000.000 +1.0065596028E-001 +1.0863819180E-002 
7890000000.000 +9.1567689911E-002 -4.8707087400E-002 
7900000000.000 +4.5028589124E-002 -8.2089446423E-002 
7910000000.000 -3.1131777404E-003 -7.3533671325E-002 
7920000000.000 -2.1732931207E-002 -4.1572173859E-002 
7930000000.000 -9.3689930778E-003 -2.0943245972E-002 
7940000000.000 +6.7429474721E-003 -2.8882596922E-002 
7950000000.000 +8.6616426978E-004 -5.1915997591E-002 
7960000000.000 -2.9219803500E-002 -6.3130636219E-002 
7970000000.000 -6.2422996261E-002 -4.7791131841E-002 
7980000000.000 -7.8384958631E-002 -1.4717711528E-002 
7990000000.000 -7.3330599957E-002 +1.7927902392E-002 
8000000000.000 -5.6835305175E-002 +3.9206358113E-002 
8010000000.000 -3.9171692549E-002 +5.1131440222E-002 
8020000000.000 -2.0530022249E-002 +5.8005766825E-002 
8030000000.000 -1.3363017241E-004 +5.7981711902E-002 
8040000000.000 +1.6878221030E-002 +4.8137957896E-002 
8050000000.000 +2.2194168626E-002 +3.3439384688E-002 
8060000000.000 +1.7314560622E-002 +2.7415183346E-002 
8070000000.000 +1.6625272434E-002 +3.5321590480E-002 
8080000000.000 +3.4299945856E-002 +4.5491281242E-002 
8090000000.000 +6.6362167485E-002 +3.6163982758E-002 
8100000000.000 +8.8367553402E-002 -1.8568102763E-003 
8110000000.000 +7.7192305406E-002 -5.1167852801E-002 
8120000000.000 +3.2830362408E-002 -7.9065934424E-002 
8130000000.000 -1.4079645781E-002 -6.5806774944E-002 
8140000000.000 -2.8808225390E-002 -2.7694426654E-002 
8150000000.000 -6.7780187689E-003 -3.3272694300E-003 
8160000000.000 +2.1011339480E-002 -1.7552041214E-002 
8170000000.000 +1.7050390932E-002 -5.5410824218E-002 
8180000000.000 -2.5750722534E-002 -7.7215355494E-002 
8190000000.000 -7.6884015720E-002 -5.4610008418E-002 
8200000000.000 -9.4664772013E-002 +9.5633367557E-004 
8210000000.000 -6.7847897548E-002 +4.8747392455E-002 
8220000000.000 -2.1497135842E-002 +5.9205071396E-002 
8230000000.000 +7.0604202988E-003 +3.5453889282E-002 
8240000000.000 +1.3863503268E-003 +8.9755492446E-003 
8250000000.000 -2.1532124038E-002 +7.6932638611E-003 
8260000000.000 -3.1981338775E-002 +3.2416491346E-002 
8270000000.000 -1.4007175600E-002 +5.9067130967E-002 
8280000000.000 +2.0339840994E-002 +6.4250751258E-002 
8290000000.000 +4.8143126571E-002 +4.5595486474E-002 
8300000000.000 +5.6868290213E-002 +1.7875082766E-002 
8310000000.000 +5.0975837259E-002 -3.0542077465E-003 
8320000000.000 +4.1638863854E-002 -1.5127293985E-002 
8330000000.000 +3.2996280824E-002 -2.2396700034E-002 
8340000000.000 +2.4010054165E-002 -2.7103781498E-002 
8350000000.000 +1.5196252051E-002 -2.7234400323E-002 
8360000000.000 +1.2306969119E-002 -2.4172819460E-002 
8370000000.000 +1.5520762978E-002 -2.6320553135E-002 
8380000000.000 +1.5904871591E-002 -3.9641908628E-002 
8390000000.000 -1.0163382038E-004 -5.7653160307E-002 
8400000000.000 -3.3754623560E-002 -6.1121749511E-002 
8410000000.000 -6.6109284694E-002 -3.6962148066E-002 
8420000000.000 -7.3229517884E-002 +6.5400459351E-003 
8430000000.000 -4.6705510950E-002 +4.0648312367E-002 
8440000000.000 -8.1586308568E-003 +4.1351551179E-002 
8450000000.000 +9.5194938733E-003 +1.3784892558E-002 
8460000000.000 -8.1245465304E-003 -1.0554151086E-002 
8470000000.000 -3.9864986767E-002 -1.0166831243E-003 
8480000000.000 -4.8175066091E-002 +3.8325045704E-002 
8490000000.000 -1.6807545534E-002 +7.3069270133E-002 
8500000000.000 +3.3527218114E-002 +7.0832597962E-002 
8510000000.000 +6.3877984914E-002 +3.1651076032E-002 
8520000000.000 +5.3941802845E-002 -1.2586111024E-002 
8530000000.000 +1.7952227002E-002 -2.7043287965E-002 
8540000000.000 -6.4460525430E-003 -5.8844223042E-003 
8550000000.000 +3.8638888784E-003 +2.2364362449E-002 
8560000000.000 +3.7096223347E-002 +2.5329352355E-002 
8570000000.000 +6.0750641824E-002 -5.2022805694E-003 
8580000000.000 +5.1215486272E-002 -4.5684439414E-002 
8590000000.000 +1.5342597377E-002 -6.5897219142E-002 
8600000000.000 -2.0201202723E-002 -5.5589323970E-002 
8610000000.000 -3.4296481317E-002 -2.9897378348E-002 
8620000000.000 -2.9355525198E-002 -1.1054020082E-002 
8630000000.000 -2.0376098078E-002 -5.9843270077E-003 
8640000000.000 -1.8205910012E-002 -7.8648611969E-003 
8650000000.000 -2.1808373676E-002 -7.3437073466E-003 
8660000000.000 -2.5262785285E-002 -3.1617691259E-003 
