!  1-Port S-parameters saved by WinCal
! VAR NAME=2-Port SOLT labuser 7
! VAR Error Term Name=ETrt phys rcv port 2 phys src port 1
!
# Hz S RI R 50
5000000000.000 -2.3545122317E-002 -2.7872757230E-002 
5010000000.000 -3.5940600600E-002 +5.9675766021E-003 
5020000000.000 -1.3637637775E-002 +3.4212070295E-002 
5030000000.000 +2.3267586372E-002 +2.9353441004E-002 
5040000000.000 +3.6629959038E-002 -5.5603801005E-003 
5050000000.000 +1.4220621224E-002 -3.3939847211E-002 
5060000000.000 -2.2135003328E-002 -2.9981924420E-002 
5070000000.000 -3.7184006608E-002 +3.9897757802E-003 
5080000000.000 -1.5673735487E-002 +3.4196183303E-002 
5090000000.000 +2.1961620571E-002 +3.1011557485E-002 
5100000000.000 +3.7754680211E-002 -3.4387829396E-003 
5110000000.000 +1.6196421060E-002 -3.4209603497E-002 
5120000000.000 -2.1205087471E-002 -3.1415242363E-002 
5130000000.000 -3.8099799215E-002 +2.2446040704E-003 
5140000000.000 -1.7206928369E-002 +3.4425170209E-002 
5150000000.000 +2.1061391839E-002 +3.1838281088E-002 
5160000000.000 +3.7902025119E-002 -1.7655867262E-003 
5170000000.000 +1.7883180818E-002 -3.3517343450E-002 
5180000000.000 -1.9635348497E-002 -3.2757938641E-002 
5190000000.000 -3.9237586156E-002 +5.6015432630E-004 
5200000000.000 -1.8063203264E-002 +3.4893152525E-002 
5210000000.000 +2.0224629350E-002 +3.1870645176E-002 
5220000000.000 +3.7770470455E-002 +2.7996219704E-005 
5230000000.000 +1.9477661796E-002 -3.3633156861E-002 
5240000000.000 -1.9625877183E-002 -3.3264765503E-002 
5250000000.000 -3.8420274510E-002 -1.4363807722E-004 
5260000000.000 -1.9584890817E-002 +3.3241194458E-002 
5270000000.000 +1.8553951256E-002 +3.3651214110E-002 
5280000000.000 +3.8988656196E-002 +1.2784872718E-003 
5290000000.000 +2.0303737792E-002 -3.3694391983E-002 
5300000000.000 -1.8738577985E-002 -3.3651423150E-002 
5310000000.000 -3.8130389635E-002 -1.5888432373E-003 
5320000000.000 -2.1265900195E-002 +3.2275147680E-002 
5330000000.000 +1.7421051761E-002 +3.5017972126E-002 
5340000000.000 +3.9166646466E-002 +2.3360493788E-003 
5350000000.000 +2.1499844175E-002 -3.2490311288E-002 
5360000000.000 -1.6894096100E-002 -3.4806116300E-002 
5370000000.000 -3.8504686450E-002 -3.2669224551E-003 
5380000000.000 -2.2511714249E-002 +3.1562828559E-002 
5390000000.000 +1.6021737607E-002 +3.5425889966E-002 
5400000000.000 +3.8272249635E-002 +3.9337122305E-003 
5410000000.000 +2.2957086403E-002 -3.0385475488E-002 
5420000000.000 -1.4212816954E-002 -3.5552208966E-002 
5430000000.000 -3.7945655690E-002 -5.9838939162E-003 
5440000000.000 -2.4734269408E-002 +2.9801642591E-002 
5450000000.000 +1.3653670669E-002 +3.6554315002E-002 
5460000000.000 +3.7808086540E-002 +6.2619073994E-003 
5470000000.000 +2.4795289214E-002 -2.8501558410E-002 
5480000000.000 -1.1620653200E-002 -3.6514051784E-002 
5490000000.000 -3.7820409962E-002 -8.3257309754E-003 
5500000000.000 -2.6055390633E-002 +2.8548686710E-002 
5510000000.000 +1.1336404571E-002 +3.6587703638E-002 
5520000000.000 +3.6859693386E-002 +9.0753375321E-003 
5530000000.000 +2.6989485698E-002 -2.7095772137E-002 
5540000000.000 -9.9496063815E-003 -3.7208352452E-002 
5550000000.000 -3.7036753646E-002 -9.9884208220E-003 
5560000000.000 -2.6980356778E-002 +2.6716783082E-002 
5570000000.000 +8.9475599650E-003 +3.6297742264E-002 
5580000000.000 +3.5796634868E-002 +1.1543231027E-002 
5590000000.000 +2.8498017650E-002 -2.5932800030E-002 
5600000000.000 -8.8157461305E-003 -3.6985557454E-002 
5610000000.000 -3.5357794774E-002 -1.1253691370E-002 
5620000000.000 -2.8197032553E-002 +2.4444076694E-002 
5630000000.000 +6.7750022665E-003 +3.7002948534E-002 
5640000000.000 +3.5706535212E-002 +1.3121689898E-002 
5650000000.000 +2.9259689223E-002 -2.4924090158E-002 
5660000000.000 -7.0830955734E-003 -3.7057407249E-002 
5670000000.000 -3.4893004017E-002 -1.3130577618E-002 
5680000000.000 -2.9629251825E-002 +2.3418616864E-002 
5690000000.000 +5.4718677237E-003 +3.7680494197E-002 
5700000000.000 +3.5389228449E-002 +1.4129814404E-002 
5710000000.000 +2.9631166082E-002 -2.3224755398E-002 
5720000000.000 -4.2765266129E-003 -3.7053267223E-002 
5730000000.000 -3.4712230520E-002 -1.5906708633E-002 
5740000000.000 -3.1304635482E-002 +2.2779643853E-002 
5750000000.000 +4.1529733845E-003 +3.7865881623E-002 
5760000000.000 +3.4343892225E-002 +1.5670881430E-002 
5770000000.000 +3.0910476391E-002 -2.1403442313E-002 
5780000000.000 -2.3360006518E-003 -3.7635496758E-002 
5790000000.000 -3.4103648601E-002 -1.7267719388E-002 
5800000000.000 -3.1872318911E-002 +2.0949143752E-002 
5810000000.000 +1.8018500624E-003 +3.7738911262E-002 
5820000000.000 +3.3307785423E-002 +1.7544876088E-002 
5830000000.000 +3.1860368279E-002 -1.9402869933E-002 
5840000000.000 -1.4152597817E-004 -3.7486658092E-002 
5850000000.000 -3.2586219215E-002 -1.8637357477E-002 
5860000000.000 -3.2065120178E-002 +1.8094499754E-002 
5870000000.000 -1.4868835329E-003 +3.6885084231E-002 
5880000000.000 +3.1447721764E-002 +2.0158695647E-002 
5890000000.000 +3.3119125714E-002 -1.6690736772E-002 
5900000000.000 +2.8528742019E-003 -3.7228805496E-002 
5910000000.000 -3.1013226111E-002 -2.1202751042E-002 
5920000000.000 -3.3535505291E-002 +1.5815985030E-002 
5930000000.000 -3.8752041244E-003 +3.6883964963E-002 
5940000000.000 +3.0058923380E-002 +2.2119640291E-002 
5950000000.000 +3.4129553919E-002 -1.4734922762E-002 
5960000000.000 +4.6053048072E-003 -3.6696824055E-002 
5970000000.000 -2.8846296534E-002 -2.2396135992E-002 
5980000000.000 -3.4047481360E-002 +1.2660220802E-002 
5990000000.000 -6.8777653440E-003 +3.6494604168E-002 
6000000000.000 +2.8763865543E-002 +2.4189498115E-002 
6010000000.000 +3.4680229875E-002 -1.2715919451E-002 
6020000000.000 +6.7798635393E-003 -3.5724465174E-002 
6030000000.000 -2.6838249194E-002 -2.4242546356E-002 
6040000000.000 -3.4866376095E-002 +1.0534492207E-002 
6050000000.000 -8.6630464804E-003 +3.5698799673E-002 
6060000000.000 +2.6433432300E-002 +2.5556136080E-002 
6070000000.000 +3.5478258054E-002 -9.7973570831E-003 
6080000000.000 +9.5248768882E-003 -3.5513023186E-002 
6090000000.000 -2.5701668411E-002 -2.6302914879E-002 
6100000000.000 -3.5776780029E-002 +9.0546731647E-003 
6110000000.000 -1.0038745106E-002 +3.5090679364E-002 
6120000000.000 +2.4495755076E-002 +2.6561454649E-002 
6130000000.000 +3.5807001322E-002 -7.2448248849E-003 
6140000000.000 +1.1842101347E-002 -3.4812533289E-002 
6150000000.000 -2.3878530801E-002 -2.7963008331E-002 
6160000000.000 -3.6523069844E-002 +6.5013148901E-003 
6170000000.000 -1.2391564784E-002 +3.4742736374E-002 
6180000000.000 +2.2998518211E-002 +2.7882408628E-002 
6190000000.000 +3.5870289782E-002 -4.8709046994E-003 
6200000000.000 +1.4483290232E-002 -3.3913011187E-002 
6210000000.000 -2.2250260484E-002 -2.9744167751E-002 
6220000000.000 -3.6733125673E-002 +4.1259107922E-003 
6230000000.000 -1.5219337330E-002 +3.3542608400E-002 
6240000000.000 +2.1015154182E-002 +3.0277017004E-002 
6250000000.000 +3.6843071209E-002 -2.6804321168E-003 
6260000000.000 +1.6393000724E-002 -3.3068269553E-002 
6270000000.000 -1.9865946377E-002 -3.0924190612E-002 
6280000000.000 -3.6944485785E-002 +9.9902352152E-004 
6290000000.000 -1.8016622429E-002 +3.2831976161E-002 
6300000000.000 +1.9450514495E-002 +3.1875168429E-002 
6310000000.000 +3.6929060999E-002 -4.5732180187E-004 
6320000000.000 +1.8595826184E-002 -3.1882261606E-002 
6330000000.000 -1.7895125143E-002 -3.2096006486E-002 
6340000000.000 -3.6669661534E-002 -1.3197638961E-003 
6350000000.000 -2.0148149779E-002 +3.1245622223E-002 
6360000000.000 +1.7023900612E-002 +3.3042831016E-002 
6370000000.000 +3.6680535951E-002 +2.2330926038E-003 
6380000000.000 +2.0916180536E-002 -3.0407427469E-002 
6390000000.000 -1.5705131815E-002 -3.3648090449E-002 
6400000000.000 -3.6996917178E-002 -3.5921967159E-003 
6410000000.000 -2.1878905695E-002 +3.0242252058E-002 
6420000000.000 +1.5162022080E-002 +3.3905393555E-002 
6430000000.000 +3.6452448987E-002 +4.1951309228E-003 
6440000000.000 +2.2428094684E-002 -2.8875068595E-002 
6450000000.000 -1.3254794858E-002 -3.4379979953E-002 
6460000000.000 -3.6668411349E-002 -5.8941790924E-003 
6470000000.000 -2.3340052292E-002 +2.8511191161E-002 
6480000000.000 +1.2142552250E-002 +3.4396313622E-002 
6490000000.000 +3.6039957227E-002 +7.5117098758E-003 
6500000000.000 +2.4712810150E-002 -2.7546316890E-002 
6510000000.000 -1.1199102008E-002 -3.4975947626E-002 
6520000000.000 -3.5575362812E-002 -8.1568039277E-003 
6530000000.000 -2.4939946585E-002 +2.6099783782E-002 
6540000000.000 +9.0847231416E-003 +3.4599336345E-002 
6550000000.000 +3.4537121304E-002 +1.0336754400E-002 
6560000000.000 +2.6739426846E-002 -2.4608295348E-002 
6570000000.000 -7.5101354674E-003 -3.5723681547E-002 
6580000000.000 -3.4800706266E-002 -1.1817981660E-002 
6590000000.000 -2.7984718826E-002 +2.3859734238E-002 
6600000000.000 +6.0499481149E-003 +3.6582069424E-002 
6610000000.000 +3.4934030904E-002 +1.3417455578E-002 
6620000000.000 +2.9235483960E-002 -2.3274432363E-002 
6630000000.000 -4.9573871326E-003 -3.7168844029E-002 
6640000000.000 -3.4718280654E-002 -1.4764925423E-002 
6650000000.000 -3.0583938041E-002 +2.2355940639E-002 
6660000000.000 +3.7912819918E-003 +3.8151431689E-002 
6670000000.000 +3.5027532390E-002 +1.5813538063E-002 
6680000000.000 +3.1317341868E-002 -2.1895248576E-002 
6690000000.000 -2.7273083488E-003 -3.8383448774E-002 
6700000000.000 -3.4751704377E-002 -1.7075559417E-002 
6710000000.000 -3.2419697380E-002 +2.1393721998E-002 
6720000000.000 +2.2449221661E-003 +3.8971819258E-002 
6730000000.000 +3.4601879463E-002 +1.7604204176E-002 
6740000000.000 +3.2911819591E-002 -2.0785716444E-002 
6750000000.000 -1.5274089239E-003 -3.9025599636E-002 
6760000000.000 -3.3920794826E-002 -1.8171313015E-002 
6770000000.000 -3.3112610451E-002 +1.9397695226E-002 
6780000000.000 -4.4408955343E-005 +3.8620921660E-002 
6790000000.000 +3.2765958168E-002 +1.9620970484E-002 
6800000000.000 +3.4377600055E-002 -1.7457655907E-002 
6810000000.000 +2.4540178570E-003 -3.9751617844E-002 
6820000000.000 -3.3662054733E-002 -2.1612984502E-002 
6830000000.000 -3.5240609716E-002 +1.7891811121E-002 
6840000000.000 -2.6801145454E-003 +3.9272060803E-002 
6850000000.000 +3.2147017459E-002 +2.2259539187E-002 
6860000000.000 +3.5655718668E-002 -1.5956506672E-002 
6870000000.000 +4.6794689066E-003 -3.9151925715E-002 
6880000000.000 -3.1606817742E-002 -2.4179001409E-002 
6890000000.000 -3.7063857726E-002 +1.5057141957E-002 
6900000000.000 -5.8462364785E-003 +3.9796841520E-002 
6910000000.000 +3.1704473984E-002 +2.5125794823E-002 
6920000000.000 +3.7064835015E-002 -1.4844329880E-002 
6930000000.000 +6.3789577134E-003 -3.8417053211E-002 
6940000000.000 -2.9054615006E-002 -2.5849123849E-002 
6950000000.000 -3.7955017485E-002 +1.1569797682E-002 
6960000000.000 -9.6226421055E-003 +3.9268533552E-002 
6970000000.000 +2.9557080097E-002 +2.8300110725E-002 
6980000000.000 +3.8870388203E-002 -1.1353072112E-002 
6990000000.000 +1.0608033734E-002 -3.8602690520E-002 
7000000000.000 -2.7950383240E-002 -2.9933265199E-002 
7010000000.000 -4.0600547437E-002 +9.5803036975E-003 
7020000000.000 -1.1934060356E-002 +3.9607281414E-002 
7030000000.000 +2.7861561932E-002 +3.0641334349E-002 
7040000000.000 +4.0792424506E-002 -8.4910005660E-003 
7050000000.000 +1.3512658817E-002 -3.9361336756E-002 
7060000000.000 -2.7109290387E-002 -3.2015541072E-002 
7070000000.000 -4.1631365250E-002 +7.2729439376E-003 
7080000000.000 -1.4812520948E-002 +3.9571449139E-002 
7090000000.000 +2.6600627178E-002 +3.3075997696E-002 
7100000000.000 +4.2093815412E-002 -6.3511656115E-003 
7110000000.000 +1.5797888313E-002 -3.9472828177E-002 
7120000000.000 -2.5846289803E-002 -3.3586023481E-002 
7130000000.000 -4.2088892035E-002 +4.8916370457E-003 
7140000000.000 -1.7268452516E-002 +3.9087664909E-002 
7150000000.000 +2.5159022324E-002 +3.4445317854E-002 
7160000000.000 +4.2164727056E-002 -3.9776265829E-003 
7170000000.000 +1.8162198422E-002 -3.8456845755E-002 
7180000000.000 -2.3915355310E-002 -3.4817658394E-002 
7190000000.000 -4.1693966563E-002 +2.1635611918E-003 
7200000000.000 -2.0451783289E-002 +3.7206423801E-002 
7210000000.000 +2.2369849830E-002 +3.7323357369E-002 
7220000000.000 +4.3821218320E-002 -1.0048981402E-003 
7230000000.000 +2.0945200285E-002 -3.8262523310E-002 
7240000000.000 -2.1951000568E-002 -3.7153335662E-002 
7250000000.000 -4.3073039705E-002 -5.6439644692E-004 
7260000000.000 -2.2948742722E-002 +3.7120701019E-002 
7270000000.000 +2.0764037121E-002 +3.9083728252E-002 
7280000000.000 +4.4382224069E-002 +1.5140938539E-003 
7290000000.000 +2.3637116388E-002 -3.7152186927E-002 
7300000000.000 -1.9413024637E-002 -3.9536157124E-002 
7310000000.000 -4.4857893296E-002 -3.5283814159E-003 
7320000000.000 -2.5354251906E-002 +3.7849423404E-002 
7330000000.000 +2.0110357037E-002 +4.0134439940E-002 
7340000000.000 +4.4131427936E-002 +3.3745109385E-003 
7350000000.000 +2.5845709387E-002 -3.6033464587E-002 
7360000000.000 -1.7870311651E-002 -4.1160682063E-002 
7370000000.000 -4.5076845636E-002 -5.3296916692E-003 
7380000000.000 -2.7055221245E-002 +3.6423813030E-002 
7390000000.000 +1.7655764238E-002 +4.1515015170E-002 
7400000000.000 +4.4752494549E-002 +6.0787247001E-003 
7410000000.000 +2.8122684363E-002 -3.5698691358E-002 
7420000000.000 -1.6875872678E-002 -4.2411923417E-002 
7430000000.000 -4.4817269022E-002 -6.6049328711E-003 
7440000000.000 -2.8550395889E-002 +3.4703732046E-002 
7450000000.000 +1.5249648193E-002 +4.2797656131E-002 
7460000000.000 +4.5033268640E-002 +8.1489871455E-003 
7470000000.000 +2.9510694070E-002 -3.4554795747E-002 
7480000000.000 -1.4564214175E-002 -4.3026575255E-002 
7490000000.000 -4.4554220947E-002 -9.3201903415E-003 
7500000000.000 -3.0746043050E-002 +3.3545906305E-002 
7510000000.000 +1.3362046417E-002 +4.3744082632E-002 
7520000000.000 +4.4313746170E-002 +1.0376128947E-002 
7530000000.000 +3.1420002996E-002 -3.2379891026E-002 
7540000000.000 -1.1579445876E-002 -4.4057982177E-002 
7550000000.000 -4.4308525309E-002 -1.2131015555E-002 
7560000000.000 -3.2516934850E-002 +3.1960299332E-002 
7570000000.000 +1.0671435345E-002 +4.4154358134E-002 
7580000000.000 +4.3532842601E-002 +1.3542832669E-002 
7590000000.000 +3.4067310793E-002 -3.0542247228E-002 
7600000000.000 -8.7304276027E-003 -4.5290515002E-002 
7610000000.000 -4.4078330940E-002 -1.5836008351E-002 
7620000000.000 -3.6298100559E-002 +3.0834428229E-002 
7630000000.000 +8.8866520151E-003 +4.6941942950E-002 
7640000000.000 +4.4766418533E-002 +1.5863405778E-002 
7650000000.000 +3.6437633669E-002 -3.0485856552E-002 
7660000000.000 -7.7100927110E-003 -4.7028615358E-002 
7670000000.000 -4.4887789425E-002 -1.7449334911E-002 
7680000000.000 -3.7702679733E-002 +3.0748397409E-002 
7690000000.000 +8.0404366974E-003 +4.7054604471E-002 
7700000000.000 +4.3399381004E-002 +1.7541788622E-002 
7710000000.000 +3.8916233011E-002 -2.8227359821E-002 
7720000000.000 -5.7856503458E-003 -4.9214798250E-002 
7730000000.000 -4.5312758216E-002 -1.8346369424E-002 
7740000000.000 -3.8008332512E-002 +2.8861456982E-002 
7750000000.000 +4.8773959897E-003 +4.7419460228E-002 
7760000000.000 +4.3442829855E-002 +2.0223168703E-002 
7770000000.000 +3.9730370180E-002 -2.7158686997E-002 
7780000000.000 -3.3006988761E-003 -4.8312660546E-002 
7790000000.000 -4.3482381916E-002 -2.1591862325E-002 
7800000000.000 -4.0636303143E-002 +2.6608081529E-002 
7810000000.000 +2.4013426434E-003 +4.8462278751E-002 
7820000000.000 +4.2880816335E-002 +2.2358979934E-002 
7830000000.000 +4.0867705943E-002 -2.5421323706E-002 
7840000000.000 -7.0174201289E-004 -4.8196482059E-002 
7850000000.000 -4.2358209759E-002 -2.4338827686E-002 
7860000000.000 -4.2317149739E-002 +2.4880521739E-002 
7870000000.000 +2.1687806835E-004 +4.8530509628E-002 
7880000000.000 +4.1629994247E-002 +2.4833135002E-002 
7890000000.000 +4.3001652537E-002 -2.3644145325E-002 
7900000000.000 +8.4359352569E-004 -4.8997281877E-002 
7910000000.000 -4.1269908974E-002 -2.5421363652E-002 
7920000000.000 -4.3297782179E-002 +2.2357672135E-002 
7930000000.000 -2.6111327398E-003 +4.9253189483E-002 
7940000000.000 +4.1474147724E-002 +2.7040830858E-002 
7950000000.000 +4.4212198858E-002 -2.2229832099E-002 
7960000000.000 +3.0685760498E-003 -4.9255044429E-002 
7970000000.000 -4.0716804069E-002 -2.7638364758E-002 
7980000000.000 -4.4510745796E-002 +2.1050098091E-002 
7990000000.000 -4.2431312264E-003 +4.8904672201E-002 
8000000000.000 +3.9771004775E-002 +2.8371753330E-002 
8010000000.000 +4.4805066160E-002 -1.9741052159E-002 
8020000000.000 +5.8618190604E-003 -4.8917216346E-002 
8030000000.000 -3.9522390600E-002 -2.9839644147E-002 
8040000000.000 -4.5407236002E-002 +1.9154319649E-002 
8050000000.000 -6.4899586521E-003 +4.8315674197E-002 
8060000000.000 +3.8087588801E-002 +3.0204638462E-002 
8070000000.000 +4.5496372552E-002 -1.7497163266E-002 
8080000000.000 +7.8153990925E-003 -4.8038978253E-002 
8090000000.000 -3.7247326123E-002 -3.0964395186E-002 
8100000000.000 -4.5499333272E-002 +1.6007395603E-002 
8110000000.000 -9.7985552536E-003 +4.7473764013E-002 
8120000000.000 +3.6440713035E-002 +3.2874307142E-002 
8130000000.000 +4.6632589057E-002 -1.5392039121E-002 
8140000000.000 +9.9159825605E-003 -4.7391215983E-002 
8150000000.000 -3.5310352583E-002 -3.2484579626E-002 
8160000000.000 -4.6071247831E-002 +1.3654025757E-002 
8170000000.000 -1.1933728632E-002 +4.6740917762E-002 
8180000000.000 +3.4379300815E-002 +3.4194912757E-002 
8190000000.000 +4.6931443107E-002 -1.2484985794E-002 
8200000000.000 +1.2928085621E-002 -4.6691803619E-002 
8210000000.000 -3.3622740638E-002 -3.4843294720E-002 
8220000000.000 -4.7108971253E-002 +1.1256071828E-002 
8230000000.000 -1.4058655954E-002 +4.6337630660E-002 
8240000000.000 +3.2756952785E-002 +3.5502185911E-002 
8250000000.000 +4.7107371442E-002 -1.0034524373E-002 
8260000000.000 +1.5320027219E-002 -4.5566000739E-002 
8270000000.000 -3.1285857602E-002 -3.6259852601E-002 
8280000000.000 -4.7192690478E-002 +8.2799480974E-003 
8290000000.000 -1.6834711449E-002 +4.5122848463E-002 
8300000000.000 +3.0401787290E-002 +3.6988437273E-002 
8310000000.000 +4.6916872621E-002 -6.9216816492E-003 
8320000000.000 +1.8382553714E-002 -4.4095797984E-002 
8330000000.000 -2.9205147286E-002 -3.8368850146E-002 
8340000000.000 -4.7576191824E-002 +6.0851003915E-003 
8350000000.000 -1.8869158066E-002 +4.3715406847E-002 
8360000000.000 +2.7970351801E-002 +3.8489458263E-002 
8370000000.000 +4.7254307490E-002 -4.5879007175E-003 
8380000000.000 +2.0041963286E-002 -4.2855486259E-002 
8390000000.000 -2.6617671578E-002 -3.8987653440E-002 
8400000000.000 -4.7119029568E-002 +2.8320047380E-003 
8410000000.000 -2.1852429436E-002 +4.2185754935E-002 
8420000000.000 +2.5673892094E-002 +4.0537776092E-002 
8430000000.000 +4.7962389682E-002 -2.1918242445E-003 
8440000000.000 +2.1869293640E-002 -4.1976074249E-002 
8450000000.000 -2.4344662773E-002 -3.9941440988E-002 
8460000000.000 -4.7081417978E-002 +1.8778945712E-004 
8470000000.000 -2.3709289896E-002 +4.1201702084E-002 
8480000000.000 +2.3676665653E-002 +4.0974239146E-002 
8490000000.000 +4.6914535964E-002 +6.4446748930E-004 
8500000000.000 +2.4615451153E-002 -3.9838310720E-002 
8510000000.000 -2.1724844868E-002 -4.1642855000E-002 
8520000000.000 -4.7087510556E-002 -2.4422137585E-003 
8530000000.000 -2.5875339502E-002 +3.9450737620E-002 
8540000000.000 +2.0830488919E-002 +4.1989062129E-002 
8550000000.000 +4.6390030686E-002 +3.6201647719E-003 
8560000000.000 +2.7052441830E-002 -3.7861516816E-002 
8570000000.000 -1.8898311574E-002 -4.2806563820E-002 
8580000000.000 -4.6573154046E-002 -5.3755968195E-003 
8590000000.000 -2.8035682427E-002 +3.7367747682E-002 
8600000000.000 +1.7849455645E-002 +4.2842845214E-002 
8610000000.000 +4.5751386342E-002 +6.7422734755E-003 
8620000000.000 +2.9461865866E-002 -3.5989733656E-002 
8630000000.000 -1.6220578365E-002 -4.3873334647E-002 
8640000000.000 -4.5998949237E-002 -8.0830097001E-003 
8650000000.000 -3.0003564742E-002 +3.5316160496E-002 
8660000000.000 +1.4889817164E-002 +4.3456246820E-002 
