!  1-Port S-parameters saved by WinCal
! VAR NAME=2-Port SOLT labuser 3
! VAR Error Term Name=ETrt phys rcv port 1 phys src port 2
!
# Hz S RI R 50
8000000000.000 -1.4081379237E+000 -5.3753729908E+000 
8100000000.000 -5.0076868610E+000 -2.0308653516E+000 
8200000000.000 -4.6461595850E+000 +3.0615067012E+000 
8300000000.000 -1.2369187103E-001 +5.5818611718E+000 
8400000000.000 +4.4235005056E+000 +3.1701369059E+000 
8500000000.000 +5.1423914820E+000 -1.7807096588E+000 
8600000000.000 +1.4775522577E+000 -5.2948485398E+000 
8700000000.000 -3.5993136869E+000 -4.1048158902E+000 
8800000000.000 -5.3285215102E+000 +4.1856578400E-001 
8900000000.000 -2.7689013611E+000 +4.6435523284E+000 
9000000000.000 +2.2553759914E+000 +4.9303557040E+000 
9100000000.000 +5.3762551494E+000 +1.0437566650E+000 
9200000000.000 +3.9937121255E+000 -3.7392577168E+000 
9300000000.000 -7.6621371977E-001 -5.4303871146E+000 
9400000000.000 -4.9277353731E+000 -2.5861888524E+000 
9500000000.000 -5.0171016063E+000 +2.5615976108E+000 
9600000000.000 -7.7221468121E-001 +5.7142086674E+000 
9700000000.000 +4.2716205903E+000 +4.0361990277E+000 
9800000000.000 +5.9269479500E+000 -1.3481617916E+000 
9900000000.000 +2.3074566845E+000 -5.7484960742E+000 
10000000000.000 -3.5386443630E+000 -5.2556496304E+000 
10100000000.000 -6.4275245823E+000 +5.4306183163E-002 
10200000000.000 -3.4450150535E+000 +5.4773356666E+000 
10300000000.000 +2.5551321203E+000 +6.0017836093E+000 
10400000000.000 +6.4264333615E+000 +1.2492794242E+000 
10500000000.000 +4.5184290230E+000 -4.6949577358E+000 
10600000000.000 -1.4666386358E+000 -6.2584548792E+000 
10700000000.000 -5.9099420847E+000 -2.4174838763E+000 
10800000000.000 -5.3637678060E+000 +3.3262765539E+000 
10900000000.000 -9.6260328652E-002 +6.3204452940E+000 
11000000000.000 +5.1234271586E+000 +3.4627354469E+000 
11100000000.000 +5.6280598340E+000 -2.1795250443E+000 
11200000000.000 +1.5172762702E+000 -5.7580150776E+000 
11300000000.000 -3.7815543153E+000 -4.4866682940E+000 
11400000000.000 -5.8506012651E+000 +4.2822875728E-001 
11500000000.000 -3.0285758670E+000 +4.9709786216E+000 
11600000000.000 +2.3375770695E+000 +5.3355969824E+000 
11700000000.000 +5.6995551054E+000 +1.1551202917E+000 
11800000000.000 +4.2625580169E+000 -4.0267353475E+000 
11900000000.000 -7.3189647551E-001 -5.8140826554E+000 
12000000000.000 -5.2298082003E+000 -2.7703288317E+000 
