!  1-Port S-parameters saved by WinCal
! VAR NAME=2-Port SOLT labuser 3
! VAR Error Term Name=ESrm phys rcv port 1 phys src port 1
!
# Hz S RI R 50
8000000000.000 -1.5461273963E-001 -1.2638852743E-001 
8100000000.000 -2.0532916300E-001 -3.6947699688E-002 
8200000000.000 -1.3549899969E-001 -3.1124756825E-002 
8300000000.000 -1.5676766314E-001 -2.0431756857E-002 
8400000000.000 -2.0730695733E-001 -1.0999230157E-002 
8500000000.000 -1.2053678077E-001 +6.4722611004E-002 
8600000000.000 -1.3385313840E-001 +1.5922945503E-002 
8700000000.000 -1.9206482745E-001 +3.4997969535E-002 
8800000000.000 -7.9466446368E-002 +1.1924383295E-001 
8900000000.000 -8.0304259377E-002 +8.0814611061E-003 
9000000000.000 -1.1627161610E-001 +5.1758412056E-002 
9100000000.000 -6.4087113960E-002 +9.8945071295E-002 
9200000000.000 -3.3299957916E-002 +2.2450399913E-002 
9300000000.000 -1.1530304865E-001 +3.9279445410E-002 
9400000000.000 -8.8128114319E-002 +1.2061327626E-001 
9500000000.000 -1.4900410974E-002 +4.3697509812E-002 
9600000000.000 -8.2546318194E-002 +3.3355293596E-002 
9700000000.000 -9.1839568368E-002 +5.7658681660E-002 
9800000000.000 -4.8856944806E-002 +8.6828743924E-002 
9900000000.000 -3.4328890902E-002 +4.3070060155E-002 
10000000000.000 -1.0611828349E-001 +6.2658839382E-002 
10100000000.000 -1.5932475364E-002 +9.0637554870E-002 
10200000000.000 -3.0756592788E-002 +7.3740100033E-002 
10300000000.000 -3.6215770947E-002 +2.3094145370E-002 
10400000000.000 -4.2025714241E-002 +7.8891631972E-002 
10500000000.000 -3.9421267696E-002 +8.4511716492E-002 
10600000000.000 -2.7223827042E-003 +5.0524575019E-002 
10700000000.000 -5.2847505924E-002 +7.1595247177E-002 
10800000000.000 -1.3228099476E-002 +7.2341538704E-002 
10900000000.000 +1.1599040440E-002 +4.2339034219E-002 
11000000000.000 -4.9138313351E-002 +2.8663494276E-002 
11100000000.000 -6.7332785598E-003 +5.5274093614E-002 
11200000000.000 -3.5669874888E-003 +7.6706721293E-002 
11300000000.000 +6.4008179351E-003 +1.0255064083E-002 
11400000000.000 +8.4387523767E-004 +6.5337079012E-002 
11500000000.000 +5.2092108461E-003 +5.0774620298E-002 
11600000000.000 -1.1404714934E-002 +1.4358896251E-002 
11700000000.000 +3.0081645402E-002 +5.0420539739E-002 
11800000000.000 -4.3443579291E-002 +3.0442558529E-003 
11900000000.000 -3.1585099106E-003 +2.3549686048E-002 
12000000000.000 -3.2565258315E-002 +5.7939386730E-002 
