!  1-Port S-parameters saved by WinCal
! VAR NAME=2-Port SOLT labuser 3
! VAR Error Term Name=EDir phys rcv port 1 phys src port 1
!
# Hz S RI R 50
8000000000.000 -4.7646545696E-001 +1.0748273744E+000 
8100000000.000 +1.1120961159E+000 +2.7390148155E-001 
8200000000.000 +5.5390646330E-001 -6.2011602279E-001 
8300000000.000 -8.1266078546E-001 +2.2552398489E-002 
8400000000.000 -8.9966390682E-001 +1.5371676086E+000 
8500000000.000 +1.9766979916E-001 +4.7587143587E-001 
8600000000.000 -1.2371753472E-001 -5.6121838111E-001 
8700000000.000 -7.3902127571E-001 -8.1625976288E-001 
8800000000.000 -5.9607588750E-001 +2.6140162145E-001 
8900000000.000 +9.6162762381E-002 +2.2921405019E-001 
9000000000.000 +2.9316456860E-001 -4.3317438428E-001 
9100000000.000 -3.7103896275E-001 -6.6921045577E-001 
9200000000.000 -1.6170352955E-001 -1.6538602191E-001 
9300000000.000 +4.6653398593E-001 +7.0491028375E-002 
9400000000.000 +8.7725765395E-001 -1.9171940281E-001 
9500000000.000 +3.0120869245E-001 -2.7778781981E-001 
9600000000.000 +1.9992117510E-001 +2.7511698822E-001 
9700000000.000 +5.3938853262E-001 +7.7837693740E-001 
9800000000.000 +6.6999592710E-001 +2.9921595359E-001 
9900000000.000 +9.3757172553E-002 -2.2636245286E-002 
10000000000.000 -4.4523006007E-001 +5.1831461870E-001 
10100000000.000 -2.6663150923E-001 +9.4097128439E-001 
10200000000.000 +1.2313833934E-001 +4.4537145380E-001 
10300000000.000 -1.8176224351E-001 -2.2638880652E-001 
10400000000.000 -7.2714838697E-001 +2.1574829933E-002 
10500000000.000 -7.8420284527E-001 +4.1126645224E-001 
10600000000.000 +1.9437086304E-002 +5.7914330940E-002 
10700000000.000 +7.6201804662E-003 -5.3111156574E-001 
10800000000.000 -2.9673483736E-001 -5.1961487185E-001 
10900000000.000 -2.8017803536E-001 +3.1274518660E-002 
11000000000.000 +3.2138864766E-001 +1.4726539009E-001 
11100000000.000 +3.8103775736E-001 -2.2055429415E-001 
11200000000.000 +3.2068302720E-002 -4.3025336174E-001 
11300000000.000 -1.2677666969E-001 -8.7933034006E-003 
11400000000.000 +1.1937876636E-001 +2.4883362662E-001 
11500000000.000 +1.7480092534E-001 +6.2165908961E-002 
11600000000.000 -9.5369602186E-002 -1.0859255644E-001 
11700000000.000 -3.8977715330E-001 +6.1556634521E-002 
11800000000.000 -7.4642089745E-002 +1.5775987037E-001 
11900000000.000 +1.5943326212E-001 -5.7590968358E-002 
12000000000.000 +3.7610883648E-002 -2.5061552894E-001 
