!  1-Port S-parameters saved by WinCal
! VAR NAME=2-Port LRRM (Conv to 12) labuser
! VAR Error Term Name=ELdm phys rcv port 2 phys src port 1
!
# Hz S RI R 50
1000000000.000 -5.4407991167E-002 +6.2751156984E-002 
1043750000.000 -6.1624192204E-002 +5.0222918740E-002 
1087500000.000 -4.0601220622E-002 +6.4114685951E-002 
1131250000.000 -3.7773591598E-002 +6.9683726486E-002 
1175000000.000 -5.8226122117E-002 +4.6002246443E-002 
1218750000.000 -9.3363294311E-002 +6.2935969849E-002 
1262500000.000 -1.3198290654E-001 +9.7752482489E-002 
1306250000.000 -1.5679249578E-001 +4.7673811470E-002 
1350000000.000 -1.2933135481E-001 -7.6678151384E-002 
1393750000.000 -8.5693398051E-002 -9.6730951739E-002 
1437500000.000 -1.0607163789E-001 -2.1263850081E-003 
1481250000.000 -1.3316074108E-001 +1.4079446883E-003 
1525000000.000 -8.4903892548E-002 -6.2822046437E-002 
1568750000.000 -8.4209724485E-002 -1.0374509435E-001 
1612500000.000 -1.4176405242E-001 -8.3103278570E-002 
1656250000.000 -1.7838290165E-001 -6.6509885771E-002 
1700000000.000 -1.5217360579E-001 -8.1449278750E-002 
1743750000.000 -1.0695829648E-001 -1.0252607111E-001 
1787500000.000 -1.2240878303E-001 -9.3187655108E-002 
1831250000.000 -1.5721039730E-001 -1.0990793022E-001 
1875000000.000 -1.0717258779E-001 -1.4889686001E-001 
1918750000.000 -6.6227093840E-002 -1.1489633894E-001 
1962500000.000 -1.4040600522E-001 -8.4247028257E-002 
2006250000.000 -1.8762090722E-001 -1.2365407340E-001 
2050000000.000 -1.0971576554E-001 -1.6660627661E-001 
2093750000.000 -9.0320733974E-003 -1.7779390835E-001 
2137500000.000 +1.0272134094E-002 -1.7532773902E-001 
2181250000.000 -4.7439670390E-002 -1.7783862506E-001 
2225000000.000 -8.7774222096E-002 -1.8779460142E-001 
2268750000.000 -7.5900510890E-002 -1.4288349662E-001 
2312500000.000 -9.3763656798E-002 -1.0573219166E-001 
2356250000.000 -8.9016008135E-002 -1.6123998321E-001 
2400000000.000 +3.6650112116E-003 -1.9879291521E-001 
2443750000.000 +6.1962964430E-003 -1.4084313533E-001 
2487500000.000 -5.3657421728E-002 -1.4776524200E-001 
2531250000.000 -2.9435540704E-003 -2.1253766366E-001 
2575000000.000 +3.8499709387E-002 -1.6274624864E-001 
2618750000.000 -1.5875749415E-003 -1.0701438288E-001 
2662500000.000 -2.1085034432E-002 -1.0446750290E-001 
2706250000.000 +3.0603009026E-002 -7.3307318897E-002 
2750000000.000 +3.1880194936E-002 -8.4104231274E-002 
2793750000.000 +8.3815573133E-003 -1.2776365533E-001 
2837500000.000 +4.2689448633E-004 -1.3326494587E-001 
2881250000.000 +5.8436997316E-003 -1.4048024473E-001 
2925000000.000 +7.0921367501E-002 -1.2277832793E-001 
2968750000.000 +9.2137522385E-002 -5.4607587522E-002 
3012500000.000 +2.2441221600E-002 -2.7532754770E-003 
3056250000.000 +1.0884015003E-002 +9.7781668545E-003 
3100000000.000 +3.7080024586E-002 -1.8056959179E-003 
3143750000.000 +6.1668982347E-002 -6.0456286195E-002 
3187500000.000 +8.5956594075E-002 -4.5963920282E-002 
3231250000.000 +3.7169699556E-002 +3.2865255614E-002 
3275000000.000 +1.1747238787E-002 +2.6043359586E-002 
3318750000.000 +6.9217438985E-002 +6.8827732059E-003 
3362500000.000 +6.9733046973E-002 +4.9362445594E-002 
3406250000.000 +2.5909975009E-002 +6.0360562638E-002 
3450000000.000 +7.4249717049E-002 +7.6481371366E-002 
3493750000.000 +8.7598321721E-002 +1.2616879768E-001 
3537500000.000 +2.1417084612E-002 +9.6234109039E-002 
3581250000.000 +1.7775474142E-002 +4.9980743179E-002 
3625000000.000 +5.8998403230E-002 +7.7964431626E-002 
3668750000.000 +8.3271663493E-002 +8.2571568939E-002 
3712500000.000 +7.4463783775E-002 +1.0319847021E-001 
3756250000.000 -2.3381977040E-002 +1.6991956924E-001 
3800000000.000 -3.4928767110E-002 +1.6018736152E-001 
3843750000.000 +8.4464359282E-002 +1.2953812115E-001 
3887500000.000 +1.1880055180E-001 +1.6809653365E-001 
3931250000.000 +1.1372186126E-002 +1.5559566829E-001 
3975000000.000 -1.1034877494E-002 +9.2726343327E-002 
4018750000.000 +6.2734540812E-002 +1.0478660641E-001 
4062500000.000 +7.2645763745E-002 +1.8710783104E-001 
4106250000.000 +1.2371999759E-003 +2.1210870585E-001 
4150000000.000 -3.5932782236E-002 +2.0583230889E-001 
4193750000.000 +4.2755851870E-002 +1.8879607011E-001 
4237500000.000 +8.7477632939E-002 +1.5187595938E-001 
4281250000.000 +1.9430324844E-002 +1.0543046208E-001 
4325000000.000 -1.3395252583E-005 +9.0354050484E-002 
4368750000.000 +5.6434522641E-002 +1.7354133403E-001 
4412500000.000 +6.0498898001E-002 +2.3612999256E-001 
4456250000.000 +1.9216231877E-002 +1.8047597052E-001 
4500000000.000 -1.5060892562E-003 +1.4260395929E-001 
4543750000.000 +2.7988526906E-002 +1.5588899411E-001 
4587500000.000 +7.7794683924E-002 +1.5237542535E-001 
4631250000.000 +6.2513011331E-002 +1.5214314771E-001 
4675000000.000 -8.7725467938E-003 +1.3197183513E-001 
4718750000.000 -3.3755565617E-002 +1.3736109458E-001 
4762500000.000 +4.1431372799E-003 +1.6468463987E-001 
4806250000.000 -1.2570534607E-002 +1.3135092370E-001 
4850000000.000 +2.8806861452E-003 +1.0677974370E-001 
4893750000.000 +2.1701179158E-002 +1.6015268311E-001 
4937500000.000 +1.2942775603E-002 +1.9409144353E-001 
4981250000.000 +8.1836538225E-003 +1.2521096737E-001 
5025000000.000 -1.0240502401E-002 +5.8081049853E-002 
5068750000.000 -4.5424415780E-002 +3.2839393180E-002 
5112500000.000 -2.3511756896E-002 +5.6093948085E-002 
5156250000.000 -7.9658659229E-003 +8.6238248900E-002 
5200000000.000 -2.3791375809E-002 +8.0649218969E-002 
5243750000.000 +1.5980360227E-002 +6.5800730519E-002 
5287500000.000 +1.9358911723E-002 +7.5543389409E-002 
5331250000.000 -6.0482737678E-003 +1.7805412731E-002 
5375000000.000 -8.7740153027E-003 -2.8091517057E-002 
5418750000.000 -3.1016765122E-002 -1.1396413044E-002 
5462500000.000 -3.3623447745E-002 +2.4362701289E-003 
5506250000.000 -6.1872006125E-003 +2.9917812376E-002 
5550000000.000 -7.1718755319E-003 +4.6248835033E-002 
5593750000.000 +1.4290408321E-002 -2.2981582426E-002 
5637500000.000 +1.2748351758E-001 -5.9358286649E-002 
5681250000.000 +1.2834343941E-001 -3.9902733051E-002 
5725000000.000 +1.1613119685E-002 -9.9615223840E-002 
5768750000.000 -3.5894387545E-004 -1.4489132563E-001 
5812500000.000 +5.2572819717E-002 -5.6974654004E-002 
5856250000.000 +6.8677155959E-002 +1.5747381404E-002 
5900000000.000 +6.3850489860E-002 +1.1559269126E-003 
5943750000.000 +8.7404251771E-002 -4.1178702020E-002 
5987500000.000 +1.4199125461E-001 -1.0323776667E-001 
6031250000.000 +1.9320551631E-001 -1.2221822044E-001 
6075000000.000 +1.0396735561E-001 -1.0941481614E-001 
6118750000.000 +4.6074783389E-003 -1.2568621502E-001 
6162500000.000 +6.0715407507E-002 -3.7888171157E-002 
6206250000.000 +1.3241631103E-001 +1.0629428781E-001 
6250000000.000 +1.3622497692E-001 +6.2407905935E-002 
6293750000.000 +1.5657087253E-001 -7.9199342986E-002 
6337500000.000 +1.6589391408E-001 -1.3400897556E-001 
6381250000.000 +1.5198171078E-001 -1.0961500279E-001 
6425000000.000 +1.1673781648E-001 -7.0622270058E-002 
6468750000.000 +6.3201167948E-002 -1.9432786742E-002 
6512500000.000 +3.6289356147E-002 +1.0117842037E-002 
6556250000.000 +1.1976555461E-001 +2.9041557932E-002 
6600000000.000 +2.1474652682E-001 +3.5315922211E-003 
6643750000.000 +2.2611786009E-001 -3.1416270852E-002 
6687500000.000 +1.4091336818E-001 -6.5140892463E-002 
6731250000.000 +6.8295863263E-002 -5.4994779222E-002 
6775000000.000 +9.4935385089E-002 +1.4020536489E-002 
6818750000.000 +9.5500866175E-002 +1.0500332700E-001 
6862500000.000 +4.8676868806E-002 +8.4160842603E-002 
6906250000.000 +8.6573476824E-002 +1.8209659740E-002 
6950000000.000 +1.7544402190E-001 +4.1250789636E-002 
6993750000.000 +1.6006636895E-001 +5.2556908317E-002 
7037500000.000 +9.2609034732E-002 -8.4609153751E-003 
7081250000.000 +4.7979957943E-002 -2.5366850001E-002 
7125000000.000 +4.7781989951E-002 +4.2518715293E-002 
7168750000.000 +7.0235883647E-002 +9.4785486064E-002 
7212500000.000 +9.6477475222E-002 +9.2546419425E-002 
7256250000.000 +1.0397708759E-001 +7.2679976767E-002 
7300000000.000 +9.4434486618E-002 +7.9315649831E-002 
7343750000.000 +5.2276551972E-002 +7.2050858449E-002 
7387500000.000 +5.3746480364E-003 +1.0806952923E-003 
7431250000.000 +1.6632098990E-002 -1.9314551649E-002 
7475000000.000 +1.1194437872E-002 +6.3162947875E-002 
7518750000.000 +1.2038062072E-002 +1.0516199948E-001 
7562500000.000 +5.3766709755E-002 +6.1933287766E-002 
7606250000.000 +8.9355959369E-002 +1.4833568987E-002 
7650000000.000 +5.4007949566E-002 +1.0967199265E-002 
7693750000.000 -1.9791679847E-002 +4.0194448712E-002 
7737500000.000 -8.1650021517E-002 +2.2432353686E-002 
7781250000.000 -4.6403382827E-002 -2.1836411725E-002 
7825000000.000 +1.7869215368E-002 +4.3733598596E-002 
7868750000.000 -1.7062548910E-003 +9.3304830508E-002 
7912500000.000 +6.5896342464E-003 +1.0637546404E-002 
7956250000.000 +5.7435512769E-002 -4.6626494436E-002 
8000000000.000 +1.1283634004E-002 -3.1485330186E-002 
8043750000.000 -5.2442703348E-002 -7.2772810847E-003 
8087500000.000 -3.1012692361E-002 +1.8430016911E-002 
8131250000.000 -2.2706639765E-002 +2.0962696132E-002 
8175000000.000 -9.8289611949E-003 -3.6617535945E-002 
8218750000.000 +1.4461820599E-002 -2.8561812363E-002 
8262500000.000 -9.6975664554E-003 +2.6638461147E-002 
8306250000.000 -3.0668666453E-002 -1.7431396883E-003 
8350000000.000 -1.1858617586E-002 -4.4226841728E-002 
8393750000.000 -1.0165675167E-002 -1.7847677351E-002 
8437500000.000 -4.6773884613E-002 +3.4027116812E-002 
8481250000.000 -4.2689608091E-002 +2.6146858903E-002 
8525000000.000 -1.8094152361E-002 -3.1502515263E-002 
8568750000.000 +4.7156519351E-003 -3.2164743024E-002 
8612500000.000 -2.7187695012E-002 +5.0504447942E-002 
8656250000.000 -7.1749453354E-002 +5.2659327666E-002 
8700000000.000 -1.1534395030E-002 -3.7257848795E-002 
8743750000.000 +4.1279858855E-002 -3.8638770498E-002 
8787500000.000 -2.5611603444E-002 +2.6229893232E-002 
8831250000.000 -8.3592367825E-002 +2.9437986831E-002 
8875000000.000 -2.8546081006E-002 +7.1686619035E-003 
8918750000.000 +2.1514009339E-002 +6.3683957904E-003 
8962500000.000 -9.2463620598E-003 +3.1734708939E-002 
9006250000.000 -6.9922604348E-002 +4.0985923984E-002 
9050000000.000 -6.1411133962E-002 -2.8446846412E-003 
9093750000.000 +7.4682335593E-003 -3.6010843881E-002 
9137500000.000 -1.0026165041E-002 -1.0856841525E-002 
9181250000.000 -6.6917881250E-002 +1.4883733994E-002 
9225000000.000 -6.3272582864E-002 +2.4434707610E-002 
9268750000.000 -1.4551473652E-002 +9.3423782062E-003 
9312500000.000 -4.2643443426E-003 +3.7386897550E-003 
9356250000.000 -5.5922807685E-002 +6.3060926584E-003 
9400000000.000 -8.4423515224E-002 +6.6305566794E-003 
9443750000.000 -3.2548574018E-002 -1.3237984918E-002 
9487500000.000 -2.2790408380E-002 +4.9650079965E-003 
9531250000.000 -8.3044414435E-002 +1.1482274570E-002 
9575000000.000 -5.9534162283E-002 -8.0924001074E-003 
9618750000.000 +2.0735614339E-002 +1.4858691099E-002 
9662500000.000 +2.9638254174E-002 +1.7835706080E-002 
9706250000.000 +3.9970002213E-003 -7.2192875717E-003 
9750000000.000 -5.1212936677E-003 +1.6599706912E-003 
9793750000.000 -9.0119399701E-003 +1.3994317588E-002 
9837500000.000 +3.6951509581E-002 -6.6750875994E-003 
9881250000.000 +5.7015851396E-002 +2.6552880669E-002 
9925000000.000 -6.3271336044E-003 +5.0355806086E-002 
9968750000.000 -4.1259107915E-003 -3.4094341942E-002 
10012500000.000 +7.4825410594E-002 -5.2152565070E-002 
10056250000.000 +6.8406049911E-002 +3.4925180466E-002 
10100000000.000 -7.5626351204E-003 +9.7205894550E-002 
10143750000.000 +6.8822483713E-003 +6.2888594493E-002 
10187500000.000 +9.7261784190E-002 +2.3417830994E-002 
10231250000.000 +1.6732375806E-001 +3.7184111761E-002 
10275000000.000 +8.5559023026E-002 +8.3278716822E-002 
10318750000.000 +1.7881285065E-002 +2.7090329631E-002 
10362500000.000 +1.0326171037E-001 +1.2652226165E-002 
10406250000.000 +1.2202245066E-001 +1.6780166899E-001 
10450000000.000 +2.0466398482E-002 +2.1944023492E-001 
10493750000.000 +5.3880402937E-002 +1.2014994871E-001 
10537500000.000 +1.7931196972E-001 +6.5446817505E-002 
10581250000.000 +1.8086963284E-001 +9.3396897034E-002 
10625000000.000 +7.3048815016E-002 +1.3745937172E-001 
10668750000.000 -1.0607379067E-002 +1.5940160655E-001 
10712500000.000 +6.1400435948E-002 +1.4377153285E-001 
10756250000.000 +1.8356776715E-001 +1.4890305034E-001 
10800000000.000 +1.4074516269E-001 +2.0374719443E-001 
10843750000.000 +2.0230768247E-002 +1.6407699772E-001 
10887500000.000 +4.9805746609E-002 +8.1437122222E-002 
10931250000.000 +1.1465597925E-001 +1.1722217302E-001 
10975000000.000 +4.9867417500E-002 +1.6165452976E-001 
11018750000.000 +9.3945372427E-003 +1.5841470995E-001 
11062500000.000 +7.8765298537E-002 +1.6247865924E-001 
11106250000.000 +1.3149226785E-001 +1.4890301981E-001 
11150000000.000 +1.0675238522E-001 +1.2693921960E-001 
11193750000.000 +1.4218724885E-002 +1.1475828848E-001 
11237500000.000 -3.3467679578E-002 +1.3979827447E-001 
11281250000.000 +2.9635212421E-002 +1.5827037787E-001 
11325000000.000 +5.6154788016E-002 +1.5302334029E-001 
11368750000.000 +3.5274272024E-002 +1.1005576753E-001 
11412500000.000 +2.4805697705E-002 +8.8260398237E-002 
11456250000.000 +3.6492947027E-002 +9.3387402672E-002 
11500000000.000 +6.0337147290E-002 +8.9665032139E-002 
11543750000.000 +2.1689110040E-002 +1.0269176390E-001 
11587500000.000 -4.8763565952E-002 +8.9438186305E-002 
11631250000.000 +1.9210748536E-002 +6.0304562307E-002 
11675000000.000 +1.1994759110E-001 +1.0206786415E-001 
11718750000.000 +2.9918262280E-002 +9.8877767129E-002 
11762500000.000 -6.0918105205E-002 -1.1250410520E-002 
11806250000.000 +7.2265054081E-003 -1.3618532775E-002 
11850000000.000 +5.6063193715E-002 +7.1576748289E-002 
11893750000.000 +5.5197560867E-003 +1.1617205193E-001 
11937500000.000 -2.0075747241E-002 +6.6169716782E-002 
11981250000.000 +2.9965082430E-002 +1.5972651126E-002 
12025000000.000 +1.1531458121E-001 +6.4653314633E-003 
12068750000.000 +8.6299785063E-002 +2.4473765001E-002 
12112500000.000 -3.7622668256E-002 -1.5353578739E-002 
12156250000.000 -3.0652824007E-002 -7.9096164040E-002 
12200000000.000 +6.3093238109E-002 +2.9874207128E-003 
12243750000.000 +5.8545225491E-002 +1.0105577422E-001 
12287500000.000 +3.1936859883E-002 +3.3934925399E-002 
12331250000.000 +1.0236583092E-001 -4.2855358644E-002 
12375000000.000 +1.4583195594E-001 -2.2379644069E-002 
12418750000.000 +8.4738443306E-002 -3.4456265463E-002 
12462500000.000 +7.1246350028E-003 -7.9820582980E-002 
12506250000.000 +1.1803510751E-002 -6.9495159457E-002 
12550000000.000 +8.2228345751E-002 +2.6849040142E-002 
12593750000.000 +1.0423432911E-001 +9.5001902726E-002 
12637500000.000 +9.9574031667E-002 +2.1792222844E-002 
12681250000.000 +1.0702136641E-001 -5.4161830455E-002 
12725000000.000 +1.0160113899E-001 -5.8538041701E-002 
12768750000.000 +6.8058751954E-002 -2.2642258247E-002 
12812500000.000 +2.9368850485E-002 -6.0288200266E-003 
12856250000.000 +4.3718156668E-003 +6.5342599111E-003 
12900000000.000 +5.9706393750E-002 +2.5999599895E-002 
12943750000.000 +1.6839305276E-001 +4.6448132280E-002 
12987500000.000 +1.8499785485E-001 +6.1891260742E-002 
13031250000.000 +1.0122625088E-001 -7.7679261506E-003 
13075000000.000 +4.9974225322E-002 -7.2678901999E-002 
13118750000.000 +6.6790496787E-002 -4.4796904101E-002 
13162500000.000 +6.3893288832E-002 +3.5262936333E-002 
13206250000.000 +1.7573747245E-002 +4.9152575351E-002 
13250000000.000 +3.7656819788E-002 +2.1226659026E-002 
13293750000.000 +1.3621938861E-001 +4.4357999475E-003 
13337500000.000 +1.7866375786E-001 +9.1927990049E-003 
13381250000.000 +1.1738955877E-001 -2.2389473551E-002 
13425000000.000 +5.6487072005E-002 -8.5592886255E-002 
13468750000.000 +5.7036829255E-002 -5.3114451112E-002 
13512500000.000 +5.6023228681E-002 +3.9658783629E-002 
13556250000.000 +1.9371638736E-002 +7.9734257522E-002 
13600000000.000 +2.3967681578E-002 +3.8840616664E-002 
13643750000.000 +1.2784963096E-001 -1.0583133619E-002 
13687500000.000 +1.8322669476E-001 +1.1201600068E-003 
13731250000.000 +8.9260647714E-002 -1.9998628960E-002 
13775000000.000 +3.4223698778E-002 -6.4988507377E-002 
13818750000.000 +1.1790383327E-001 +3.6329620760E-004 
13862500000.000 +1.1026865610E-001 +1.1207863079E-001 
13906250000.000 +4.6962479255E-002 +7.5833238580E-002 
13950000000.000 +1.0550265711E-001 -2.5455537982E-002 
13993750000.000 +1.7135386351E-001 -9.8599555871E-003 
14037500000.000 +1.6591003463E-001 +9.7176027327E-003 
14081250000.000 +9.6586825066E-002 -6.5622038099E-003 
14125000000.000 +2.6699487404E-002 +3.0709815459E-003 
14168750000.000 +5.5925549963E-002 +1.7787663761E-002 
14212500000.000 +1.6853717625E-001 +6.6475062008E-002 
14256250000.000 +1.5371409539E-001 +6.3367857119E-002 
14300000000.000 +5.8276693922E-002 +1.2313746414E-002 
14343750000.000 +8.6185897167E-002 +1.6226322671E-002 
14387500000.000 +1.3636051495E-001 +5.3096163020E-002 
14431250000.000 +1.3089793390E-001 +4.4749230004E-002 
14475000000.000 +8.2050858491E-002 +3.6303831341E-002 
14518750000.000 +5.6300642010E-002 +3.7488754005E-002 
14562500000.000 +1.0201025929E-001 +2.8946965922E-002 
14606250000.000 +1.4473550693E-001 +7.0221691559E-002 
14650000000.000 +4.9277911883E-002 +8.5192142041E-002 
14693750000.000 +7.9955137392E-003 +2.2164780441E-002 
14737500000.000 +1.0412785666E-001 +3.5667529391E-002 
14781250000.000 +1.4086102961E-001 +7.4156840542E-002 
14825000000.000 +8.6239726320E-002 +2.4670087703E-002 
14868750000.000 +1.5546686992E-002 -1.0097462122E-002 
14912500000.000 -1.6755698375E-002 +2.2444881679E-002 
14956250000.000 +4.5622841134E-002 +1.0348686669E-001 
15000000000.000 +6.3198387267E-002 +1.3239802351E-001 
15043750000.000 -2.6527260120E-002 +3.6280625445E-002 
15087500000.000 +1.2859641682E-003 -3.1803308829E-002 
15131250000.000 +5.6549731205E-002 +6.4757776160E-002 
15175000000.000 -7.8496627748E-003 +8.3746765231E-002 
15218750000.000 -4.3119679592E-002 -1.3849551759E-002 
15262500000.000 -3.3664515112E-002 -1.5998728054E-003 
15306250000.000 -4.9696999659E-002 +8.8868941327E-002 
15350000000.000 -1.1976213907E-002 +8.2437960518E-002 
15393750000.000 -3.6782389719E-003 +1.6708533679E-002 
15437500000.000 -5.2449260114E-002 -5.6941404122E-002 
15481250000.000 -4.2126319814E-002 -3.0766020091E-002 
15525000000.000 -3.4845461979E-002 +7.4355763346E-002 
15568750000.000 -5.9450708727E-002 +2.8425425907E-002 
15612500000.000 -2.4676024419E-002 -8.4864234801E-002 
15656250000.000 -2.3267098756E-002 -4.7817012348E-004 
15700000000.000 -8.4758141947E-002 +7.7776795189E-002 
15743750000.000 -6.7567145221E-002 +3.1190134247E-003 
15787500000.000 -2.6300308386E-002 -4.9144884627E-002 
15831250000.000 -6.9175005758E-002 -6.1731087556E-002 
15875000000.000 -6.1852903494E-002 -1.3657808298E-002 
15918750000.000 -3.4825345489E-002 +3.7184392575E-002 
15962500000.000 -4.3568714104E-002 -3.7568502386E-002 
16006250000.000 -9.7029134370E-003 -7.0136488396E-002 
16050000000.000 -3.2552216566E-002 +4.8988584570E-002 
16093750000.000 -8.4285180601E-002 +5.6592430099E-002 
16137500000.000 -1.1107599415E-002 -2.6760007925E-002 
16181250000.000 +1.2823420584E-002 -3.3667224370E-002 
16225000000.000 -3.2661399236E-002 -9.1367941828E-003 
16268750000.000 +2.9637535607E-003 +5.5270608550E-002 
16312500000.000 -3.0348651925E-004 +7.8015555880E-002 
16356250000.000 -2.7769308042E-002 -3.6097725768E-002 
16400000000.000 +2.8978684787E-002 -1.9276542508E-002 
16443750000.000 -1.1288278899E-002 +1.5132058501E-001 
16487500000.000 -5.9162823273E-002 +9.2453228198E-002 
16531250000.000 +5.6537712712E-002 -3.4518561572E-002 
16575000000.000 +7.3951209598E-002 +3.3969113516E-002 
16618750000.000 -2.7096211434E-002 +1.1536395078E-001 
16662500000.000 -3.7452628505E-003 +9.5247981005E-002 
16706250000.000 +4.6995155693E-002 +8.6394663247E-002 
16750000000.000 +4.9764067598E-002 +6.6234878491E-002 
16793750000.000 +6.7857161246E-002 +1.5428619746E-001 
16837500000.000 +2.5957508133E-002 +2.2786304512E-001 
16881250000.000 +1.7370389048E-002 +6.8401321303E-002 
