!  4-Port S-parameters saved by WinCal
!
# Hz S RI R 50
1000000000.000 +8.8037832419E-003 -3.1384931869E-002  +0.0000000000E+000 +0.0000000000E+000  +1.7757252062E-001 +8.5471656801E-001  +0.0000000000E+000 +0.0000000000E+000 
	+0.0000000000E+000 +0.0000000000E+000  +9.7844138222E-003 -9.3365008194E-003  +0.0000000000E+000 +0.0000000000E+000  -8.4666890018E-003 +8.5127853393E-003 
	+1.7749273840E-001 +8.5497909913E-001  +0.0000000000E+000 +0.0000000000E+000  +4.3140877515E-002 -2.9502602417E-002  +0.0000000000E+000 +0.0000000000E+000 
	+0.0000000000E+000 +0.0000000000E+000  +3.6654584455E+001 -1.0862113332E+001  +0.0000000000E+000 +0.0000000000E+000  +1.1416036337E-001 +4.3131848954E-002 
1043750000.000 +2.1647390620E-002 +3.0050407151E-002  +0.0000000000E+000 +0.0000000000E+000  -4.2982287208E-001 +7.5571988057E-001  +0.0000000000E+000 +0.0000000000E+000 
	+0.0000000000E+000 +0.0000000000E+000  -4.1107396910E-002 -4.2890393138E-002  +0.0000000000E+000 +0.0000000000E+000  -1.1953476988E-002 -3.1905950712E-003 
	-4.2953669742E-001 +7.5575008579E-001  +0.0000000000E+000 +0.0000000000E+000  +1.1022965900E-001 -4.4335634907E-002  +0.0000000000E+000 +0.0000000000E+000 
	+0.0000000000E+000 +0.0000000000E+000  -5.6367373476E+000 -3.6936065695E+001  +0.0000000000E+000 +0.0000000000E+000  -2.0714019348E-002 -5.7148292326E-002 
1087500000.000 -2.9920356612E-002 +3.1651731156E-002  +0.0000000000E+000 +0.0000000000E+000  -8.1796309121E-001 +2.8265857884E-001  +0.0000000000E+000 +0.0000000000E+000 
	+0.0000000000E+000 +0.0000000000E+000  +2.7716963193E-002 -5.8448770161E-002  +0.0000000000E+000 +0.0000000000E+000  -3.2533750237E-003 -1.2075936876E-002 
	-8.1798223950E-001 +2.8235615526E-001  +0.0000000000E+000 +0.0000000000E+000  +1.1302511200E-001 -2.2056855582E-002  +0.0000000000E+000 +0.0000000000E+000 
	+0.0000000000E+000 +0.0000000000E+000  -3.5706694343E+001 -2.3787258822E-001  +0.0000000000E+000 +0.0000000000E+000  +8.9452112258E-002 -1.0510819832E-001 
1131250000.000 -1.2777101649E-002 -3.7722051878E-002  +0.0000000000E+000 +0.0000000000E+000  -7.9134400448E-001 -3.2827294289E-001  +0.0000000000E+000 +0.0000000000E+000 
	+0.0000000000E+000 +0.0000000000E+000  -4.5829882481E-002 +2.5670207389E-003  +0.0000000000E+000 +0.0000000000E+000  +8.8404633677E-003 -8.9416858994E-003 
	-7.9164528717E-001 -3.2819589910E-001  +0.0000000000E+000 +0.0000000000E+000  +8.7822959193E-002 -7.9756571463E-003  +0.0000000000E+000 +0.0000000000E+000 
	+0.0000000000E+000 +0.0000000000E+000  -4.6976553158E+000 +3.4351578077E+001  +0.0000000000E+000 +0.0000000000E+000  +1.2333987738E-001 +6.8364126213E-003 
1175000000.000 +3.5632023445E-002 -1.4597512526E-002  +0.0000000000E+000 +0.0000000000E+000  -3.7023237068E-001 -7.7341446225E-001  +0.0000000000E+000 +0.0000000000E+000 
	+0.0000000000E+000 +0.0000000000E+000  -2.6397825925E-002 -2.4625551639E-002  +0.0000000000E+000 +0.0000000000E+000  +1.2438102755E-002 +3.2446789017E-003 
	-3.7009564575E-001 -7.7312239908E-001  +0.0000000000E+000 +0.0000000000E+000  +2.1309355597E-002 -8.9387349502E-003  +0.0000000000E+000 +0.0000000000E+000 
	+0.0000000000E+000 +0.0000000000E+000  +3.2959380153E+001 +8.9023447635E+000  +0.0000000000E+000 +0.0000000000E+000  -1.3942456099E-002 -2.3339643124E-002 
1218750000.000 -4.4420652887E-003 +1.8732361658E-002  +0.0000000000E+000 +0.0000000000E+000  +2.4542100647E-001 -8.1700700075E-001  +0.0000000000E+000 +0.0000000000E+000 
	+0.0000000000E+000 +0.0000000000E+000  +5.5805133812E-003 +2.3547095826E-003  +0.0000000000E+000 +0.0000000000E+000  +3.3598967958E-003 +1.2624468763E-002 
	+2.4569256632E-001 -8.1720484034E-001  +0.0000000000E+000 +0.0000000000E+000  -9.9676252991E-003 -6.5419132517E-002  +0.0000000000E+000 +0.0000000000E+000 
	+0.0000000000E+000 +0.0000000000E+000  +1.2606883949E+001 -3.0714219290E+001  +0.0000000000E+000 +0.0000000000E+000  +6.2979303140E-002 -8.6613229465E-002 
1262500000.000 -1.5176502619E-002 +1.0200129162E-002  +0.0000000000E+000 +0.0000000000E+000  +7.2912804475E-001 -4.4354514991E-001  +0.0000000000E+000 +0.0000000000E+000 
	+0.0000000000E+000 +0.0000000000E+000  -3.5965733608E-002 +3.9855505883E-002  +0.0000000000E+000 +0.0000000000E+000  -9.4082603861E-003 +9.4282332746E-003 
	+7.2886873405E-001 -4.4378937213E-001  +0.0000000000E+000 +0.0000000000E+000  +7.1995617952E-002 -8.0859553287E-002  +0.0000000000E+000 +0.0000000000E+000 
	+0.0000000000E+000 +0.0000000000E+000  -2.7761794001E+001 -1.5715130272E+001  +0.0000000000E+000 +0.0000000000E+000  +9.8485100890E-002 -2.1679541598E-002 
1306250000.000 -9.2988934936E-003 +1.3230048306E-002  +0.0000000000E+000 +0.0000000000E+000  +8.3819450757E-001 +1.5688877954E-001  +0.0000000000E+000 +0.0000000000E+000 
	+0.0000000000E+000 +0.0000000000E+000  -5.5251096441E-003 +5.2686102903E-003  +0.0000000000E+000 +0.0000000000E+000  -1.3295313699E-002 -3.5160390987E-003 
	+8.3799281166E-001 +1.5720913627E-001  +0.0000000000E+000 +0.0000000000E+000  +1.0856756882E-001 +7.1357756695E-003  +0.0000000000E+000 +0.0000000000E+000 
	+0.0000000000E+000 +0.0000000000E+000  -1.8387169866E+001 +2.4912794261E+001  +0.0000000000E+000 +0.0000000000E+000  +3.0823270263E-002 -6.4487656967E-002 
1350000000.000 +5.2022897284E-003 -3.9633374742E-002  +0.0000000000E+000 +0.0000000000E+000  +5.2248656318E-001 +6.7432456369E-001  +0.0000000000E+000 +0.0000000000E+000 
	+0.0000000000E+000 +0.0000000000E+000  +1.7085341312E-002 +5.1795198668E-002  +0.0000000000E+000 +0.0000000000E+000  -3.8416924065E-003 -1.3556124212E-002 
	+5.2285985547E-001 +6.7447280001E-001  +0.0000000000E+000 +0.0000000000E+000  +8.8616297942E-002 +2.5608269549E-002  +0.0000000000E+000 +0.0000000000E+000 
	+0.0000000000E+000 +0.0000000000E+000  +2.1700529605E+001 +2.0659268231E+001  +0.0000000000E+000 +0.0000000000E+000  +3.2082431888E-002 -1.2304869497E-002 
1393750000.000 +4.2516108368E-002 -8.0431660402E-003  +0.0000000000E+000 +0.0000000000E+000  -5.4811439064E-002 +8.5672179113E-001  +0.0000000000E+000 +0.0000000000E+000 
	+0.0000000000E+000 +0.0000000000E+000  -2.7871695510E-002 +3.8732637252E-002  +0.0000000000E+000 +0.0000000000E+000  +1.0005917072E-002 -1.0435403393E-002 
	-5.4725750255E-002 +8.5630221753E-001  +0.0000000000E+000 +0.0000000000E+000  +6.1297697258E-002 -2.0611167123E-002  +0.0000000000E+000 +0.0000000000E+000 
	+0.0000000000E+000 +0.0000000000E+000  +2.2703025159E+001 -1.7946226007E+001  +0.0000000000E+000 +0.0000000000E+000  +2.6825247294E-002 -7.1036645495E-002 
1437500000.000 -2.7100088716E-002 +4.9571107248E-002  +0.0000000000E+000 +0.0000000000E+000  -6.0614812413E-001 +6.0209887592E-001  +0.0000000000E+000 +0.0000000000E+000 
	+0.0000000000E+000 +0.0000000000E+000  +3.3849271473E-002 +2.4433403443E-002  +0.0000000000E+000 +0.0000000000E+000  +1.4260523475E-002 +3.3437899841E-003 
	-6.0659972359E-001 +6.0208808779E-001  +0.0000000000E+000 +0.0000000000E+000  +9.9599234565E-002 -7.3358963190E-002  +0.0000000000E+000 +0.0000000000E+000 
	+0.0000000000E+000 +0.0000000000E+000  -1.4119638680E+001 -2.3869797997E+001  +0.0000000000E+000 +0.0000000000E+000  +1.1844930593E-001 -4.7422684235E-002 
1481250000.000 -4.9965197381E-002 -1.2797432698E-002  +0.0000000000E+000 +0.0000000000E+000  -8.4695049185E-001 +5.5007940110E-002  +0.0000000000E+000 +0.0000000000E+000 
	+0.0000000000E+000 +0.0000000000E+000  +1.0678674455E-002 +3.2046960643E-002  +0.0000000000E+000 +0.0000000000E+000  +4.5992013534E-003 +1.4327926510E-002 
	-8.4687744042E-001 +5.5470081685E-002  +0.0000000000E+000 +0.0000000000E+000  +9.6919978332E-002 -1.9668056509E-002  +0.0000000000E+000 +0.0000000000E+000 
	+0.0000000000E+000 +0.0000000000E+000  -2.5105714759E+001 +1.0705557495E+001  +0.0000000000E+000 +0.0000000000E+000  +1.0683631109E-002 +2.7427546057E-002 
1525000000.000 +4.6965650790E-002 -2.2742687812E-002  +0.0000000000E+000 +0.0000000000E+000  -6.6391068170E-001 -5.1891596244E-001  +0.0000000000E+000 +0.0000000000E+000 
	+0.0000000000E+000 +0.0000000000E+000  -7.0907842706E-003 +2.2135850252E-002  +0.0000000000E+000 +0.0000000000E+000  -1.0480622985E-002 +1.1295143517E-002 
	-6.6345250447E-001 -5.1907984482E-001  +0.0000000000E+000 +0.0000000000E+000  +1.3472546075E-002 -6.7897003945E-002  +0.0000000000E+000 +0.0000000000E+000 
	+0.0000000000E+000 +0.0000000000E+000  +6.8127496030E+000 +2.5772832209E+001  +0.0000000000E+000 +0.0000000000E+000  +4.9818785598E-002 -1.4891397344E-001 
1568750000.000 +2.3958131206E-002 +1.0377852999E-002  +0.0000000000E+000 +0.0000000000E+000  -1.5362176093E-001 -8.1231316368E-001  +0.0000000000E+000 +0.0000000000E+000 
	+0.0000000000E+000 +0.0000000000E+000  +6.5785772398E-002 -5.5639425920E-003  +0.0000000000E+000 +0.0000000000E+000  -1.5547538801E-002 -3.1931926108E-003 
	-1.5386691614E-001 -8.1274786536E-001  +0.0000000000E+000 +0.0000000000E+000  +1.1008051759E-001 -6.3158033550E-002  +0.0000000000E+000 +0.0000000000E+000 
	+0.0000000000E+000 +0.0000000000E+000  +2.6134537987E+001 -3.2631810719E+000  +0.0000000000E+000 +0.0000000000E+000  +1.0536491659E-001 -5.9637330694E-002 
1612500000.000 -1.3678594185E-002 -1.1557685768E-003  +0.0000000000E+000 +0.0000000000E+000  +4.2732425955E-001 -7.1500556678E-001  +0.0000000000E+000 +0.0000000000E+000 
	+0.0000000000E+000 +0.0000000000E+000  -1.9684274185E-003 -4.0489789597E-003  +0.0000000000E+000 +0.0000000000E+000  -5.1957314468E-003 -1.5461469109E-002 
	+4.2692740489E-001 -7.1466352103E-001  +0.0000000000E+000 +0.0000000000E+000  +5.9764253515E-002 +3.0175440777E-002  +0.0000000000E+000 +0.0000000000E+000 
	+0.0000000000E+000 +0.0000000000E+000  -9.4194741354E-002 -2.5886270674E+001  +0.0000000000E+000 +0.0000000000E+000  -3.0734517535E-002 -3.9419667699E-002 
1656250000.000 -3.7133945615E-002 +5.1273879245E-003  +0.0000000000E+000 +0.0000000000E+000  +7.8384085882E-001 -2.4343746884E-001  +0.0000000000E+000 +0.0000000000E+000 
	+0.0000000000E+000 +0.0000000000E+000  +2.3050068282E-002 -4.3317181002E-002  +0.0000000000E+000 +0.0000000000E+000  +1.1114305528E-002 -1.2720400738E-002 
	+7.8426215127E-001 -2.4309558227E-001  +0.0000000000E+000 +0.0000000000E+000  +5.7107350009E-002 -3.1505665774E-002  +0.0000000000E+000 +0.0000000000E+000 
	+0.0000000000E+000 +0.0000000000E+000  -2.5363458846E+001 -3.3344972754E+000  +0.0000000000E+000 +0.0000000000E+000  +1.7016126522E-002 -8.1058271495E-002 
1700000000.000 -7.3826410286E-003 -1.0268905974E-003  +0.0000000000E+000 +0.0000000000E+000  +7.5155220848E-001 +3.4649909100E-001  +0.0000000000E+000 +0.0000000000E+000 
	+0.0000000000E+000 +0.0000000000E+000  +2.6271825498E-002 -5.2037231963E-002  +0.0000000000E+000 +0.0000000000E+000  +1.6970438741E-002 +3.1471476814E-003 
	+7.5183464144E-001 +3.4599303518E-001  +0.0000000000E+000 +0.0000000000E+000  +7.7443954887E-002 -2.8406504108E-002  +0.0000000000E+000 +0.0000000000E+000 
	+0.0000000000E+000 +0.0000000000E+000  -6.3304858050E+000 +2.3824449180E+001  +0.0000000000E+000 +0.0000000000E+000  +1.9845924923E-002 -7.0609527029E-002 
1743750000.000 +5.3024981722E-002 -4.0072072459E-003  +0.0000000000E+000 +0.0000000000E+000  +3.3156264974E-001 +7.6626174492E-001  +0.0000000000E+000 +0.0000000000E+000 
	+0.0000000000E+000 +0.0000000000E+000  -3.8900616199E-002 -2.7421898979E-002  +0.0000000000E+000 +0.0000000000E+000  +6.2133106519E-003 +1.6525169328E-002 
	+3.3097699645E-001 +7.6606212575E-001  +0.0000000000E+000 +0.0000000000E+000  +5.4442730907E-002 -6.2100066003E-002  +0.0000000000E+000 +0.0000000000E+000 
	+0.0000000000E+000 +0.0000000000E+000  +2.2110009484E+001 +8.7742967023E+000  +0.0000000000E+000 +0.0000000000E+000  +2.2936709776E-002 -9.5686992591E-003 
1787500000.000 +1.3788825417E-002 +1.8023498287E-002  +0.0000000000E+000 +0.0000000000E+000  -2.6044388295E-001 +7.9950384199E-001  +0.0000000000E+000 +0.0000000000E+000 
	+0.0000000000E+000 +0.0000000000E+000  +9.9366671963E-003 -4.7818743318E-002  +0.0000000000E+000 +0.0000000000E+000  -1.1279912739E-002 +1.4145156370E-002 
	-2.6054003693E-001 +8.0014846771E-001  +0.0000000000E+000 +0.0000000000E+000  +8.4931999463E-002 -9.4264199390E-002  +0.0000000000E+000 +0.0000000000E+000 
	+0.0000000000E+000 +0.0000000000E+000  +1.1343169837E+001 -2.0460796382E+001  +0.0000000000E+000 +0.0000000000E+000  +6.9859191133E-003 -3.6357111323E-003 
1831250000.000 -4.7868825908E-002 -2.1513728123E-002  +0.0000000000E+000 +0.0000000000E+000  -7.2661797593E-001 +4.3263803414E-001  +0.0000000000E+000 +0.0000000000E+000 
	+0.0000000000E+000 +0.0000000000E+000  -1.5380347828E-002 -1.8510946786E-002  +0.0000000000E+000 +0.0000000000E+000  -1.8391164900E-002 -2.8113014418E-003 
	-7.2592440746E-001 +4.3260716337E-001  +0.0000000000E+000 +0.0000000000E+000  +8.6110345459E-002 -4.7733319008E-002  +0.0000000000E+000 +0.0000000000E+000 
	+0.0000000000E+000 +0.0000000000E+000  -1.8085664418E+001 -1.3574327551E+001  +0.0000000000E+000 +0.0000000000E+000  +3.9792415893E-002 -1.1905901154E-001 
1875000000.000 -2.0726291042E-002 -1.2134318392E-002  +0.0000000000E+000 +0.0000000000E+000  -8.3079365154E-001 -1.5365853223E-001  +0.0000000000E+000 +0.0000000000E+000 
	+0.0000000000E+000 +0.0000000000E+000  -2.7048217167E-002 -8.6650316725E-003  +0.0000000000E+000 +0.0000000000E+000  -7.4604617878E-003 -1.7678968691E-002 
	-8.3095214192E-001 -1.5437519763E-001  +0.0000000000E+000 +0.0000000000E+000  +3.7359286006E-002 -1.4971508791E-002  +0.0000000000E+000 +0.0000000000E+000 
	+0.0000000000E+000 +0.0000000000E+000  -1.5419433649E+001 +1.5846567958E+001  +0.0000000000E+000 +0.0000000000E+000  +3.3757282942E-002 -9.1741619157E-003 
1918750000.000 +2.2528439024E-002 +2.2853046046E-002  +0.0000000000E+000 +0.0000000000E+000  -5.1947883684E-001 -6.6327276965E-001  +0.0000000000E+000 +0.0000000000E+000 
	+0.0000000000E+000 +0.0000000000E+000  +6.4170781979E-003 -1.1613317321E-002  +0.0000000000E+000 +0.0000000000E+000  +1.1596090461E-002 -1.6044319056E-002 
	-5.2019330100E-001 -6.6298842725E-001  +0.0000000000E+000 +0.0000000000E+000  +2.6197131517E-002 -4.1890103032E-002  +0.0000000000E+000 +0.0000000000E+000 
	+0.0000000000E+000 +0.0000000000E+000  +1.3311307829E+001 +1.7144887167E+001  +0.0000000000E+000 +0.0000000000E+000  +2.8859847336E-003 -4.1635167864E-002 
1962500000.000 +3.7284195112E-002 +1.5691053901E-002  +0.0000000000E+000 +0.0000000000E+000  +4.9916591514E-002 -8.3459065750E-001  +0.0000000000E+000 +0.0000000000E+000 
	+0.0000000000E+000 +0.0000000000E+000  -2.6677464219E-002 +3.7019537338E-002  +0.0000000000E+000 +0.0000000000E+000  +2.0217548047E-002 +1.6437743187E-003 
	+5.0320616937E-002 -8.3391026086E-001  +0.0000000000E+000 +0.0000000000E+000  +8.2039787242E-002 -5.6894498482E-003  +0.0000000000E+000 +0.0000000000E+000 
	+0.0000000000E+000 +0.0000000000E+000  +1.8619357693E+001 -1.0511304323E+001  +0.0000000000E+000 +0.0000000000E+000  -8.8186914712E-003 -8.5179934676E-002 
2006250000.000 -2.4643741760E-003 -4.7024816526E-003  +0.0000000000E+000 +0.0000000000E+000  +5.8237636259E-001 -5.8127392560E-001  +0.0000000000E+000 +0.0000000000E+000 
	+0.0000000000E+000 +0.0000000000E+000  -7.4762606717E-003 +5.0188860072E-002  +0.0000000000E+000 +0.0000000000E+000  +9.5330199319E-003 +1.8734128748E-002 
	+5.8300296195E-001 -5.8179868329E-001  +0.0000000000E+000 +0.0000000000E+000  +6.6127250008E-002 +3.6411294672E-002  +0.0000000000E+000 +0.0000000000E+000 
	+0.0000000000E+000 +0.0000000000E+000  -7.9386177801E+000 -1.9684243324E+001  +0.0000000000E+000 +0.0000000000E+000  -2.3818363641E-002 -1.6355372216E-002 
2050000000.000 -4.8058890758E-002 -4.2369287930E-002  +0.0000000000E+000 +0.0000000000E+000  +8.2427275697E-001 -4.5384993517E-002  +0.0000000000E+000 +0.0000000000E+000 
	+0.0000000000E+000 +0.0000000000E+000  +2.4945179789E-002 +4.4289232463E-002  +0.0000000000E+000 +0.0000000000E+000  -1.1176801112E-002 +1.8050784861E-002 
	+8.2362920929E-001 -4.5941754903E-002  +0.0000000000E+000 +0.0000000000E+000  +2.8583088551E-002 -2.5592480692E-002  +0.0000000000E+000 +0.0000000000E+000 
	+0.0000000000E+000 +0.0000000000E+000  -1.9917195508E+001 +5.0619563191E+000  +0.0000000000E+000 +0.0000000000E+000  +6.6073116040E-002 +3.1021012818E-002 
2093750000.000 +2.9100754882E-003 -5.7997009706E-003  +0.0000000000E+000 +0.0000000000E+000  +6.4090112117E-001 +5.1203928229E-001  +0.0000000000E+000 +0.0000000000E+000 
	+0.0000000000E+000 +0.0000000000E+000  -9.0315258758E-003 +6.2109936147E-002  +0.0000000000E+000 +0.0000000000E+000  -2.1988191435E-002 -4.7697485019E-004 
	+6.4044770480E-001 +5.1280144437E-001  +0.0000000000E+000 +0.0000000000E+000  +3.9259657175E-002 -7.2405019940E-002  +0.0000000000E+000 +0.0000000000E+000 
	+0.0000000000E+000 +0.0000000000E+000  +2.3286868672E+000 +2.0219387216E+001  +0.0000000000E+000 +0.0000000000E+000  +1.2475697720E-002 -3.9480376098E-002 
2137500000.000 +2.3883093998E-002 +6.3990165880E-002  +0.0000000000E+000 +0.0000000000E+000  +1.3633106853E-001 +8.0715076005E-001  +0.0000000000E+000 +0.0000000000E+000 
	+0.0000000000E+000 +0.0000000000E+000  +2.0583544992E-002 +6.4341239271E-002  +0.0000000000E+000 +0.0000000000E+000  -1.1035322354E-002 -1.9709889100E-002 
	+1.3721001608E-001 +8.0748349283E-001  +0.0000000000E+000 +0.0000000000E+000  +6.1728152873E-002 -7.9996199361E-002  +0.0000000000E+000 +0.0000000000E+000 
	+0.0000000000E+000 +0.0000000000E+000  +1.9706037965E+001 +3.5118460167E-001  +0.0000000000E+000 +0.0000000000E+000  +5.5257030907E-002 -1.0236670654E-001 
2181250000.000 +7.9936058944E-003 +7.2357605392E-003  +0.0000000000E+000 +0.0000000000E+000  -4.3804944334E-001 +6.9739465272E-001  +0.0000000000E+000 +0.0000000000E+000 
	+0.0000000000E+000 +0.0000000000E+000  +3.8070154017E-002 +2.6262864221E-002  +0.0000000000E+000 +0.0000000000E+000  +1.1349154612E-002 -2.0483989041E-002 
	-4.3785139524E-001 +6.9641705321E-001  +0.0000000000E+000 +0.0000000000E+000  +3.0775911076E-002 -4.7193577745E-002  +0.0000000000E+000 +0.0000000000E+000 
	+0.0000000000E+000 +0.0000000000E+000  +2.7922064339E+000 -1.9066004015E+001  +0.0000000000E+000 +0.0000000000E+000  +4.3196723997E-002 -3.0327005619E-002 
2225000000.000 -2.0175207429E-003 -5.1501498117E-002  +0.0000000000E+000 +0.0000000000E+000  -7.8957320619E-001 +2.3316869480E-001  +0.0000000000E+000 +0.0000000000E+000 
	+0.0000000000E+000 +0.0000000000E+000  -2.3393724085E-002 +4.5494671478E-002  +0.0000000000E+000 +0.0000000000E+000  +2.4169150904E-002 -7.6618896493E-004 
	-7.9062814246E-001 +2.3314104555E-001  +0.0000000000E+000 +0.0000000000E+000  +3.7166119299E-002 -6.7789690059E-002  +0.0000000000E+000 +0.0000000000E+000 
	+0.0000000000E+000 +0.0000000000E+000  -1.8185680914E+001 -5.2698549611E+000  +0.0000000000E+000 +0.0000000000E+000  -2.9977469539E-002 -1.1204689994E-001 
2268750000.000 -1.1361330764E-002 -2.8760910466E-002  +0.0000000000E+000 +0.0000000000E+000  -7.4345564014E-001 -3.4783468104E-001  +0.0000000000E+000 +0.0000000000E+000 
	+0.0000000000E+000 +0.0000000000E+000  +2.8374066472E-002 +1.3757875704E-002  +0.0000000000E+000 +0.0000000000E+000  +1.4078407501E-002 +2.0892932727E-002 
	-7.4331922216E-001 -3.4673220995E-001  +0.0000000000E+000 +0.0000000000E+000  +4.1258652118E-002 +7.9258327308E-004  +0.0000000000E+000 +0.0000000000E+000 
	+0.0000000000E+000 +0.0000000000E+000  -7.5057561708E+000 +1.6990719642E+001  +0.0000000000E+000 +0.0000000000E+000  -5.5117417572E-002 -5.7200910153E-002 
2312500000.000 -1.0992064457E-002 +3.0769679528E-002  +0.0000000000E+000 +0.0000000000E+000  -3.2600835509E-001 -7.4831733913E-001  +0.0000000000E+000 +0.0000000000E+000 
	+0.0000000000E+000 +0.0000000000E+000  +1.0429008132E-002 -1.2555720199E-002  +0.0000000000E+000 +0.0000000000E+000  -1.0269918325E-002 +2.3710687249E-002 
	-3.2489191080E-001 -7.4861854910E-001  +0.0000000000E+000 +0.0000000000E+000  +5.0077420451E-003 -5.1443894116E-002  +0.0000000000E+000 +0.0000000000E+000 
	+0.0000000000E+000 +0.0000000000E+000  +1.5468022471E+001 +9.6435367569E+000  +0.0000000000E+000 +0.0000000000E+000  -4.9975401974E-002 -2.5834878596E-002 
