!  1-Port S-parameters saved by WinCal
! VAR NAME=2-Port LRRM (Conv to 12) labuser
! VAR Error Term Name=ETrt phys rcv port 1 phys src port 2
!
# Hz S RI R 50
1000000000.000 +1.5861109386E+001 +2.9159268453E+001 
1043750000.000 +3.0559135111E+001 +1.1446334488E+001 
1087500000.000 +2.9483009121E+001 -1.0132405425E+001 
1131250000.000 +1.5248722061E+001 -2.5741645140E+001 
1175000000.000 -5.0892738459E+000 -2.8896346582E+001 
1218750000.000 -2.1881139379E+001 -1.7817564472E+001 
1262500000.000 -2.7126229688E+001 +7.8686241286E-001 
1306250000.000 -1.9402640062E+001 +1.7949929123E+001 
1350000000.000 -2.5860279017E+000 +2.5201966320E+001 
1393750000.000 +1.4059037510E+001 +2.0202709931E+001 
1437500000.000 +2.3032128962E+001 +5.6811751397E+000 
1481250000.000 +2.0693418935E+001 -1.0713368751E+001 
1525000000.000 +9.0678628037E+000 -2.0788810543E+001 
1568750000.000 -6.6317269488E+000 -2.0850606077E+001 
1612500000.000 -1.8483646235E+001 -1.1000993661E+001 
1656250000.000 -2.0748858354E+001 +3.3988712307E+000 
1700000000.000 -1.3045512785E+001 +1.5714165127E+001 
1743750000.000 +5.4119171754E-001 +1.9640301458E+001 
1787500000.000 +1.3332481003E+001 +1.4340725378E+001 
1831250000.000 +1.9049444979E+001 +1.8374502777E+000 
1875000000.000 +1.5157269989E+001 -1.0820553140E+001 
1918750000.000 +4.5177896529E+000 -1.7838889472E+001 
1962500000.000 -7.9890484200E+000 -1.6082524013E+001 
2006250000.000 -1.6051807399E+001 -6.8620070715E+000 
2050000000.000 -1.6380604430E+001 +4.9869558985E+000 
2093750000.000 -8.8809474098E+000 +1.4147344978E+001 
2137500000.000 +2.2809100392E+000 +1.5784590154E+001 
2181250000.000 +1.2059759349E+001 +1.0328787714E+001 
2225000000.000 +1.5536570884E+001 -2.1879376827E-001 
2268750000.000 +1.1423160319E+001 -9.9665302811E+000 
2312500000.000 +2.1763237125E+000 -1.4807752782E+001 
2356250000.000 -7.9002694279E+000 -1.2263249625E+001 
2400000000.000 -1.3829722450E+001 -4.3565863310E+000 
2443750000.000 -1.3044596082E+001 +5.5668771128E+000 
2487500000.000 -5.7940101750E+000 +1.2460573222E+001 
2531250000.000 +3.0959874804E+000 +1.2964842749E+001 
2575000000.000 +1.0938238587E+001 +7.5011806579E+000 
2618750000.000 +1.2872599018E+001 -1.5711833508E+000 
2662500000.000 +8.5859677638E+000 -9.2401249461E+000 
2706250000.000 +5.1055719084E-001 -1.2593891672E+001 
2750000000.000 -7.5994008363E+000 -9.7039189826E+000 
2793750000.000 -1.1916958533E+001 -2.4921326452E+000 
2837500000.000 -1.0641640744E+001 +5.7352909334E+000 
2881250000.000 -3.8870256035E+000 +1.1084158041E+001 
2925000000.000 +3.9065929771E+000 +1.0919601160E+001 
2968750000.000 +1.0081507697E+001 +5.5553152145E+000 
3012500000.000 +1.0915226148E+001 -2.3202498484E+000 
3056250000.000 +6.9247108520E+000 -8.8918425976E+000 
3100000000.000 -7.3090691642E-001 -1.1180938110E+001 
3143750000.000 -7.6590955911E+000 -7.7736265268E+000 
3187500000.000 -1.0666162696E+001 -9.6102306407E-001 
3231250000.000 -8.9257657124E+000 +6.2227590625E+000 
3275000000.000 -2.0857867692E+000 +1.0229261985E+001 
3318750000.000 +4.9444385981E+000 +9.1905653370E+000 
3362500000.000 +9.5632125125E+000 +3.8119725359E+000 
3406250000.000 +9.3277556095E+000 -3.3193106442E+000 
3450000000.000 +4.9670748834E+000 -8.7666294169E+000 
3493750000.000 -1.8949412149E+000 -9.8273480182E+000 
3537500000.000 -7.6626049665E+000 -6.0312458035E+000 
3581250000.000 -9.5480873908E+000 +3.9196610135E-001 
3625000000.000 -6.8638948369E+000 +6.5878735563E+000 
3668750000.000 -8.9403233623E-001 +9.3107139238E+000 
3712500000.000 +5.2188206787E+000 +7.6162278624E+000 
3756250000.000 +8.8099777674E+000 +2.1863627729E+000 
3800000000.000 +7.8677664108E+000 -4.1024663878E+000 
3843750000.000 +3.4775423092E+000 -8.0487672976E+000 
3887500000.000 -2.7612234334E+000 -8.3524948734E+000 
3931250000.000 -7.4061155639E+000 -4.5156068478E+000 
3975000000.000 -8.4031831936E+000 +1.4050367619E+000 
4018750000.000 -5.2831326836E+000 +6.5269508972E+000 
4062500000.000 +2.4177580053E-001 +8.4229504904E+000 
4106250000.000 +5.6055842107E+000 +6.0767944896E+000 
4150000000.000 +8.0278374565E+000 +8.7508344852E-001 
4193750000.000 +6.5151334072E+000 -4.5809890956E+000 
4237500000.000 +2.0794047628E+000 -7.5252577377E+000 
4281250000.000 -3.3319196173E+000 -7.0293156301E+000 
4325000000.000 -7.0889913890E+000 -3.0846966011E+000 
4368750000.000 -7.3087398897E+000 +2.3065171851E+000 
4412500000.000 -3.9437122148E+000 +6.4407242743E+000 
4456250000.000 +1.1438811570E+000 +7.4100543308E+000 
4500000000.000 +5.6285360499E+000 +4.6611781128E+000 
4543750000.000 +7.3230988198E+000 +1.2174133796E-001 
4587500000.000 +5.4266724175E+000 -4.7561769117E+000 
4631250000.000 +1.0632420382E+000 -7.1036155186E+000 
4675000000.000 -3.6840019715E+000 -5.9942600120E+000 
4718750000.000 -6.7216095041E+000 -2.1292830213E+000 
4762500000.000 -6.4128393998E+000 +2.7652430550E+000 
4806250000.000 -3.0598396139E+000 +6.1528096802E+000 
4850000000.000 +1.8297993924E+000 +6.6774402733E+000 
4893750000.000 +5.6949444215E+000 +3.7688168306E+000 
4937500000.000 +6.7089644931E+000 -5.7776673326E-001 
4981250000.000 +4.7018213894E+000 -4.9802456740E+000 
5025000000.000 +3.5532782499E-001 -6.7019927204E+000 
5068750000.000 -4.0448895835E+000 -5.2051496405E+000 
5112500000.000 -6.5054292230E+000 -1.2621999491E+000 
5156250000.000 -5.5947485226E+000 +3.2342386999E+000 
5200000000.000 -2.2319998029E+000 +5.9960037661E+000 
5243750000.000 +2.4690094047E+000 +5.9666126113E+000 
5287500000.000 +5.7400526757E+000 +2.8403726348E+000 
5331250000.000 +6.1097428720E+000 -1.4129562013E+000 
5375000000.000 +3.7016262053E+000 -5.0832200891E+000 
5418750000.000 -4.8764388630E-001 -6.1059642517E+000 
5462500000.000 -4.2861980325E+000 -4.4102189094E+000 
5506250000.000 -6.0930344385E+000 -4.1492704720E-001 
5550000000.000 -4.7917524809E+000 +3.4788287559E+000 
5593750000.000 -1.3451914271E+000 +5.6643889529E+000 
5637500000.000 +2.7286483107E+000 +5.2364053415E+000 
5681250000.000 +5.5162648456E+000 +2.0586454365E+000 
5725000000.000 +5.5584039070E+000 -1.9848004190E+000 
5768750000.000 +2.8123758464E+000 -5.1211253621E+000 
5812500000.000 -1.2568025859E+000 -5.6037233079E+000 
5856250000.000 -4.6246909079E+000 -3.5995554625E+000 
5900000000.000 -5.8271813805E+000 +3.7150932287E-001 
5943750000.000 -4.0554511199E+000 +3.9578895158E+000 
5987500000.000 -4.9732913920E-001 +5.5264880717E+000 
6031250000.000 +3.1686671413E+000 +4.5706209071E+000 
6075000000.000 +5.3525113198E+000 +1.3905223438E+000 
6118750000.000 +4.9874436036E+000 -2.3725589494E+000 
6162500000.000 +2.1394691087E+000 -5.0186978599E+000 
6206250000.000 -1.7913653167E+000 -5.0603017135E+000 
6250000000.000 -4.5909057211E+000 -2.7950586275E+000 
6293750000.000 -5.3184186238E+000 +8.9981661090E-001 
6337500000.000 -3.3729653743E+000 +4.0772385084E+000 
6381250000.000 +1.7143937862E-001 +5.2749854695E+000 
6425000000.000 +3.5862969500E+000 +3.8232374725E+000 
6468750000.000 +5.2387461158E+000 +6.5725926741E-001 
6512500000.000 +4.2477100498E+000 -2.9394128141E+000 
6556250000.000 +1.3564472438E+000 -4.9377765436E+000 
6600000000.000 -2.3083293563E+000 -4.4794238478E+000 
6643750000.000 -4.6587751991E+000 -1.9790576201E+000 
6687500000.000 -4.7920590021E+000 +1.4904263558E+000 
6731250000.000 -2.6671551631E+000 +4.2319108553E+000 
6775000000.000 +7.8142372312E-001 +4.8448981059E+000 
6818750000.000 +3.8175247757E+000 +3.2007300618E+000 
6862500000.000 +4.8413240492E+000 +3.4836542419E-002 
6906250000.000 +3.6081484656E+000 -3.1575627810E+000 
6950000000.000 +8.0368487716E-001 -4.7158673442E+000 
6993750000.000 -2.6089612883E+000 -4.1104541518E+000 
7037500000.000 -4.5673974950E+000 -1.3449225755E+000 
7081250000.000 -4.2879171924E+000 +1.8905256319E+000 
7125000000.000 -1.9402069056E+000 +4.2109216640E+000 
7168750000.000 +1.2723143184E+000 +4.3889133266E+000 
7212500000.000 +3.8534640711E+000 +2.5991967747E+000 
7256250000.000 +4.5375488839E+000 -4.6195636209E-001 
7300000000.000 +3.0666034310E+000 -3.3419792759E+000 
7343750000.000 +1.6409561162E-001 -4.4859765251E+000 
7387500000.000 -2.8619656792E+000 -3.5371449660E+000 
7431250000.000 -4.4449817819E+000 -8.0798994581E-001 
7475000000.000 -3.7956390517E+000 +2.2473645325E+000 
7518750000.000 -1.3632116956E+000 +4.1928637034E+000 
7562500000.000 +1.7533138339E+000 +4.0186259507E+000 
7606250000.000 +3.8166232374E+000 +2.0816483380E+000 
7650000000.000 +4.2612610909E+000 -9.5363838358E-001 
7693750000.000 +2.6825214550E+000 -3.5389704760E+000 
7737500000.000 -3.0425314052E-001 -4.3208236876E+000 
7781250000.000 -3.0141062146E+000 -3.1418734207E+000 
7825000000.000 -4.2131215360E+000 -4.1581128743E-001 
7868750000.000 -3.4070215614E+000 +2.4294956770E+000 
7912500000.000 -1.0772685119E+000 +4.1441081216E+000 
7956250000.000 +1.9121921292E+000 +3.7459544332E+000 
8000000000.000 +3.8332353511E+000 +1.6659510365E+000 
8043750000.000 +4.0048894059E+000 -1.2165958267E+000 
8087500000.000 +2.1968106258E+000 -3.5203363132E+000 
8131250000.000 -6.1374238424E-001 -4.1720280411E+000 
8175000000.000 -3.1882511677E+000 -2.7150752241E+000 
8218750000.000 -4.0912914375E+000 +1.2488514865E-003 
8262500000.000 -3.1147752648E+000 +2.7086251278E+000 
8306250000.000 -5.7313340185E-001 +4.1261097671E+000 
8350000000.000 +2.2256517318E+000 +3.4022729696E+000 
8393750000.000 +3.9113734589E+000 +1.1511117105E+000 
8437500000.000 +3.6693478172E+000 -1.6551901513E+000 
8481250000.000 +1.6278123912E+000 -3.6471655090E+000 
8525000000.000 -1.0367029992E+000 -3.9123905333E+000 
8568750000.000 -3.3422086235E+000 -2.2352662689E+000 
8612500000.000 -3.9749561446E+000 +5.3466295843E-001 
8656250000.000 -2.6424020840E+000 +2.9784125138E+000 
8700000000.000 +3.2122752395E-002 +3.9816964741E+000 
8743750000.000 +2.5096717311E+000 +3.0097676376E+000 
8787500000.000 +3.8371050879E+000 +5.6696912183E-001 
8831250000.000 +3.2935732310E+000 -2.0703919554E+000 
8875000000.000 +1.1549158040E+000 -3.7214714011E+000 
8918750000.000 -1.5260318559E+000 -3.6006410022E+000 
8962500000.000 -3.5574700306E+000 -1.7289790005E+000 
9006250000.000 -3.7632733881E+000 +1.0369889220E+000 
9050000000.000 -2.1820077628E+000 +3.2141910389E+000 
9093750000.000 +4.5636401224E-001 +3.8663831997E+000 
9137500000.000 +2.7865855407E+000 +2.6037972773E+000 
9181250000.000 +3.8236732581E+000 +1.1780270662E-001 
9225000000.000 +2.9576655338E+000 -2.3852923778E+000 
9268750000.000 +6.8575161019E-001 -3.7627880878E+000 
9312500000.000 -1.9297074949E+000 -3.2502519953E+000 
9356250000.000 -3.5616108142E+000 -1.1963274114E+000 
9400000000.000 -3.5045928959E+000 +1.4282456322E+000 
9443750000.000 -1.7185534894E+000 +3.3279462481E+000 
9487500000.000 +8.6704614234E-001 +3.6699973010E+000 
9531250000.000 +2.9881206464E+000 +2.2075855758E+000 
9575000000.000 +3.7291275378E+000 -3.6605002545E-001 
9618750000.000 +2.5839797842E+000 -2.6697492738E+000 
9662500000.000 +1.8347044888E-001 -3.7343530429E+000 
9706250000.000 -2.2974003832E+000 -2.8736952873E+000 
9750000000.000 -3.5416991882E+000 -6.7147787219E-001 
9793750000.000 -3.1774974087E+000 +1.8031314933E+000 
9837500000.000 -1.2044531917E+000 +3.3789881783E+000 
9881250000.000 +1.2974616941E+000 +3.4605793378E+000 
9925000000.000 +3.1934944481E+000 +1.7917607728E+000 
9968750000.000 +3.5825124231E+000 -8.2963109651E-001 
10012500000.000 +2.1902054633E+000 -2.8964028326E+000 
10056250000.000 -2.5237393362E-001 -3.5875611495E+000 
10100000000.000 -2.5510029079E+000 -2.4680080772E+000 
10143750000.000 -3.4996022117E+000 -2.7133092220E-001 
10187500000.000 -2.8127491339E+000 +2.1736447424E+000 
10231250000.000 -6.7733690827E-001 +3.3919979589E+000 
10275000000.000 +1.6648868900E+000 +3.1143123186E+000 
10318750000.000 +3.2962374342E+000 +1.3133353666E+000 
10362500000.000 +3.2813818639E+000 -1.1739677497E+000 
10406250000.000 +1.7864289619E+000 -2.9966212954E+000 
10450000000.000 -6.3123901904E-001 -3.4432048676E+000 
10493750000.000 -2.7283093858E+000 -2.0996084202E+000 
10537500000.000 -3.3974291054E+000 +6.7924909049E-002 
10581250000.000 -2.4861944523E+000 +2.4022170452E+000 
10625000000.000 -3.2535583495E-001 +3.3570678955E+000 
10668750000.000 +1.8756620232E+000 +2.8574395934E+000 
10712500000.000 +3.3261851398E+000 +9.3040843366E-001 
10756250000.000 +3.0797304549E+000 -1.4386094589E+000 
10800000000.000 +1.4969848664E+000 -3.1050166210E+000 
10843750000.000 -9.9862347931E-001 -3.3178818480E+000 
10887500000.000 -2.9679944346E+000 -1.8213638320E+000 
10931250000.000 -3.3308129405E+000 +4.7936740555E-001 
10975000000.000 -2.1321348218E+000 +2.6544372369E+000 
11018750000.000 +6.0478711619E-002 +3.3542170988E+000 
11062500000.000 +2.2174080459E+000 +2.5587911585E+000 
11106250000.000 +3.3841016075E+000 +4.2918959389E-001 
11150000000.000 +2.8194745232E+000 -1.8647336142E+000 
11193750000.000 +9.2046496645E-001 -3.2207092740E+000 
11237500000.000 -1.4589223626E+000 -3.0253904428E+000 
11281250000.000 -3.0502721675E+000 -1.3577763941E+000 
11325000000.000 -3.1783774036E+000 +8.9907207394E-001 
11368750000.000 -1.7907400136E+000 +2.8069116639E+000 
11412500000.000 +3.9673926246E-001 +3.2993590069E+000 
11456250000.000 +2.4318096605E+000 +2.2482160739E+000 
11500000000.000 +3.3569683373E+000 +4.3673787585E-002 
11543750000.000 +2.5768024955E+000 -2.0987549663E+000 
11587500000.000 +5.2493053157E-001 -3.2344176205E+000 
11631250000.000 -1.7684514121E+000 -2.7406127210E+000 
11675000000.000 -3.1576184342E+000 -9.4195008337E-001 
11718750000.000 -2.9711523039E+000 +1.3268815094E+000 
11762500000.000 -1.3345111962E+000 +2.9861830791E+000 
11806250000.000 +8.9611189220E-001 +3.1771022145E+000 
11850000000.000 +2.6670831131E+000 +1.7883584828E+000 
11893750000.000 +3.1666089055E+000 -4.0240396618E-001 
11937500000.000 +2.1843674051E+000 -2.3291570963E+000 
11981250000.000 +8.8432899883E-002 -3.1396115137E+000 
12025000000.000 -1.9606517581E+000 -2.4094653033E+000 
12068750000.000 -3.1199883111E+000 -4.8978198774E-001 
12112500000.000 -2.6437823377E+000 +1.6582580800E+000 
12156250000.000 -9.6927888275E-001 +3.0027236187E+000 
12200000000.000 +1.2672440655E+000 +2.9156361417E+000 
12243750000.000 +2.7862505341E+000 +1.3272422558E+000 
12287500000.000 +2.9770960664E+000 -7.5832620615E-001 
12331250000.000 +1.7506448432E+000 -2.5311211703E+000 
12375000000.000 -4.1855868614E-001 -2.9779448335E+000 
12418750000.000 -2.1872975681E+000 -2.1057521762E+000 
12462500000.000 -3.0568870114E+000 +9.9605502862E-003 
12506250000.000 -2.2565792947E+000 +2.0311437170E+000 
12550000000.000 -4.4940534586E-001 +2.9464753214E+000 
12593750000.000 +1.6440227137E+000 +2.5291004137E+000 
12637500000.000 +2.8386311239E+000 +8.3871459012E-001 
12681250000.000 +2.7519489652E+000 -1.1963441018E+000 
12725000000.000 +1.3049125631E+000 -2.7170578968E+000 
12768750000.000 -7.7063145828E-001 -2.8271060623E+000 
12812500000.000 -2.4472463492E+000 -1.7524753681E+000 
12856250000.000 -2.9536567368E+000 +3.4338073357E-001 
12900000000.000 -1.9543260473E+000 +2.1428719532E+000 
12943750000.000 -1.9678758097E-001 +2.8812367169E+000 
12987500000.000 +1.8562484438E+000 +2.2499559690E+000 
13031250000.000 +2.8530816193E+000 +5.7858157991E-001 
13075000000.000 +2.5147661435E+000 -1.3308526029E+000 
13118750000.000 +1.0598940429E+000 -2.8098169224E+000 
13162500000.000 -1.0005599269E+000 -2.6933805205E+000 
13206250000.000 -2.5525360053E+000 -1.3918754310E+000 
13250000000.000 -2.8355954576E+000 +6.7709292688E-001 
13293750000.000 -1.7591388299E+000 +2.3333154396E+000 
13337500000.000 +2.3637513859E-001 +2.9227478542E+000 
13381250000.000 +2.2439177403E+000 +1.9912835232E+000 
13425000000.000 +2.9989845260E+000 +1.4382175131E-001 
13468750000.000 +2.3371224348E+000 -1.7965512081E+000 
13512500000.000 +5.9481873199E-001 -2.9758284623E+000 
13556250000.000 -1.3863543722E+000 -2.5301830628E+000 
13600000000.000 -2.7136049878E+000 -1.1035760402E+000 
13643750000.000 -2.8269287348E+000 +9.9318565720E-001 
13687500000.000 -1.5362107838E+000 +2.4781905806E+000 
13731250000.000 +4.1193092282E-001 +2.9094470170E+000 
13775000000.000 +2.3056458476E+000 +1.8967964812E+000 
13818750000.000 +3.0181196452E+000 -4.0952629109E-002 
13862500000.000 +2.1958265132E+000 -1.9833396424E+000 
13906250000.000 +3.5827034111E-001 -2.9534934785E+000 
13950000000.000 -1.6913962704E+000 -2.4175657976E+000 
13993750000.000 -2.9144501671E+000 -7.3501195754E-001 
14037500000.000 -2.6518320635E+000 +1.3748559325E+000 
14081250000.000 -1.1073199199E+000 +2.7016878635E+000 
14125000000.000 +8.9556228227E-001 +2.8385695652E+000 
14168750000.000 +2.5985216418E+000 +1.4636180975E+000 
14212500000.000 +2.8827182783E+000 -5.2340390892E-001 
14256250000.000 +1.7803812726E+000 -2.2367553464E+000 
14300000000.000 -6.3948372350E-002 -2.9255436228E+000 
14343750000.000 -1.9378503529E+000 -2.1728470920E+000 
14387500000.000 -2.8767250354E+000 -3.4071495630E-001 
14431250000.000 -2.4425712071E+000 +1.6217219451E+000 
14475000000.000 -7.3174664592E-001 +2.8166409134E+000 
14518750000.000 +1.2728181788E+000 +2.5527812866E+000 
14562500000.000 +2.6272346529E+000 +1.1529469462E+000 
14606250000.000 +2.8014342157E+000 -8.7492724563E-001 
14650000000.000 +1.5138752868E+000 -2.4940351952E+000 
14693750000.000 -5.1569635872E-001 -2.8560961426E+000 
14737500000.000 -2.2215678998E+000 -1.8208028928E+000 
14781250000.000 -2.8842441171E+000 +6.9759829714E-002 
14825000000.000 -2.0955607603E+000 +1.8823538679E+000 
14868750000.000 -2.1410224360E-001 +2.8688899990E+000 
14912500000.000 +1.6855673464E+000 +2.3851808395E+000 
14956250000.000 +2.7310952715E+000 +5.7678450509E-001 
15000000000.000 +2.4493663068E+000 -1.4739145421E+000 
15043750000.000 +8.6763658398E-001 -2.6266032731E+000 
15087500000.000 -9.5771574477E-001 -2.5674427668E+000 
15131250000.000 -2.3804787830E+000 -1.3268830557E+000 
15175000000.000 -2.7165327233E+000 +5.4569498397E-001 
15218750000.000 -1.7668439303E+000 +2.1227758095E+000 
15262500000.000 +1.2228447023E-001 +2.7777997535E+000 
15306250000.000 +1.8442971518E+000 +2.0640838812E+000 
15350000000.000 +2.6577372051E+000 +3.9645568411E-001 
15393750000.000 +2.3335733421E+000 -1.4425438750E+000 
15437500000.000 +7.8043899104E-001 -2.6248274340E+000 
15481250000.000 -1.1294553524E+000 -2.5414343015E+000 
15525000000.000 -2.5131720403E+000 -1.1396427253E+000 
15568750000.000 -2.6606474366E+000 +7.8441183078E-001 
15612500000.000 -1.4828599080E+000 +2.3688159195E+000 
15656250000.000 +4.3947217364E-001 +2.7565365650E+000 
15700000000.000 +2.0645161207E+000 +1.8352911181E+000 
15743750000.000 +2.6963998650E+000 +3.6800956186E-002 
15787500000.000 +2.1272575769E+000 -1.7546812854E+000 
15831250000.000 +4.5668302272E-001 -2.7289239956E+000 
15875000000.000 -1.4606518446E+000 -2.3197903118E+000 
15918750000.000 -2.6273992833E+000 -7.6925034894E-001 
15962500000.000 -2.4850382078E+000 +1.1114787498E+000 
16006250000.000 -1.1402669996E+000 +2.4183563170E+000 
16050000000.000 +6.3781250553E-001 +2.6768321561E+000 
16093750000.000 +2.2610405484E+000 +1.6147401616E+000 
16137500000.000 +2.7481466537E+000 -2.9738480099E-001 
16181250000.000 +1.9119810160E+000 -1.9739523636E+000 
16225000000.000 +1.3566743957E-001 -2.7512096587E+000 
16268750000.000 -1.5920757337E+000 -2.1641042543E+000 
16312500000.000 -2.5978324836E+000 -5.9952727289E-001 
16356250000.000 -2.4005923878E+000 +1.2883812507E+000 
16400000000.000 -9.9077129844E-001 +2.4798748064E+000 
16443750000.000 +8.8730528192E-001 +2.5890976366E+000 
16487500000.000 +2.3598139012E+000 +1.3193935860E+000 
16531250000.000 +2.6272543498E+000 -4.9429057644E-001 
16575000000.000 +1.7175357515E+000 -2.0212553341E+000 
16618750000.000 -3.4075216271E-002 -2.6910648481E+000 
16662500000.000 -1.6508978651E+000 -1.9480946109E+000 
16706250000.000 -2.5788801984E+000 -4.2796247345E-001 
16750000000.000 -2.2363167592E+000 +1.3731107450E+000 
16793750000.000 -7.5616589521E-001 +2.4944086049E+000 
16837500000.000 +1.0347358393E+000 +2.4195397847E+000 
16881250000.000 +2.4326093828E+000 +1.0761942343E+000 
