!  1-Port S-parameters saved by WinCal
! VAR NAME=2-Port LRRM (Conv to 12) labuser
! VAR Error Term Name=ELdm phys rcv port 1 phys src port 2
!
# Hz S RI R 50
1000000000.000 +2.7966102353E-002 +1.4543242056E-001 
1043750000.000 +4.8032948267E-003 +9.6691190795E-002 
1087500000.000 -4.9918817450E-002 +4.0707784857E-002 
1131250000.000 -7.8123608936E-002 -4.3356035723E-002 
1175000000.000 -9.3156927480E-002 -1.2773550544E-001 
1218750000.000 -3.5547572578E-002 -2.2438693373E-001 
1262500000.000 +1.3934872400E-001 -2.2700527142E-001 
1306250000.000 +2.4620106245E-001 -7.5685042586E-002 
1350000000.000 +2.4907300340E-001 +3.3819583608E-002 
1393750000.000 +1.9620052271E-001 +7.5773653641E-002 
1437500000.000 +1.6514725065E-001 +7.8817247315E-002 
1481250000.000 +7.1541600994E-002 +1.3870585870E-001 
1525000000.000 -9.8429157927E-002 +4.2509426076E-002 
1568750000.000 -3.9513524092E-002 -3.2541280831E-002 
1612500000.000 -8.4790941144E-002 -2.3918131293E-002 
1656250000.000 -2.8933906276E-002 -1.5031686651E-001 
1700000000.000 +7.2314897211E-002 -1.7483588256E-001 
1743750000.000 +1.3165327400E-001 -1.8605422102E-001 
1787500000.000 +2.1693201694E-001 -1.5556269515E-001 
1831250000.000 +2.3044145764E-001 -2.7464049151E-002 
1875000000.000 +1.4612547074E-001 +8.1909694201E-002 
1918750000.000 +6.4351964282E-002 +9.8299332165E-002 
1962500000.000 +3.9966675604E-002 +1.2988650270E-001 
2006250000.000 -3.8633868743E-002 +1.2298121037E-001 
2050000000.000 -1.0417650744E-001 -1.2902915179E-002 
2093750000.000 -7.2293670597E-002 -1.3523555407E-001 
2137500000.000 +6.0299249137E-003 -1.9423814345E-001 
2181250000.000 +4.5765866992E-002 -1.7510663969E-001 
2225000000.000 +1.1690742616E-001 -1.6484870951E-001 
2268750000.000 +1.5977165777E-001 -3.4057572075E-002 
2312500000.000 +1.2175714496E-001 -1.6779771438E-002 
2356250000.000 +1.8915945680E-001 +5.2609479407E-002 
2400000000.000 +5.1064768505E-002 +1.8412014047E-001 
2443750000.000 -4.9160400825E-002 +6.8945688439E-002 
2487500000.000 -7.4537325112E-002 +3.3460437791E-002 
2531250000.000 -1.3245384174E-001 -8.3211052966E-002 
2575000000.000 -6.0373359456E-002 -1.2042518995E-001 
2618750000.000 -4.9828115274E-002 -1.3874437852E-001 
2662500000.000 +7.8783334844E-002 -1.3291307868E-001 
2706250000.000 +8.3700398075E-002 -4.3620160870E-002 
2750000000.000 +1.4210921284E-001 -7.1938623114E-002 
2793750000.000 +1.6319432404E-001 +6.4833219398E-002 
2837500000.000 +2.6262636009E-002 +7.2126629263E-002 
2881250000.000 +2.4143554259E-002 +7.0224062494E-002 
2925000000.000 -9.7366900086E-002 +7.2852745115E-002 
2968750000.000 -1.1516373665E-001 -1.6001868408E-002 
3012500000.000 -1.1545662764E-001 -2.3386604408E-002 
3056250000.000 -9.2541211811E-002 -8.6745845921E-002 
3100000000.000 +1.2866767900E-002 -1.2435566067E-001 
3143750000.000 +1.3077041947E-001 -8.9119248305E-002 
3187500000.000 +1.3896598361E-001 +2.6561266305E-002 
3231250000.000 +6.8428227322E-002 +2.0884328791E-002 
3275000000.000 +6.5851928806E-002 +2.8196276748E-002 
3318750000.000 +1.1224991257E-002 +1.0858351380E-001 
3362500000.000 -8.3367653841E-002 +1.3821741806E-001 
3406250000.000 -1.5494481724E-001 +6.5905762032E-002 
3450000000.000 -7.9054664070E-002 -2.3801794467E-002 
3493750000.000 -2.9513979377E-002 -3.0429624619E-002 
3537500000.000 +2.3314353617E-002 -1.0333920254E-001 
3581250000.000 +6.5587071308E-002 -2.9369459253E-002 
3625000000.000 +1.6220905838E-003 -8.0474115464E-002 
3668750000.000 +1.5261774708E-001 -4.0723988502E-002 
3712500000.000 +1.0069191115E-001 +2.0361242530E-001 
3756250000.000 -4.8539826398E-002 +1.8891981917E-001 
3800000000.000 -4.6880308552E-002 +1.1535226795E-001 
3843750000.000 -5.1278512211E-003 +7.9392427424E-002 
3887500000.000 -5.9185077801E-002 +1.0109684448E-001 
3931250000.000 -1.3625593368E-001 -4.4518747317E-002 
3975000000.000 +1.2860263991E-002 -1.2825007891E-001 
4018750000.000 +5.3255732803E-002 -1.5812376520E-002 
4062500000.000 +5.0086866747E-002 -4.1584419262E-002 
4106250000.000 +1.6634549540E-001 +2.7733081662E-002 
4150000000.000 +1.2089501603E-001 +1.8192505081E-001 
4193750000.000 +3.8833139121E-002 +9.2557686885E-002 
4237500000.000 +1.1303147497E-001 +1.1716261075E-001 
4281250000.000 -4.7601634139E-002 +1.7249247826E-001 
4325000000.000 -1.1378188108E-001 +7.6556529688E-003 
4368750000.000 -2.8638010787E-002 -5.8793869524E-004 
4412500000.000 -1.9703772059E-002 +1.2419951863E-002 
4456250000.000 -8.1189583823E-003 +8.0782617054E-004 
4500000000.000 +2.3985929016E-002 -6.7123596523E-002 
4543750000.000 +1.7104826104E-001 -2.6618220000E-002 
4587500000.000 +1.0887737454E-001 +1.0597625761E-001 
4631250000.000 +1.0635587935E-001 +3.9778957514E-002 
4675000000.000 +1.2135650519E-001 +1.6781422843E-001 
4718750000.000 -2.3074626726E-002 +1.4588102807E-001 
4762500000.000 +4.0645393265E-002 +8.4262848149E-002 
4806250000.000 -2.3944010022E-002 +1.5053297246E-001 
4850000000.000 -1.0499640712E-001 +2.3633149018E-002 
4893750000.000 +6.0706044549E-003 -4.7988393397E-002 
4937500000.000 +7.5318855626E-002 -2.4649296358E-005 
4981250000.000 +9.9468418372E-002 -1.5180294110E-002 
5025000000.000 +1.5702146127E-001 -2.5138374528E-002 
5068750000.000 +1.5398229238E-001 +4.4854464669E-002 
5112500000.000 +1.1395933584E-001 +8.1361037398E-002 
5156250000.000 +5.3214408722E-002 +1.5095933737E-001 
5200000000.000 -5.3070857522E-003 +1.4360723925E-001 
5243750000.000 +1.1166814599E-002 +1.2849400644E-001 
5287500000.000 -1.4939917598E-002 +6.4792413818E-002 
5331250000.000 +6.7831697207E-002 +2.0998194426E-002 
5375000000.000 +1.8885733192E-002 +2.1079984186E-002 
5418750000.000 +5.2493313852E-002 -1.1072789753E-001 
5462500000.000 +1.5299806459E-001 +8.0998467270E-003 
5506250000.000 +7.8722973703E-002 +6.1289687896E-002 
5550000000.000 +1.7546302980E-001 +7.1451037619E-002 
5593750000.000 +1.4379238078E-001 +1.9223948511E-001 
5637500000.000 +7.7152559436E-002 +1.0888131932E-001 
5681250000.000 +9.3027884918E-002 +6.7935773298E-002 
5725000000.000 +1.6996988681E-002 +2.7691115783E-002 
5768750000.000 -8.9728286553E-003 -3.5915847977E-003 
5812500000.000 -2.9417010793E-002 -1.4978479837E-002 
5856250000.000 +6.1047402682E-002 -1.7529009620E-002 
5900000000.000 +1.5225023516E-001 +6.8408994600E-002 
5943750000.000 +1.7639563536E-001 +7.2403732349E-002 
5987500000.000 +2.0834898810E-001 +3.6632737961E-002 
6031250000.000 +1.8796575326E-001 +4.9838821551E-002 
6075000000.000 +6.8420840551E-002 +3.5797099142E-002 
6118750000.000 +4.3048030811E-002 +8.7984194421E-003 
6162500000.000 +2.2947009744E-002 +8.8814491406E-002 
6206250000.000 +1.8903165161E-002 +8.7384816289E-002 
6250000000.000 +9.6182756960E-002 +4.6301027520E-002 
6293750000.000 +1.4911237656E-001 -1.9517328221E-002 
6337500000.000 +1.9337914725E-001 -4.7530551522E-002 
6381250000.000 +1.2354030102E-001 -7.6164622781E-002 
6425000000.000 +1.2100748966E-001 -7.7770506067E-002 
6468750000.000 +8.3460353849E-002 +4.5684817497E-002 
6512500000.000 +6.2570719031E-002 +8.2036256525E-002 
6556250000.000 +1.3758893188E-001 +1.2450225696E-001 
6600000000.000 +1.2765027857E-001 +1.2411893829E-001 
6643750000.000 +8.4592259852E-002 +1.8929429732E-002 
6687500000.000 +9.6270529300E-002 -7.9163315039E-002 
6731250000.000 +5.7090559858E-002 -9.1871957011E-002 
6775000000.000 +2.4633156972E-002 -1.2703952078E-001 
6818750000.000 +1.4415201136E-001 -6.2324136657E-002 
6862500000.000 +1.3639802516E-001 +9.0689089757E-002 
6906250000.000 +1.2470421479E-001 +2.7206129933E-002 
6950000000.000 +2.2740261936E-001 +1.6953528829E-002 
6993750000.000 +1.6297937913E-001 +4.1838894495E-002 
7037500000.000 +5.8352045374E-002 -1.7929158195E-002 
7081250000.000 +2.5653062047E-002 -3.7228106623E-002 
7125000000.000 -1.4198844322E-002 +1.1902937070E-002 
7168750000.000 -5.0707514748E-002 -1.9011899557E-002 
7212500000.000 +1.0450164107E-001 -1.0579052572E-001 
7256250000.000 +2.0505246081E-001 -2.5565401640E-002 
7300000000.000 +1.5472933280E-001 -5.9526111544E-002 
7343750000.000 +1.8586063465E-001 -1.0863122049E-001 
7387500000.000 +1.5180960974E-001 -6.7813614142E-003 
7431250000.000 +2.7533865848E-002 +1.7428527101E-002 
7475000000.000 +4.7879663010E-002 -3.7194695781E-003 
7518750000.000 +6.9924606023E-002 +9.4336940361E-002 
7562500000.000 -4.3464551560E-002 +1.1202725483E-002 
7606250000.000 +7.9032596520E-002 -1.6259028147E-001 
7650000000.000 +1.1130890226E-001 -7.6216934840E-002 
7693750000.000 -1.2774587226E-003 -1.3805570639E-001 
7737500000.000 +8.5566091505E-002 -1.7691787348E-001 
7781250000.000 +1.3346319655E-001 -3.8619194670E-002 
7825000000.000 +8.8631071381E-002 +5.5237756379E-002 
7868750000.000 +4.7566569456E-002 +2.3257445900E-002 
7912500000.000 +9.4676263160E-002 -1.3474793321E-002 
7956250000.000 +1.1259761491E-002 +1.9071390752E-002 
8000000000.000 -6.3919196673E-002 -1.1012429563E-001 
8043750000.000 +1.3958376650E-002 -7.4991160378E-002 
8087500000.000 -5.4954420135E-002 -6.0033555110E-003 
8131250000.000 -3.1520446596E-002 -8.8318552697E-002 
8175000000.000 +8.4998169690E-002 -8.1632533874E-002 
8218750000.000 +9.8742327230E-002 -4.3358830063E-002 
8262500000.000 +7.3330091600E-002 -6.2344234037E-002 
8306250000.000 +6.6210647144E-002 -3.4142545098E-002 
8350000000.000 +4.1488160134E-003 +2.3542390151E-002 
8393750000.000 -3.7888677208E-002 +3.2720032236E-002 
8437500000.000 -2.6159375696E-002 +5.0596078969E-002 
8481250000.000 -4.4043275929E-002 +3.5664477746E-002 
8525000000.000 -4.1393151805E-002 -3.1701869144E-002 
8568750000.000 +1.4300100910E-002 -9.6221073720E-002 
8612500000.000 +3.9669244313E-002 -6.8636275208E-002 
8656250000.000 -1.8979118430E-002 -4.3826837134E-002 
8700000000.000 +1.5044857039E-002 -6.1936722751E-002 
8743750000.000 +7.3038788071E-002 +4.8822217690E-002 
8787500000.000 +3.2786493003E-002 +1.0011918497E-001 
8831250000.000 +3.6255401375E-002 +7.0781192340E-002 
8875000000.000 +1.7250364430E-002 +5.6684358772E-002 
8918750000.000 -4.2210736811E-002 +1.0949705662E-002 
8962500000.000 -5.3385756864E-002 -3.5192211420E-002 
9006250000.000 -3.2754875649E-002 -2.1078512057E-002 
9050000000.000 -4.4461092696E-002 -5.2284640353E-003 
9093750000.000 +1.0868774416E-002 -4.4814760258E-002 
9137500000.000 +1.0693919815E-001 +1.6056768655E-002 
9181250000.000 +6.9711619163E-002 +6.4627478620E-002 
9225000000.000 +2.0708032714E-002 +9.1095750289E-003 
9268750000.000 +4.2151690812E-002 +2.5229398853E-002 
9312500000.000 -6.6738912718E-003 +9.6400180231E-002 
9356250000.000 -5.8636736795E-002 +6.6584509321E-002 
9400000000.000 -1.9309577245E-002 +5.7104886739E-002 
9443750000.000 -3.4665127579E-002 +7.6258269858E-002 
9487500000.000 -3.1224925549E-002 -1.5872289979E-002 
9531250000.000 +6.6390552147E-002 -5.8410326856E-002 
9575000000.000 +7.3372289683E-002 +2.2696358719E-003 
9618750000.000 +2.1531474055E-002 -1.9959477464E-003 
9662500000.000 +7.4007637440E-002 +2.1822113785E-002 
9706250000.000 +2.3779196228E-002 +1.5037525885E-001 
9750000000.000 -7.9940502930E-002 +9.5911670724E-002 
9793750000.000 +4.3359535327E-002 +5.4020838675E-002 
9837500000.000 +1.5737404416E-002 +1.4525283993E-001 
9881250000.000 -6.0499219802E-002 +5.8866243687E-002 
9925000000.000 -1.9851514934E-003 -2.6421382333E-002 
9968750000.000 +5.4530086417E-002 +8.4990517587E-003 
10012500000.000 +1.7467170609E-002 +5.8020239161E-002 
10056250000.000 +2.1253792597E-002 +5.9028771375E-003 
10100000000.000 +1.2490446049E-001 +6.0676513773E-002 
10143750000.000 +4.4998441939E-002 +1.3581723019E-001 
10187500000.000 +6.4358443249E-002 +7.9121657603E-002 
10231250000.000 +1.1535906754E-001 +1.5853266777E-001 
10275000000.000 -4.2761620375E-002 +1.4067239140E-001 
10318750000.000 -1.8925532188E-002 -2.6252078414E-003 
10362500000.000 +3.1469357979E-002 +2.7091059298E-002 
10406250000.000 -1.6877761382E-002 +4.4987584444E-002 
10450000000.000 +3.2039542780E-002 -1.6008443225E-003 
10493750000.000 +1.2764627194E-001 +4.9631277638E-002 
10537500000.000 +1.0456637499E-001 +1.1344584082E-001 
10581250000.000 +9.9983213941E-002 +6.7268960123E-002 
10625000000.000 +1.4252470632E-001 +9.4574029979E-002 
10668750000.000 +7.0661783746E-002 +1.4590446116E-001 
10712500000.000 -2.3634091873E-002 +9.0585066082E-002 
10756250000.000 +1.9207294053E-002 +4.9027183322E-002 
10800000000.000 +1.8557775327E-002 +1.1462683813E-001 
10843750000.000 -3.1483092859E-002 +2.2466644411E-002 
10887500000.000 +1.5529330343E-001 -2.3296851356E-002 
10931250000.000 +1.6384496867E-001 +1.2887441072E-001 
10975000000.000 +5.3854279604E-002 +4.3850098644E-002 
11018750000.000 +1.4179597698E-001 -2.3103659167E-003 
11062500000.000 +1.3433952368E-001 +9.4745852232E-002 
11106250000.000 +7.0797096249E-002 +1.2643921587E-001 
11150000000.000 +5.6605886590E-002 +1.0662357902E-001 
11193750000.000 +8.3463419215E-002 +1.2870051272E-001 
11237500000.000 +2.7409612479E-002 +1.0085715708E-001 
11281250000.000 +7.2209105030E-002 -7.1694825784E-003 
11325000000.000 +1.4208044059E-001 +2.1083452280E-002 
11368750000.000 +6.0741931234E-002 +7.5443251446E-003 
11412500000.000 +1.0301281534E-001 -5.9419986542E-002 
11456250000.000 +1.9336107845E-001 +3.8362752586E-002 
11500000000.000 +9.3986951629E-002 +1.2581693325E-001 
11543750000.000 +8.3556253243E-002 +3.6694194204E-002 
11587500000.000 +1.6732873193E-001 +8.0730640212E-002 
11631250000.000 +5.4310266255E-002 +1.2575935586E-001 
11675000000.000 +4.7901384404E-002 +3.5770135331E-003 
11718750000.000 +1.1522110979E-001 +4.2052018007E-002 
11762500000.000 +2.5488002988E-002 +6.4139829179E-002 
11806250000.000 +1.6943241064E-002 -2.6410145228E-002 
11850000000.000 +1.3370055417E-001 -5.1690081265E-002 
11893750000.000 +1.6153865050E-001 +5.0215017495E-002 
11937500000.000 +9.9885966772E-002 +3.8178666545E-002 
11981250000.000 +1.8755453157E-001 +1.6519590633E-002 
12025000000.000 +1.5319942946E-001 +1.1933368220E-001 
12068750000.000 +7.4215877210E-002 +6.7919247871E-002 
12112500000.000 +1.0637165334E-001 +5.0519895688E-002 
12156250000.000 +3.0901466132E-002 +7.8205228690E-002 
12200000000.000 -1.5262408642E-003 +3.7326573776E-003 
12243750000.000 +7.9728618057E-002 -3.6496805053E-002 
12287500000.000 +1.3800741448E-001 +2.7838703686E-002 
12331250000.000 +8.8926480351E-002 +5.3836866464E-003 
12375000000.000 +1.8781003489E-001 -6.8986265214E-002 
12418750000.000 +2.0441630866E-001 +6.5427344824E-002 
12462500000.000 +7.7390771485E-002 +5.3681517729E-002 
12506250000.000 +1.1325632688E-001 +1.5760826900E-002 
12550000000.000 +6.9586434424E-002 +1.1087178997E-001 
12593750000.000 +1.8989617884E-002 +7.5476288854E-002 
12637500000.000 +5.4144890594E-002 +2.8426241775E-002 
12681250000.000 +1.1274132894E-001 +2.2890529480E-002 
12725000000.000 +9.6348936955E-002 +7.3229466067E-003 
12768750000.000 +1.0056874546E-001 -8.3234488373E-002 
12812500000.000 +1.6401921545E-001 -4.1194375480E-002 
12856250000.000 +1.0128585823E-001 +4.0340419452E-002 
12900000000.000 +1.1417256392E-001 +7.7889544246E-003 
12943750000.000 +1.8016711894E-001 +1.0118365985E-001 
12987500000.000 +9.2370653456E-002 +1.4430155887E-001 
13031250000.000 +6.1996107168E-002 +2.3962106790E-003 
13075000000.000 +1.5961151508E-001 -2.0848016148E-002 
13118750000.000 +7.5944297085E-002 +4.1960326279E-002 
13162500000.000 +2.2934213779E-003 -4.5238077941E-002 
13206250000.000 +5.8399006691E-002 -4.0382550302E-002 
13250000000.000 +7.0209514074E-002 -1.5127117681E-003 
13293750000.000 +1.3317675730E-001 -1.3004595259E-002 
13337500000.000 +1.9949990712E-001 +1.8463103570E-002 
13381250000.000 +1.9375668221E-001 +5.7381174047E-002 
13425000000.000 +9.3736994600E-002 +5.7709109004E-002 
13468750000.000 +6.9124424122E-002 -1.2300415536E-002 
13512500000.000 +8.5178417077E-002 +5.8415617309E-002 
13556250000.000 -2.4057814583E-002 +7.2006983069E-002 
13600000000.000 +6.7227703308E-002 -1.0356923527E-002 
13643750000.000 +1.1767139278E-001 +6.3951579191E-002 
13687500000.000 +5.5982857771E-002 -3.5158485070E-002 
13731250000.000 +1.8077711017E-001 -1.1165344882E-001 
13775000000.000 +1.9426235246E-001 -1.4266957162E-002 
13818750000.000 +1.1712232518E-001 -3.4179782371E-003 
13862500000.000 +1.1228369818E-001 +2.3186946028E-002 
13906250000.000 +1.0774252110E-001 +8.1105433960E-002 
13950000000.000 +5.8402022709E-002 +9.9732844858E-002 
13993750000.000 +3.5271295775E-002 +2.8086369610E-002 
14037500000.000 +1.0813624766E-001 -3.6295441670E-002 
14081250000.000 +8.1430802402E-002 +3.1071185799E-003 
14125000000.000 +4.7478838414E-002 -8.3586793991E-002 
14168750000.000 +1.3914734754E-001 -9.1126910859E-002 
14212500000.000 +1.1101813093E-001 -1.0027231846E-002 
14256250000.000 +1.1727935246E-001 -4.6531459823E-002 
14300000000.000 +1.7031410378E-001 +3.5528003964E-002 
14343750000.000 +5.7909494566E-002 +7.0814316854E-002 
14387500000.000 +5.6221046114E-002 -9.0840719266E-003 
14431250000.000 +9.7712172487E-002 +1.8867823006E-002 
14475000000.000 +4.3715124930E-002 +2.5827007553E-002 
14518750000.000 +2.9189753822E-002 -4.8320190613E-002 
14562500000.000 +8.3511719510E-002 -9.6134398204E-002 
14606250000.000 +1.2958307578E-001 -6.1922317342E-002 
14650000000.000 +7.8867234845E-002 -2.9428307808E-002 
14693750000.000 +9.2509333218E-002 -5.7605630747E-002 
14737500000.000 +1.2174228325E-001 +3.1738663561E-002 
14781250000.000 +5.7762348500E-002 +4.3265633125E-002 
14825000000.000 +1.0387108422E-001 -2.0774230195E-002 
14868750000.000 +8.7501094642E-002 +3.5656622026E-002 
14912500000.000 -2.2124067834E-002 -2.8439873331E-002 
14956250000.000 +1.5044151598E-002 -9.8689709843E-002 
15000000000.000 +2.3047533522E-002 -2.5028972110E-002 
15043750000.000 -1.6591410130E-002 -2.6831723392E-003 
15087500000.000 +3.1996153085E-002 -2.5017590977E-002 
15131250000.000 +1.2542215541E-001 -1.9924996814E-002 
15175000000.000 +1.5603914702E-001 +1.5496659192E-002 
15218750000.000 +9.9631274149E-002 -1.4069770061E-002 
15262500000.000 +7.8181607591E-002 -2.5542954350E-002 
15306250000.000 -2.0724061726E-002 +2.1810673340E-002 
15350000000.000 -7.6303447975E-002 -9.0194116201E-003 
15393750000.000 -5.4840834587E-003 +1.5455808696E-002 
15437500000.000 +7.5413873515E-003 +6.5113797711E-002 
15481250000.000 +1.7744660249E-002 -2.9545761490E-002 
15525000000.000 +1.2893980208E-001 -5.2783244225E-002 
15568750000.000 +8.0286775467E-002 -3.0368544583E-002 
15612500000.000 +1.2026103943E-002 -7.5465086079E-002 
15656250000.000 +3.6116535495E-002 -3.5966247037E-002 
15700000000.000 +2.1216394415E-002 +7.5110757249E-002 
15743750000.000 +4.6411693358E-003 +1.2086253336E-001 
15787500000.000 +1.4964685083E-002 +6.9140444449E-002 
15831250000.000 +5.1912124477E-002 +5.6200973822E-002 
15875000000.000 -4.1326910135E-002 -2.1055024895E-002 
15918750000.000 -4.7396352237E-003 -1.0851080446E-001 
15962500000.000 +1.3904385248E-002 -2.1668754308E-003 
16006250000.000 -5.8559723880E-002 +1.8965490729E-002 
16050000000.000 +4.7774842465E-002 +2.6147308491E-002 
16093750000.000 +7.5833865738E-002 +1.1184458898E-001 
16137500000.000 +6.4361753266E-002 +8.0637600317E-002 
16181250000.000 +8.4672533120E-002 +2.3177656187E-002 
16225000000.000 +5.0878281635E-002 +3.7489247732E-002 
16268750000.000 -8.6769680246E-002 +5.0385914475E-002 
16312500000.000 -9.4571376487E-002 -1.4816641178E-002 
16356250000.000 +5.4374954083E-003 +7.5376735814E-002 
16400000000.000 -5.9359812517E-002 +1.2082014072E-001 
16443750000.000 +6.0946499763E-003 +1.9450469005E-002 
16487500000.000 +1.1432756379E-001 +3.6319807437E-002 
16531250000.000 +8.3577748685E-002 +5.2142101876E-002 
16575000000.000 +3.6871782710E-003 +2.2458418030E-002 
16618750000.000 +5.7756349087E-002 +7.4250611610E-002 
16662500000.000 -3.7075671223E-002 +1.9283580674E-001 
16706250000.000 -6.5954574810E-002 +1.1081067890E-001 
16750000000.000 +7.4074810176E-002 +1.1302346309E-001 
16793750000.000 +7.3193495951E-003 +1.4703724529E-001 
16837500000.000 -3.0949165536E-003 +2.8771654661E-002 
16881250000.000 +5.3863934706E-002 +2.3011602899E-002 
