!  1-Port S-parameters saved by WinCal
! VAR NAME=2-Port LRRM (Conv to 12) labuser
! VAR Error Term Name=ETrt phys rcv port 2 phys src port 1
!
# Hz S RI R 50
1000000000.000 -8.8184322730E-003 -5.7646024825E-003 
1043750000.000 +7.3925787416E-003 -7.7054219990E-003 
1087500000.000 +6.3136776487E-003 +9.1895588974E-003 
1131250000.000 -9.8997398635E-003 +4.3705769728E-003 
1175000000.000 -2.1559714352E-003 -1.0859645475E-002 
1218750000.000 +1.1112119163E-002 +3.7097181486E-004 
1262500000.000 -2.4042079527E-003 +1.1305312166E-002 
1306250000.000 -1.0633823005E-002 -5.0282947904E-003 
1350000000.000 +7.1911501608E-003 -9.9430387010E-003 
1393750000.000 +8.3867188529E-003 +9.3024834723E-003 
1437500000.000 -1.0716033318E-002 +6.8477779684E-003 
1481250000.000 -4.6600510359E-003 -1.2029518820E-002 
1525000000.000 +1.2909078857E-002 -1.9812304170E-003 
1568750000.000 -2.3572322179E-004 +1.3529896754E-002 
1612500000.000 -1.3275723445E-002 -2.8722359657E-003 
1656250000.000 +5.6190106648E-003 -1.2986608737E-002 
1700000000.000 +1.1927781628E-002 +8.4555552984E-003 
1743750000.000 -1.0718719197E-002 +1.0469536505E-002 
1787500000.000 -8.2191849140E-003 -1.2936272809E-002 
1831250000.000 +1.4733476512E-002 -5.9763617538E-003 
1875000000.000 +3.3663667294E-003 +1.6030962815E-002 
1918750000.000 -1.6619392438E-002 +6.4493665297E-004 
1962500000.000 +2.3011234696E-003 -1.6994905174E-002 
2006250000.000 +1.6822543266E-002 +5.4993212198E-003 
2050000000.000 -8.6461992131E-003 +1.5848079504E-002 
2093750000.000 -1.3588956751E-002 -1.1832942532E-002 
2137500000.000 +1.4609975424E-002 -1.1495422394E-002 
2181250000.000 +9.1419761902E-003 +1.7177821568E-002 
2225000000.000 -1.8774727378E-002 +6.0968054507E-003 
2268750000.000 -3.1012359483E-003 -2.0383317969E-002 
2312500000.000 +2.1133678689E-002 +3.2224127216E-005 
2356250000.000 -3.0770519429E-003 +2.1077016007E-002 
2400000000.000 -2.0102590997E-002 -7.5828887128E-003 
2443750000.000 +1.0804114897E-002 -1.9110114420E-002 
2487500000.000 +1.7048947396E-002 +1.4500150595E-002 
2531250000.000 -1.7052622850E-002 +1.4106052131E-002 
2575000000.000 -1.1264204152E-002 -2.0075848013E-002 
2618750000.000 +2.2032720720E-002 -8.3959320039E-003 
2662500000.000 +4.6508617754E-003 +2.3699994837E-002 
2706250000.000 -2.4569916511E-002 +6.5240069385E-004 
2750000000.000 +2.8864104848E-003 -2.4429036128E-002 
2793750000.000 +2.3707791370E-002 +7.3852847821E-003 
2837500000.000 -1.0681973991E-002 +2.2015187043E-002 
2881250000.000 -1.9920925459E-002 -1.4442536177E-002 
2925000000.000 +1.7142167140E-002 -1.7550491663E-002 
2968750000.000 +1.4402152691E-002 +2.0486364656E-002 
3012500000.000 -2.3024994970E-002 +1.0541769356E-002 
3056250000.000 -6.3905757400E-003 -2.4082778694E-002 
3100000000.000 +2.5340259588E-002 -1.7585813218E-003 
3143750000.000 -2.3912764357E-003 +2.5668791800E-002 
3187500000.000 -2.5041694750E-002 -6.7378370314E-003 
3231250000.000 +9.7796671107E-003 -2.4173872444E-002 
3275000000.000 +2.1949145645E-002 +1.4569419642E-002 
3318750000.000 -1.7930652990E-002 +1.9422521331E-002 
3362500000.000 -1.5762971267E-002 -2.1175613817E-002 
3406250000.000 +2.3104829824E-002 -1.1724952278E-002 
3450000000.000 +6.7992774276E-003 +2.4694000831E-002 
3493750000.000 -2.5471919091E-002 +2.5273714394E-003 
3537500000.000 +1.9162334085E-003 -2.6090445365E-002 
3581250000.000 +2.5700189581E-002 +6.7426979854E-003 
3625000000.000 -1.0766236700E-002 +2.4054651364E-002 
3668750000.000 -2.1656325037E-002 -1.4823933736E-002 
3712500000.000 +1.9044211557E-002 -1.7708393373E-002 
3756250000.000 +1.3921652472E-002 +2.1557811700E-002 
3800000000.000 -2.3835606163E-002 +1.0305665847E-002 
3843750000.000 -5.7008369610E-003 -2.5566283238E-002 
3887500000.000 +2.5419189678E-002 -1.2133452010E-003 
3931250000.000 -4.0506964337E-003 +2.6004408765E-002 
3975000000.000 -2.5382234563E-002 -8.6814816680E-003 
4018750000.000 +1.3638432732E-002 -2.3824751569E-002 
4062500000.000 +2.1132784367E-002 +1.7432577812E-002 
4106250000.000 -2.0480141463E-002 +1.7934919866E-002 
4150000000.000 -1.3840052023E-002 -2.2838315288E-002 
4193750000.000 +2.5811310581E-002 -9.7097641241E-003 
4237500000.000 +4.7568455234E-003 +2.7710250360E-002 
4281250000.000 -2.8829824734E-002 -1.5499218791E-004 
4325000000.000 +6.0474395820E-003 -2.8681821553E-002 
4368750000.000 +2.7369538446E-002 +1.0805834468E-002 
4412500000.000 -1.6245561860E-002 +2.4880608477E-002 
4456250000.000 -2.2251417494E-002 -2.0203931188E-002 
4500000000.000 +2.4236430100E-002 -1.9097173847E-002 
4543750000.000 +1.4556317777E-002 +2.7582822264E-002 
4587500000.000 -3.0313004230E-002 +1.0165641354E-002 
4631250000.000 -4.8412053312E-003 -3.2508001170E-002 
4675000000.000 +3.3305023465E-002 +1.4853436846E-003 
4718750000.000 -7.0753535702E-003 +3.2837216456E-002 
4762500000.000 -3.1264367374E-002 -1.2882851748E-002 
4806250000.000 +1.7585511865E-002 -2.9007577808E-002 
4850000000.000 +2.6144764358E-002 +2.2581483017E-002 
4893750000.000 -2.7196270359E-002 +2.2668498075E-002 
4937500000.000 -1.8166296263E-002 -3.1760737528E-002 
4981250000.000 +3.4536466526E-002 -1.2493759950E-002 
5025000000.000 +5.6221630357E-003 +3.6451684226E-002 
5068750000.000 -3.7057387120E-002 -3.9912344816E-004 
5112500000.000 +6.3710922460E-003 -3.6952911849E-002 
5156250000.000 +3.5589747614E-002 +1.2031510422E-002 
5200000000.000 -1.7394042445E-002 +3.4742186187E-002 
5243750000.000 -3.0561978327E-002 -2.2528038899E-002 
5287500000.000 +2.7751445433E-002 -2.7275547347E-002 
5331250000.000 +2.2031792027E-002 +3.1845434112E-002 
5375000000.000 -3.4488201996E-002 +1.6432097049E-002 
5418750000.000 -9.9076336086E-003 -3.6483098630E-002 
5462500000.000 +3.7436581129E-002 -3.9737110322E-003 
5506250000.000 -2.7785564796E-003 +3.7843546689E-002 
5550000000.000 -3.6728611732E-002 -9.3182747454E-003 
5593750000.000 +1.5389543935E-002 -3.4723905221E-002 
5637500000.000 +3.0772655581E-002 +2.0991713577E-002 
5681250000.000 -2.5552223814E-002 +2.7061992439E-002 
5725000000.000 -2.2074617731E-002 -2.9802437315E-002 
5768750000.000 +3.2693679569E-002 -1.7421703533E-002 
5812500000.000 +1.1763985488E-002 +3.5180356402E-002 
5856250000.000 -3.6061237498E-002 +5.3792976626E-003 
5900000000.000 +2.2115101642E-003 -3.6594115170E-002 
5943750000.000 +3.5605759568E-002 +8.2469743666E-003 
5987500000.000 -1.5126585434E-002 +3.2830562887E-002 
6031250000.000 -2.9298452057E-002 -1.9729233915E-002 
6075000000.000 +2.4967860311E-002 -2.5952400958E-002 
6118750000.000 +2.0962390038E-002 +2.8588759622E-002 
6162500000.000 -3.2611870625E-002 +1.5995010529E-002 
6206250000.000 -9.7306867434E-003 -3.4889116251E-002 
6250000000.000 +3.5851030510E-002 -3.3269255272E-003 
6293750000.000 -3.3297250904E-003 +3.6378793005E-002 
6337500000.000 -3.4328512903E-002 -9.7964058778E-003 
6381250000.000 +1.5845462446E-002 -3.2327955791E-002 
6425000000.000 +2.9450071312E-002 +2.0673401303E-002 
6468750000.000 -2.5708094593E-002 +2.5159991324E-002 
6512500000.000 -1.9851118757E-002 -2.9686830525E-002 
6556250000.000 +3.2780831439E-002 -1.2888417184E-002 
6600000000.000 +6.5042697151E-003 +3.5303112408E-002 
6643750000.000 -3.6554397536E-002 +1.4923194781E-004 
6687500000.000 +6.3552726882E-003 -3.6696806436E-002 
6731250000.000 +3.5720202674E-002 +1.1960581131E-002 
6775000000.000 -1.8014035305E-002 +3.2794817404E-002 
6818750000.000 -3.0167358568E-002 -2.4412367979E-002 
6862500000.000 +2.8944853491E-002 -2.4288745073E-002 
6906250000.000 +1.9585346183E-002 +3.3755031568E-002 
6950000000.000 -3.6402162427E-002 +1.1751966320E-002 
6993750000.000 -4.9514087962E-003 -3.8453363491E-002 
7037500000.000 +4.0150423603E-002 +1.5321079621E-003 
7081250000.000 -8.6686765154E-003 +3.9860250520E-002 
7125000000.000 -3.7813902243E-002 -1.5173723093E-002 
7168750000.000 +2.1436839124E-002 -3.4841815757E-002 
7212500000.000 +3.0721397246E-002 +2.8668964199E-002 
7256250000.000 -3.3343210325E-002 +2.4894597133E-002 
7300000000.000 -1.9191979723E-002 -3.7716471832E-002 
7343750000.000 +4.0414794991E-002 -1.3407767208E-002 
7387500000.000 +6.6242269741E-003 +4.2901802852E-002 
7431250000.000 -4.3396329792E-002 -2.6878009580E-004 
7475000000.000 +7.8270215746E-003 -4.2924990256E-002 
7518750000.000 +4.1006437801E-002 +1.4986476530E-002 
7562500000.000 -2.1873372229E-002 +3.7691212387E-002 
7606250000.000 -3.3296197649E-002 -2.9755890140E-002 
7650000000.000 +3.4801472759E-002 -2.9287812428E-002 
7693750000.000 +2.4150587982E-002 +3.8460297209E-002 
7737500000.000 -4.2636057888E-002 +1.7851560045E-002 
7781250000.000 -9.1898414298E-003 -4.5618231748E-002 
7825000000.000 +4.6131548002E-002 -1.9254586371E-003 
7868750000.000 -5.6791162422E-003 +4.6311281785E-002 
7912500000.000 -4.4476153179E-002 -1.3610196420E-002 
7956250000.000 +2.0832554588E-002 -4.2472427997E-002 
8000000000.000 +3.8161517494E-002 +2.7419682650E-002 
8043750000.000 -3.3412748013E-002 +3.3325852607E-002 
8087500000.000 -2.6884892231E-002 -3.8034952372E-002 
8131250000.000 +4.2536035148E-002 -2.0392804342E-002 
8175000000.000 +1.1952544824E-002 +4.4936065835E-002 
8218750000.000 -4.6294229260E-002 +4.4827050787E-003 
8262500000.000 +3.3583592482E-003 -4.6182363978E-002 
8306250000.000 +4.4447991022E-002 +1.1188523005E-002 
8350000000.000 -1.8591019321E-002 +4.1916735842E-002 
8393750000.000 -3.7697734439E-002 -2.5450594247E-002 
8437500000.000 +3.1193901902E-002 -3.3558157535E-002 
8481250000.000 +2.7374243717E-002 +3.6478045038E-002 
8525000000.000 -4.0884488665E-002 +2.0079967870E-002 
8568750000.000 -1.2125498692E-002 -4.3494867761E-002 
8612500000.000 +4.4571942804E-002 -4.4489297897E-003 
8656250000.000 -3.0121479933E-003 +4.4572017876E-002 
8700000000.000 -4.3537524432E-002 -1.1109478873E-002 
8743750000.000 +1.9508004635E-002 -4.0038853385E-002 
8787500000.000 +3.6244512280E-002 +2.5987075123E-002 
8831250000.000 -3.2743507837E-002 +3.1807742682E-002 
8875000000.000 -2.4998609960E-002 -3.7538756392E-002 
8918750000.000 +4.1324679267E-002 -1.8247465684E-002 
8962500000.000 +1.0748721666E-002 +4.3382778498E-002 
9006250000.000 -4.5029089555E-002 +3.0294135065E-003 
9050000000.000 +4.4634283162E-003 -4.4860515805E-002 
9093750000.000 +4.2786188316E-002 +1.3157044635E-002 
9137500000.000 -2.1311431394E-002 +3.9452678621E-002 
9181250000.000 -3.5692490304E-002 -2.7792709098E-002 
9225000000.000 +3.4692425512E-002 -2.9718431842E-002 
9268750000.000 +2.2920712352E-002 +3.9397354194E-002 
9312500000.000 -4.3592456271E-002 +1.5698952030E-002 
9356250000.000 -8.3678920032E-003 -4.6321090293E-002 
9400000000.000 +4.7610869730E-002 -2.4179655372E-004 
9443750000.000 -7.7781294743E-003 +4.7205728957E-002 
9487500000.000 -4.4928531573E-002 -1.6807975110E-002 
9531250000.000 +2.4777102914E-002 -4.1601372769E-002 
9575000000.000 +3.6730453445E-002 +3.2042274660E-002 
9618750000.000 -3.7649929676E-002 +3.1460199721E-002 
9662500000.000 -2.4785518212E-002 -4.1885490566E-002 
9706250000.000 +4.6575968685E-002 -1.6614161481E-002 
9750000000.000 +8.6548067653E-003 +4.9645068503E-002 
9793750000.000 -5.1425150810E-002 +2.6569534660E-004 
9837500000.000 +8.1145939358E-003 -5.0541242833E-002 
9881250000.000 +4.8966011670E-002 +1.6472242920E-002 
9925000000.000 -2.5084242484E-002 +4.6970137854E-002 
9968750000.000 -4.1079240683E-002 -3.2876122661E-002 
10012500000.000 +4.0092029161E-002 -3.5503169065E-002 
10056250000.000 +2.7356737155E-002 +4.5320040468E-002 
10100000000.000 -5.0504475395E-002 +1.8676696868E-002 
10143750000.000 -9.9337745418E-003 -5.3384209228E-002 
10187500000.000 +5.4210817896E-002 -5.0548019014E-007 
10231250000.000 -8.2563214541E-003 +5.2986818104E-002 
10275000000.000 -5.1392863217E-002 -1.7124580302E-002 
10318750000.000 +2.6681929123E-002 -4.9432004616E-002 
10362500000.000 +4.5886053278E-002 +3.4183395525E-002 
10406250000.000 -4.1039247566E-002 +3.9288175731E-002 
10450000000.000 -3.1911013274E-002 -4.5314754307E-002 
10493750000.000 +5.0613575365E-002 -2.3177193102E-002 
10537500000.000 +1.4360671552E-002 +5.3775767810E-002 
10581250000.000 -5.4087507720E-002 +5.5671652622E-003 
10625000000.000 +3.9093207574E-003 -5.6058493909E-002 
10668750000.000 +5.5187208427E-002 +1.3020440788E-002 
10712500000.000 -2.2244971349E-002 +5.2357858260E-002 
10756250000.000 -4.7451422746E-002 -2.9499547900E-002 
10800000000.000 +3.6489765906E-002 -4.0619728479E-002 
10843750000.000 +3.5679588886E-002 +4.1915279761E-002 
10887500000.000 -4.7170666304E-002 +2.4985275368E-002 
10931250000.000 -1.6243522654E-002 -5.0001776219E-002 
10975000000.000 +5.3679547572E-002 -7.5232488311E-003 
11018750000.000 -3.1584559302E-003 +5.5222169024E-002 
11062500000.000 -5.3675438399E-002 -1.2244954245E-002 
11106250000.000 +2.1358185226E-002 -4.9909148019E-002 
11150000000.000 +4.5106254154E-002 +3.0793108002E-002 
11193750000.000 -3.7569894283E-002 +3.9133448837E-002 
11237500000.000 -3.2362716873E-002 -4.3563361000E-002 
11281250000.000 +4.8235630144E-002 -2.3978783898E-002 
11325000000.000 +1.5259105536E-002 +5.0452864556E-002 
11368750000.000 -5.2657309753E-002 +6.6461799624E-003 
11412500000.000 +3.0648440694E-003 -5.2300972669E-002 
11456250000.000 +5.0723951398E-002 +1.2242582697E-002 
11500000000.000 -2.0759412823E-002 +4.7071390948E-002 
11543750000.000 -4.3098929398E-002 -3.0066677045E-002 
11587500000.000 +3.7774650293E-002 -3.7878463172E-002 
11631250000.000 +3.0638689886E-002 +4.4106692141E-002 
11675000000.000 -4.7566525033E-002 +2.2326584145E-002 
11718750000.000 -1.3694465577E-002 -5.0237658350E-002 
11762500000.000 +5.1553022634E-002 -2.9032336969E-003 
11806250000.000 -7.3357150009E-003 +5.1708897514E-002 
11850000000.000 -5.0077630905E-002 -1.7241587636E-002 
11893750000.000 +2.5902055646E-002 -4.7295059138E-002 
11937500000.000 +4.2827714082E-002 +3.3854689107E-002 
11981250000.000 -4.1697431498E-002 +3.6188723879E-002 
12025000000.000 -2.7508085121E-002 -4.7247322521E-002 
12068750000.000 +5.2367824572E-002 -1.9114474190E-002 
12112500000.000 +1.0815259052E-002 +5.5222171954E-002 
12156250000.000 -5.4966441317E-002 +1.0437273017E-003 
12200000000.000 +8.3278353562E-003 -5.5491956096E-002 
12243750000.000 +5.3858134461E-002 +1.7665738232E-002 
12287500000.000 -2.7010382463E-002 +5.0802178943E-002 
12331250000.000 -4.4478861512E-002 -3.5636809691E-002 
12375000000.000 +4.3694999749E-002 -3.6281157750E-002 
12418750000.000 +2.8330703368E-002 +5.0331653068E-002 
12462500000.000 -5.7982056476E-002 +1.9523383138E-002 
12506250000.000 -1.0294845409E-002 -6.0509183320E-002 
12550000000.000 +6.1806968207E-002 -8.0748031118E-004 
12593750000.000 -8.5342554291E-003 +6.1149091229E-002 
12637500000.000 -5.8635358365E-002 -1.7723712947E-002 
12681250000.000 +2.9300633617E-002 -5.4976958305E-002 
12725000000.000 +4.8989437310E-002 +3.5956606416E-002 
12768750000.000 -4.5150507126E-002 +4.2281091950E-002 
12812500000.000 -3.5492562525E-002 -5.1794174311E-002 
12856250000.000 +5.7262544290E-002 -2.8113280601E-002 
12900000000.000 +1.9971099038E-002 +6.1078804270E-002 
12943750000.000 -6.1668739120E-002 +8.6384594744E-003 
12987500000.000 +1.6635896319E-003 -6.2047030508E-002 
13031250000.000 +6.1596316857E-002 +1.2337231900E-002 
13075000000.000 -2.2368891113E-002 +5.8739716678E-002 
13118750000.000 -5.2928405891E-002 -3.1943754162E-002 
13162500000.000 +4.1821387737E-002 -4.7759108701E-002 
13206250000.000 +4.0783404686E-002 +4.9276199718E-002 
13250000000.000 -5.3932111682E-002 +3.1257217928E-002 
13293750000.000 -1.9670726189E-002 -5.9263950706E-002 
13337500000.000 +6.0129326204E-002 -8.5971903410E-003 
13381250000.000 -2.7554700926E-003 +6.2597549008E-002 
13425000000.000 -6.2111731681E-002 -1.2862308286E-002 
13468750000.000 +2.1716177825E-002 -5.9569837647E-002 
13512500000.000 +5.4435648847E-002 +2.9161137207E-002 
13556250000.000 -3.7658402072E-002 +4.7160425405E-002 
13600000000.000 -4.1013966477E-002 -4.5480366673E-002 
13643750000.000 +4.8981403699E-002 -3.1013785195E-002 
13687500000.000 +2.0339912835E-002 +5.5657413949E-002 
13731250000.000 -5.7722674741E-002 +8.9850522292E-003 
13775000000.000 +9.7127413349E-004 -6.2341216005E-002 
13818750000.000 +6.0194762757E-002 +1.0132756778E-002 
13862500000.000 -1.8347120322E-002 +5.6978823415E-002 
13906250000.000 -5.2971650599E-002 -2.7470999323E-002 
13950000000.000 +3.6057447748E-002 -4.4102503397E-002 
13993750000.000 +3.6861044940E-002 +4.5026696527E-002 
14037500000.000 -4.9770622542E-002 +2.8510452795E-002 
14081250000.000 -1.9489161661E-002 -5.4323140909E-002 
14125000000.000 +5.6733481060E-002 -1.0162089346E-002 
14168750000.000 -5.5063406606E-004 +5.7177697123E-002 
14212500000.000 -5.4713484659E-002 -9.3981582378E-003 
14256250000.000 +1.8911521714E-002 -5.1308117364E-002 
14300000000.000 +4.5450917289E-002 +2.9193137416E-002 
14343750000.000 -3.8331240065E-002 +3.9512315835E-002 
14387500000.000 -3.2093472970E-002 -4.5742161643E-002 
14431250000.000 +5.1232328623E-002 -2.4120582665E-002 
14475000000.000 +1.5695149751E-002 +5.4699949766E-002 
14518750000.000 -5.7649849925E-002 +6.0561921689E-003 
14562500000.000 +3.8717117378E-003 -5.8056849980E-002 
14606250000.000 +5.5511922695E-002 +1.2683290077E-002 
14650000000.000 -2.3730995315E-002 +5.6031713608E-002 
14693750000.000 -5.0970737421E-002 -3.3222523341E-002 
14737500000.000 +4.0746889464E-002 -4.5368451842E-002 
14781250000.000 +3.7801628760E-002 +4.8275942742E-002 
14825000000.000 -5.3125457848E-002 +2.9480997506E-002 
14868750000.000 -1.9142267068E-002 -5.7985904033E-002 
14912500000.000 +5.8855467708E-002 -9.4579586907E-003 
14956250000.000 -3.6699737232E-003 +6.0663592374E-002 
15000000000.000 -5.8950249801E-002 -1.3879689316E-002 
15043750000.000 +2.6925237706E-002 -5.6862874357E-002 
15087500000.000 +5.2871114720E-002 +3.5267058903E-002 
15131250000.000 -4.3623911817E-002 +4.7169140429E-002 
15175000000.000 -3.7789721741E-002 -5.1788610621E-002 
15218750000.000 +5.6860857240E-002 -3.1930761416E-002 
15262500000.000 +2.2109344573E-002 +6.1862407961E-002 
15306250000.000 -6.4276626701E-002 +1.2102795501E-002 
15350000000.000 -8.5912710803E-004 -6.5811754637E-002 
15393750000.000 +6.6119236240E-002 +1.0716196975E-002 
15437500000.000 -2.2451458021E-002 +6.2506809615E-002 
15481250000.000 -5.7947647861E-002 -3.2228673894E-002 
15525000000.000 +4.1713048163E-002 -5.1128699907E-002 
15568750000.000 +4.3647370377E-002 +5.0701751130E-002 
15612500000.000 -5.7373263677E-002 +3.4394997693E-002 
15656250000.000 -2.4162586566E-002 -6.3058376798E-002 
15700000000.000 +6.6435570718E-002 -1.5978861058E-002 
15743750000.000 +4.0099365820E-003 +6.7226217484E-002 
15787500000.000 -6.5463286019E-002 -6.5571212250E-003 
15831250000.000 +1.6847489756E-002 -6.2732954938E-002 
15875000000.000 +5.7727312201E-002 +2.8314505117E-002 
15918750000.000 -3.7497925849E-002 +5.2027276895E-002 
15962500000.000 -4.5814779429E-002 -4.7123804901E-002 
16006250000.000 +5.3783004069E-002 -3.8225359880E-002 
16050000000.000 +2.9071024253E-002 +5.8720145062E-002 
16093750000.000 -6.0945326196E-002 +1.7897387991E-002 
16137500000.000 -7.5919422215E-003 -6.3099806857E-002 
16181250000.000 +6.2735933706E-002 +3.0343227003E-003 
16225000000.000 -1.3810118444E-002 +6.0340721743E-002 
16268750000.000 -5.4791564589E-002 -2.4761787849E-002 
16312500000.000 +3.3205636120E-002 -4.9657221478E-002 
16356250000.000 +4.2359527739E-002 +4.2468927961E-002 
16400000000.000 -4.7159913097E-002 +3.3591405370E-002 
16443750000.000 -2.5719584500E-002 -5.3386841331E-002 
16487500000.000 +5.7235236940E-002 -1.4855602037E-002 
16531250000.000 +4.8255008847E-003 +6.0275817586E-002 
16575000000.000 -5.9261031629E-002 -4.0786359644E-003 
16618750000.000 +1.4259056308E-002 -5.6661873989E-002 
16662500000.000 +5.0935627044E-002 +2.4810549730E-002 
16706250000.000 -3.3413071049E-002 +4.6043368073E-002 
16750000000.000 -3.8525486424E-002 -4.2435630363E-002 
16793750000.000 +4.8097092584E-002 -3.0026263828E-002 
16837500000.000 +2.2594653147E-002 +5.3716746368E-002 
16881250000.000 -5.8426092041E-002 +1.4541842418E-002 
