!  2-Port S-parameters saved by WinCal
!
# Hz S RI R 50
1000000000.000 +0.0000000000E+000 +0.0000000000E+000  +2.1126048267E-001 +3.0123510957E-001  +1.1131644994E-001 -2.0313446224E-001  +0.0000000000E+000 +0.0000000000E+000 
1043750000.000 +0.0000000000E+000 +0.0000000000E+000  +2.4149949849E-001 +6.6196292639E-002  -8.7073594332E-002 -2.1498990059E-001  +0.0000000000E+000 +0.0000000000E+000 
1087500000.000 +0.0000000000E+000 +0.0000000000E+000  +2.8176823258E-001 +3.6858853698E-001  -2.2065997124E-001 -6.8795859814E-002  +0.0000000000E+000 +0.0000000000E+000 
1131250000.000 +0.0000000000E+000 +0.0000000000E+000  -1.1702036113E-001 +3.7729880214E-001  -1.9165693223E-001 +1.2612232566E-001  +0.0000000000E+000 +0.0000000000E+000 
1175000000.000 +0.0000000000E+000 +0.0000000000E+000  -1.0042320006E-002 +1.8636727333E-001  -2.6276430115E-002 +2.2236804664E-001  +0.0000000000E+000 +0.0000000000E+000 
1218750000.000 +0.0000000000E+000 +0.0000000000E+000  -3.1322821975E-001 +3.8998582959E-001  +1.5056808293E-001 +1.6307666898E-001  +0.0000000000E+000 +0.0000000000E+000 
1262500000.000 +0.0000000000E+000 +0.0000000000E+000  -5.9119457006E-001 +1.0696787387E-001  +2.2137442231E-001 -1.0598287918E-002  +0.0000000000E+000 +0.0000000000E+000 
1306250000.000 +0.0000000000E+000 +0.0000000000E+000  -5.0675696135E-001 -7.1290194988E-002  +1.3449020684E-001 -1.7494867742E-001  +0.0000000000E+000 +0.0000000000E+000 
1350000000.000 +0.0000000000E+000 +0.0000000000E+000  -3.8800418377E-002 -4.0145981312E-001  -4.4543895870E-002 -2.1815662086E-001  +0.0000000000E+000 +0.0000000000E+000 
1393750000.000 +0.0000000000E+000 +0.0000000000E+000  +3.2642450184E-002 -2.7124080062E-001  -1.9986055791E-001 -1.0810051113E-001  +0.0000000000E+000 +0.0000000000E+000 
1437500000.000 +0.0000000000E+000 +0.0000000000E+000  +6.7478477955E-002 -5.5095732212E-001  -2.0871575177E-001 +8.8477082551E-002  +0.0000000000E+000 +0.0000000000E+000 
1481250000.000 +0.0000000000E+000 +0.0000000000E+000  +2.7287995815E-001 -2.2288006544E-001  -6.5201558173E-002 +2.1159683168E-001  +0.0000000000E+000 +0.0000000000E+000 
1525000000.000 +0.0000000000E+000 +0.0000000000E+000  +1.8744356930E-001 -3.3846053481E-001  +1.1311768740E-001 +1.8797412515E-001  +0.0000000000E+000 +0.0000000000E+000 
1568750000.000 +0.0000000000E+000 +0.0000000000E+000  +4.4678458571E-001 +6.6641114652E-002  +2.1906653047E-001 +3.7301778793E-002  +0.0000000000E+000 +0.0000000000E+000 
1612500000.000 +0.0000000000E+000 +0.0000000000E+000  +2.1538189054E-001 +1.8271960318E-001  +1.6755637527E-001 -1.4731769264E-001  +0.0000000000E+000 +0.0000000000E+000 
1656250000.000 +0.0000000000E+000 +0.0000000000E+000  +3.5204324126E-001 +2.7130016685E-001  -7.2381775826E-003 -2.1720123291E-001  +0.0000000000E+000 +0.0000000000E+000 
1700000000.000 +0.0000000000E+000 +0.0000000000E+000  +1.4769953489E-001 +3.6719170213E-001  -1.6725954413E-001 -1.3286592066E-001  +0.0000000000E+000 +0.0000000000E+000 
1743750000.000 +0.0000000000E+000 +0.0000000000E+000  -2.1387270093E-001 +3.0671888590E-001  -2.0756384730E-001 +4.2156584561E-002  +0.0000000000E+000 +0.0000000000E+000 
1787500000.000 +0.0000000000E+000 +0.0000000000E+000  -3.0659741163E-001 +2.0576320589E-001  -1.0013027489E-001 +1.8071751297E-001  +0.0000000000E+000 +0.0000000000E+000 
1831250000.000 +0.0000000000E+000 +0.0000000000E+000  -3.0849057436E-001 +3.4598466754E-001  +6.9074869156E-002 +1.9173648953E-001  +0.0000000000E+000 +0.0000000000E+000 
1875000000.000 +0.0000000000E+000 +0.0000000000E+000  -4.2649310827E-001 -1.8023288250E-001  +1.9116431475E-001 +7.3090717196E-002  +0.0000000000E+000 +0.0000000000E+000 
1918750000.000 +0.0000000000E+000 +0.0000000000E+000  -1.5548919141E-001 -1.7621996999E-001  +1.7768959701E-001 -9.9054969847E-002  +0.0000000000E+000 +0.0000000000E+000 
1962500000.000 +0.0000000000E+000 +0.0000000000E+000  -2.7224740386E-001 -1.2555083632E-001  +3.7753660232E-002 -1.9884315133E-001  +0.0000000000E+000 +0.0000000000E+000 
2006250000.000 +0.0000000000E+000 +0.0000000000E+000  -5.8755144477E-002 -4.2523497343E-001  -1.2833653390E-001 -1.5426717699E-001  +0.0000000000E+000 +0.0000000000E+000 
2050000000.000 +0.0000000000E+000 +0.0000000000E+000  +3.0099403858E-001 -5.0512647629E-001  -1.9403924048E-001 -1.2868180638E-003  +0.0000000000E+000 +0.0000000000E+000 
2093750000.000 +0.0000000000E+000 +0.0000000000E+000  +3.1198847294E-001 -2.5309527293E-002  -1.2718273699E-001 +1.4128576219E-001  +0.0000000000E+000 +0.0000000000E+000 
2137500000.000 +0.0000000000E+000 +0.0000000000E+000  +1.9099001586E-001 -1.3851474971E-002  +2.3750083521E-002 +1.9020338356E-001  +0.0000000000E+000 +0.0000000000E+000 
2181250000.000 +0.0000000000E+000 +0.0000000000E+000  +3.5620132089E-001 +1.3154231012E-001  +1.6054846346E-001 +1.0141918808E-001  +0.0000000000E+000 +0.0000000000E+000 
2225000000.000 +0.0000000000E+000 +0.0000000000E+000  +1.6542635858E-001 +1.2939156592E-001  +1.7733930051E-001 -5.4825361818E-002  +0.0000000000E+000 +0.0000000000E+000 
2268750000.000 +0.0000000000E+000 +0.0000000000E+000  +1.2572145090E-002 +1.8827033043E-001  +7.3786079884E-002 -1.6910849512E-001  +0.0000000000E+000 +0.0000000000E+000 
2312500000.000 +0.0000000000E+000 +0.0000000000E+000  -1.9373681396E-002 +1.9191327691E-001  -8.0801233649E-002 -1.6283053160E-001  +0.0000000000E+000 +0.0000000000E+000 
2356250000.000 +0.0000000000E+000 +0.0000000000E+000  -1.9599750638E-001 +4.5953890681E-001  -1.7128603160E-001 -4.4432263821E-002  +0.0000000000E+000 +0.0000000000E+000 
2400000000.000 +0.0000000000E+000 +0.0000000000E+000  -4.3756949902E-001 -1.1481939256E-001  -1.4456410706E-001 +9.8750248551E-002  +0.0000000000E+000 +0.0000000000E+000 
2443750000.000 +0.0000000000E+000 +0.0000000000E+000  -1.5940769017E-001 +1.2763909996E-001  -1.9123056903E-002 +1.7321474850E-001  +0.0000000000E+000 +0.0000000000E+000 
2487500000.000 +0.0000000000E+000 +0.0000000000E+000  -3.9549350739E-001 -5.2779532969E-002  +1.1839399487E-001 +1.2527704239E-001  +0.0000000000E+000 +0.0000000000E+000 
2531250000.000 +0.0000000000E+000 +0.0000000000E+000  +1.2097193301E-001 -2.5237545371E-001  +1.7148548365E-001 -8.0572906882E-003  +0.0000000000E+000 +0.0000000000E+000 
2575000000.000 +0.0000000000E+000 +0.0000000000E+000  +1.2279614061E-001 -2.4106411636E-001  +1.0301429778E-001 -1.3604871929E-001  +0.0000000000E+000 +0.0000000000E+000 
2618750000.000 +0.0000000000E+000 +0.0000000000E+000  +2.0672394335E-001 -1.8045863509E-001  -3.7573587149E-002 -1.6259109974E-001  +0.0000000000E+000 +0.0000000000E+000 
2662500000.000 +0.0000000000E+000 +0.0000000000E+000  +2.5439658761E-001 -1.2425321341E-001  -1.4392410219E-001 -7.5179748237E-002  +0.0000000000E+000 +0.0000000000E+000 
2706250000.000 +0.0000000000E+000 +0.0000000000E+000  +2.1994836628E-001 +6.6676422954E-002  -1.4872153103E-001 +5.7976223528E-002  +0.0000000000E+000 +0.0000000000E+000 
2750000000.000 +0.0000000000E+000 +0.0000000000E+000  +1.3494613767E-001 -1.4033061266E-001  -5.1660057157E-002 +1.4884841442E-001  +0.0000000000E+000 +0.0000000000E+000 
2793750000.000 +0.0000000000E+000 +0.0000000000E+000  +1.3426390290E-001 +1.8074953556E-001  +7.7742733061E-002 +1.3432270288E-001  +0.0000000000E+000 +0.0000000000E+000 
2837500000.000 +0.0000000000E+000 +0.0000000000E+000  -1.2065095454E-001 +1.3371153176E-001  +1.5122421086E-001 +3.0952913687E-002  +0.0000000000E+000 +0.0000000000E+000 
2881250000.000 +0.0000000000E+000 +0.0000000000E+000  -1.4195865020E-002 +2.8704723716E-001  +1.2261448056E-001 -9.4735763967E-002  +0.0000000000E+000 +0.0000000000E+000 
2925000000.000 +0.0000000000E+000 +0.0000000000E+000  -4.5102423429E-001 +9.2488281429E-002  +7.1408958174E-003 -1.5350674093E-001  +0.0000000000E+000 +0.0000000000E+000 
2968750000.000 +0.0000000000E+000 +0.0000000000E+000  -3.9444324374E-001 -2.3094084114E-002  -1.1107315868E-001 -1.0463665426E-001  +0.0000000000E+000 +0.0000000000E+000 
3012500000.000 +0.0000000000E+000 +0.0000000000E+000  -9.0964332223E-002 -7.8351117671E-002  -1.5056732297E-001 +1.9586229697E-002  +0.0000000000E+000 +0.0000000000E+000 
3056250000.000 +0.0000000000E+000 +0.0000000000E+000  +7.1573652327E-002 +1.2242517620E-001  -7.7554799616E-002 +1.2346635014E-001  +0.0000000000E+000 +0.0000000000E+000 
3100000000.000 +0.0000000000E+000 +0.0000000000E+000  +1.3515659608E-002 -2.7907246351E-001  +3.7456389517E-002 +1.3503825665E-001  +0.0000000000E+000 +0.0000000000E+000 
3143750000.000 +0.0000000000E+000 +0.0000000000E+000  +2.1193075180E-001 -7.7020592988E-002  +1.2511420250E-001 +6.5746665001E-002  +0.0000000000E+000 +0.0000000000E+000 
3187500000.000 +0.0000000000E+000 +0.0000000000E+000  +2.0177040994E-001 -1.7168092728E-001  +1.3398316503E-001 -5.1583327353E-002  +0.0000000000E+000 +0.0000000000E+000 
3231250000.000 +0.0000000000E+000 +0.0000000000E+000  +4.1054388881E-001 +1.2862414122E-002  +4.9421172589E-002 -1.3388217986E-001  +0.0000000000E+000 +0.0000000000E+000 
3275000000.000 +0.0000000000E+000 +0.0000000000E+000  +9.6724376082E-002 -3.5219021142E-002  -6.7068584263E-002 -1.2600640953E-001  +0.0000000000E+000 +0.0000000000E+000 
3318750000.000 +0.0000000000E+000 +0.0000000000E+000  +1.0635153949E-001 +7.2979331017E-002  -1.3800495863E-001 -3.3050898463E-002  +0.0000000000E+000 +0.0000000000E+000 
3362500000.000 +0.0000000000E+000 +0.0000000000E+000  -1.4542522840E-002 +1.7857615650E-001  -1.1502022296E-001 +8.0344252288E-002  +0.0000000000E+000 +0.0000000000E+000 
3406250000.000 +0.0000000000E+000 +0.0000000000E+000  -1.0054590553E-001 +1.0391216725E-001  -1.6459781677E-002 +1.4086638391E-001  +0.0000000000E+000 +0.0000000000E+000 
3450000000.000 +0.0000000000E+000 +0.0000000000E+000  -3.9552053809E-001 -2.5212401524E-002  +9.8355054855E-002 +1.0517222434E-001  +0.0000000000E+000 +0.0000000000E+000 
3493750000.000 +0.0000000000E+000 +0.0000000000E+000  -3.9925310016E-001 +3.6371503025E-002  +1.4364093542E-001 -7.0217805915E-003  +0.0000000000E+000 +0.0000000000E+000 
3537500000.000 +0.0000000000E+000 +0.0000000000E+000  -2.1672941744E-001 +4.1850522161E-002  +8.9530989528E-002 -1.1472144723E-001  +0.0000000000E+000 +0.0000000000E+000 
3581250000.000 +0.0000000000E+000 +0.0000000000E+000  -1.5401817858E-002 +1.2894617394E-003  -3.2399196178E-002 -1.4386542141E-001  +0.0000000000E+000 +0.0000000000E+000 
3625000000.000 +0.0000000000E+000 +0.0000000000E+000  -1.0512989946E-002 -7.9944781959E-002  -1.2808790803E-001 -6.4507342875E-002  +0.0000000000E+000 +0.0000000000E+000 
3668750000.000 +0.0000000000E+000 +0.0000000000E+000  -6.8485438824E-003 -1.8439096212E-001  -1.2893120945E-001 +4.8760913312E-002  +0.0000000000E+000 +0.0000000000E+000 
3712500000.000 +0.0000000000E+000 +0.0000000000E+000  +3.4744849801E-001 -1.9064062834E-001  -5.5635653436E-002 +1.2730647624E-001  +0.0000000000E+000 +0.0000000000E+000 
3756250000.000 +0.0000000000E+000 +0.0000000000E+000  +3.7483170629E-001 +1.5238140523E-001  +6.1146747321E-002 +1.3340152800E-001  +0.0000000000E+000 +0.0000000000E+000 
3800000000.000 +0.0000000000E+000 +0.0000000000E+000  +1.5257363021E-001 +5.6249266490E-003  +1.4966058731E-001 +3.8741603494E-002  +0.0000000000E+000 +0.0000000000E+000 
3843750000.000 +0.0000000000E+000 +0.0000000000E+000  +2.5454160571E-001 +4.8549827188E-003  +1.2352497876E-001 -9.6695959568E-002  +0.0000000000E+000 +0.0000000000E+000 
3887500000.000 +0.0000000000E+000 +0.0000000000E+000  +2.5855556130E-001 +2.6783126593E-001  +1.8719524378E-003 -1.5472258627E-001  +0.0000000000E+000 +0.0000000000E+000 
3931250000.000 +0.0000000000E+000 +0.0000000000E+000  -2.0891863108E-001 -3.2881381921E-003  -1.1390119791E-001 -1.0113839060E-001  +0.0000000000E+000 +0.0000000000E+000 
3975000000.000 +0.0000000000E+000 +0.0000000000E+000  -9.5550149679E-002 -1.2542951107E-001  -1.5260732174E-001 +1.7673525959E-002  +0.0000000000E+000 +0.0000000000E+000 
4018750000.000 +0.0000000000E+000 +0.0000000000E+000  -3.7533369660E-001 +2.4621273577E-001  -8.8785462081E-002 +1.3081221282E-001  +0.0000000000E+000 +0.0000000000E+000 
4062500000.000 +0.0000000000E+000 +0.0000000000E+000  -3.0220821500E-001 +1.5953671187E-002  +4.2365580797E-002 +1.5203778446E-001  +0.0000000000E+000 +0.0000000000E+000 
4106250000.000 +0.0000000000E+000 +0.0000000000E+000  -3.4519186616E-001 -7.5995564461E-002  +1.3885296881E-001 +6.8436987698E-002  +0.0000000000E+000 +0.0000000000E+000 
4150000000.000 +0.0000000000E+000 +0.0000000000E+000  -1.2580168247E-001 -3.5312259197E-001  +1.4707912505E-001 -5.8867409825E-002  +0.0000000000E+000 +0.0000000000E+000 
4193750000.000 +0.0000000000E+000 +0.0000000000E+000  -8.6369417608E-002 +2.0794605836E-002  +4.9010876566E-002 -1.5642341971E-001  +0.0000000000E+000 +0.0000000000E+000 
4237500000.000 +0.0000000000E+000 +0.0000000000E+000  +9.7018823028E-002 -8.2939583808E-003  -9.0426728129E-002 -1.3247771561E-001  +0.0000000000E+000 +0.0000000000E+000 
4281250000.000 +0.0000000000E+000 +0.0000000000E+000  +2.0844486356E-001 +2.2048979998E-002  -1.5591603518E-001 -1.9128078595E-002  +0.0000000000E+000 +0.0000000000E+000 
4325000000.000 +0.0000000000E+000 +0.0000000000E+000  +2.6444417238E-001 +1.8523190171E-002  -1.2205465138E-001 +1.0625287145E-001  +0.0000000000E+000 +0.0000000000E+000 
4368750000.000 +0.0000000000E+000 +0.0000000000E+000  +2.2897399962E-001 +6.0784660280E-002  +6.0709663667E-003 +1.6722157598E-001  +0.0000000000E+000 +0.0000000000E+000 
4412500000.000 +0.0000000000E+000 +0.0000000000E+000  +6.5452384949E-001 -3.4790448844E-002  +1.3448321819E-001 +9.9425777793E-002  +0.0000000000E+000 +0.0000000000E+000 
4456250000.000 +0.0000000000E+000 +0.0000000000E+000  +9.8711065948E-002 +1.5045823157E-001  +1.6069468856E-001 -4.0997777134E-002  +0.0000000000E+000 +0.0000000000E+000 
4500000000.000 +0.0000000000E+000 +0.0000000000E+000  -1.2010502815E-001 -1.6438695788E-001  +6.9958217442E-002 -1.4680577815E-001  +0.0000000000E+000 +0.0000000000E+000 
4543750000.000 +0.0000000000E+000 +0.0000000000E+000  -2.5657334924E-001 +2.1908509731E-001  -6.3836582005E-002 -1.4659979939E-001  +0.0000000000E+000 +0.0000000000E+000 
4587500000.000 +0.0000000000E+000 +0.0000000000E+000  -1.2441989034E-001 -3.3538457938E-003  -1.5477231145E-001 -4.8424895853E-002  +0.0000000000E+000 +0.0000000000E+000 
4631250000.000 +0.0000000000E+000 +0.0000000000E+000  -3.1572690606E-001 +1.1910674721E-001  -1.3436321914E-001 +9.0026862919E-002  +0.0000000000E+000 +0.0000000000E+000 
4675000000.000 +0.0000000000E+000 +0.0000000000E+000  -3.8754263520E-001 -2.3069590330E-001  -1.5507251024E-002 +1.5715008974E-001  +0.0000000000E+000 +0.0000000000E+000 
4718750000.000 +0.0000000000E+000 +0.0000000000E+000  -2.0196461678E-001 +5.2807253087E-004  +1.0959766060E-001 +1.1533935368E-001  +0.0000000000E+000 +0.0000000000E+000 
4762500000.000 +0.0000000000E+000 +0.0000000000E+000  -1.2628249824E-001 -1.3828812540E-001  +1.5987198055E-001 -1.4734732918E-002  +0.0000000000E+000 +0.0000000000E+000 
4806250000.000 +0.0000000000E+000 +0.0000000000E+000  +1.4349491894E-001 -8.6661942303E-002  +8.4431268275E-002 -1.2734536827E-001  +0.0000000000E+000 +0.0000000000E+000 
4850000000.000 +0.0000000000E+000 +0.0000000000E+000  +1.0237510502E-001 +5.1324009895E-002  -3.4680217505E-002 -1.4240507782E-001  +0.0000000000E+000 +0.0000000000E+000 
4893750000.000 +0.0000000000E+000 +0.0000000000E+000  +2.2795183957E-001 +4.3523624539E-002  -1.3131423295E-001 -7.2014108300E-002  +0.0000000000E+000 +0.0000000000E+000 
4937500000.000 +0.0000000000E+000 +0.0000000000E+000  +5.3036320210E-001 -1.4631120488E-002  -1.3983766735E-001 +5.8317720890E-002  +0.0000000000E+000 +0.0000000000E+000 
4981250000.000 +0.0000000000E+000 +0.0000000000E+000  +2.2545263171E-001 +1.1135684699E-001  -4.2632929981E-002 +1.4088007808E-001  +0.0000000000E+000 +0.0000000000E+000 
5025000000.000 +0.0000000000E+000 +0.0000000000E+000  +4.4863961637E-002 +7.1668289602E-002  +7.8817516565E-002 +1.2262363732E-001  +0.0000000000E+000 +0.0000000000E+000 
5068750000.000 +0.0000000000E+000 +0.0000000000E+000  -1.2515385449E-001 +2.4190942943E-001  +1.4382988214E-001 +1.7246885225E-002  +0.0000000000E+000 +0.0000000000E+000 
5112500000.000 +0.0000000000E+000 +0.0000000000E+000  -8.9854039252E-002 -1.5078094788E-002  +1.0257659853E-001 -9.6576206386E-002  +0.0000000000E+000 +0.0000000000E+000 
5156250000.000 +0.0000000000E+000 +0.0000000000E+000  -1.3443697989E-001 -9.9251277745E-002  -5.4322602227E-003 -1.3818551600E-001  +0.0000000000E+000 +0.0000000000E+000 
5200000000.000 +0.0000000000E+000 +0.0000000000E+000  -3.3748942614E-001 -1.0439780354E-001  -1.0759627819E-001 -8.4586672485E-002  +0.0000000000E+000 +0.0000000000E+000 
5243750000.000 +0.0000000000E+000 +0.0000000000E+000  -2.2239172459E-001 -1.2448372692E-001  -1.3160213828E-001 +2.4921970442E-002  +0.0000000000E+000 +0.0000000000E+000 
5287500000.000 +0.0000000000E+000 +0.0000000000E+000  -9.1026231647E-002 -1.0070922226E-001  -6.7227579653E-002 +1.1479909718E-001  +0.0000000000E+000 +0.0000000000E+000 
5331250000.000 +0.0000000000E+000 +0.0000000000E+000  -5.8672688901E-002 -2.5919464231E-001  +4.4293522835E-002 +1.2385866046E-001  +0.0000000000E+000 +0.0000000000E+000 
5375000000.000 +0.0000000000E+000 +0.0000000000E+000  +9.5183163881E-002 -5.0856202841E-002  +1.1877403408E-001 +4.3859746307E-002  +0.0000000000E+000 +0.0000000000E+000 
5418750000.000 +0.0000000000E+000 +0.0000000000E+000  +1.5903690457E-001 +8.4520414472E-002  +1.0843636096E-001 -5.8172162622E-002  +0.0000000000E+000 +0.0000000000E+000 
5462500000.000 +0.0000000000E+000 +0.0000000000E+000  +2.8825730085E-001 +1.7738881707E-001  +2.7232732624E-002 -1.2048110366E-001  +0.0000000000E+000 +0.0000000000E+000 
5506250000.000 +0.0000000000E+000 +0.0000000000E+000  +1.2091393024E-001 +7.2903431952E-002  -7.4917517602E-002 -9.7694374621E-002  +0.0000000000E+000 +0.0000000000E+000 
5550000000.000 +0.0000000000E+000 +0.0000000000E+000  +1.7463393509E-001 +2.8825888038E-001  -1.1914391816E-001 -4.9798474647E-003  +0.0000000000E+000 +0.0000000000E+000 
5593750000.000 +0.0000000000E+000 +0.0000000000E+000  -7.3106922209E-002 +3.3022388816E-001  -8.1314541399E-002 +8.2448050380E-002  +0.0000000000E+000 +0.0000000000E+000 
5637500000.000 +0.0000000000E+000 +0.0000000000E+000  -5.3994371556E-003 -8.4897113265E-004  +5.8568110690E-003 +1.1589581519E-001  +0.0000000000E+000 +0.0000000000E+000 
5681250000.000 +0.0000000000E+000 +0.0000000000E+000  -5.8425933123E-002 -1.6219797730E-001  +9.1837584972E-002 +7.1765407920E-002  +0.0000000000E+000 +0.0000000000E+000 
5725000000.000 +0.0000000000E+000 +0.0000000000E+000  -2.8958576918E-001 -5.2262935787E-002  +1.1083238572E-001 -2.2685041651E-002  +0.0000000000E+000 +0.0000000000E+000 
5768750000.000 +0.0000000000E+000 +0.0000000000E+000  -1.9361159205E-001 -3.1822106242E-001  +5.6569959968E-002 -9.4297461212E-002  +0.0000000000E+000 +0.0000000000E+000 
5812500000.000 +0.0000000000E+000 +0.0000000000E+000  +9.9846087396E-002 -1.4102463424E-001  -3.2693170011E-002 -1.0407054424E-001  +0.0000000000E+000 +0.0000000000E+000 
5856250000.000 +0.0000000000E+000 +0.0000000000E+000  -3.3426392823E-002 -2.7958771586E-001  -9.9007047713E-002 -4.2617376894E-002  +0.0000000000E+000 +0.0000000000E+000 
5900000000.000 +0.0000000000E+000 +0.0000000000E+000  +6.8248502910E-002 -1.4564811252E-002  -9.7549989820E-002 +4.4212635607E-002  +0.0000000000E+000 +0.0000000000E+000 
5943750000.000 +0.0000000000E+000 +0.0000000000E+000  -4.5218463056E-003 -1.3737098873E-001  -3.0298711732E-002 +1.0346614569E-001  +0.0000000000E+000 +0.0000000000E+000 
5987500000.000 +0.0000000000E+000 +0.0000000000E+000  +3.8811630011E-001 +1.1650874466E-001  +5.9145852923E-002 +8.9111328125E-002  +0.0000000000E+000 +0.0000000000E+000 
6031250000.000 +0.0000000000E+000 +0.0000000000E+000  -1.4707385004E-001 +2.8151702881E-001  +1.0570928454E-001 +1.5387500636E-002  +0.0000000000E+000 +0.0000000000E+000 
