!  2-Port S-parameters saved by WinCal
! VAR MeasName=S-Parameters (CALIBRATED_DATA) read from VNA (E8361C)
! VAR MeasDate=7/7/2025 4:25:27 PM
! VAR NAME=LPSetup_Validation_2portthru_20250707_direct 4
! VAR FILENAME=LPSetup_Validation_2portthru_20250707_direct 4.s2p
! VAR DATE=7/7/2025 4:25:27 PM
! VAR PHYS_PORTS=1,2
! VAR ObjTypeName=DATASET
! VAR IndexType=Frequency
!
# Hz S MA R 50
5000000000.000 +5.0950529815E-004 +5.5434440491E+001  +9.9910085048E-001 -1.8520981846E+000  +9.9881563800E-001 -1.9096467661E+000  +3.1162425829E-004 +2.7787676347E+000 
5010000000.000 +9.3506240938E-004 +8.9905452115E+001  +9.9948019825E-001 -1.8860487388E+000  +1.0000050313E+000 -1.8914851357E+000  +5.6782057903E-004 +1.7134585461E+002 
5020000000.000 +3.0620135327E-004 +8.5651882722E+001  +9.9971492868E-001 -1.8944363834E+000  +9.9904668221E-001 -1.9146795184E+000  +8.9077142299E-004 +8.8498935023E+001 
5030000000.000 +7.0860859541E-004 +8.9624835215E+001  +9.9979392616E-001 -1.8701679120E+000  +9.9951348251E-001 -1.8949676866E+000  +1.0288087804E-003 +9.4398235393E+001 
5040000000.000 +5.3520745320E-004 +3.9184271472E+001  +9.9925792603E-001 -1.8820893468E+000  +9.9875423009E-001 -1.9447576020E+000  +1.0136025892E-003 +7.8904468853E+001 
5050000000.000 +5.4854874441E-004 +1.3971394174E+002  +9.9970878148E-001 -1.9213118971E+000  +9.9943132412E-001 -1.9137197003E+000  +1.1259316901E-003 +1.4585730543E+002 
5060000000.000 +4.6254587107E-004 +8.7097513168E+001  +9.9919119397E-001 -1.8823001546E+000  +9.9913234339E-001 -1.8908330311E+000  +9.0548482085E-004 +7.4927493035E+001 
5070000000.000 +3.4341287311E-004 +1.0943217753E+002  +9.9988952629E-001 -1.9140335764E+000  +9.9851435461E-001 -1.8989541025E+000  +2.9078705326E-005 +1.2261321128E+001 
5080000000.000 +8.2373194168E-004 +5.9943801670E+001  +9.9974141986E-001 -1.9254108735E+000  +9.9916245632E-001 -1.9116370473E+000  +4.7877811057E-004 +1.7028864137E+002 
5090000000.000 +5.1870557026E-004 +4.1137795989E+001  +9.9981597296E-001 -1.9068274034E+000  +9.9838160095E-001 -1.9331232561E+000  +6.8535577553E-004 +1.2561364553E+002 
5100000000.000 +6.6068676865E-004 +8.5402652031E+001  +9.9938902001E-001 -1.9230752574E+000  +9.9924209868E-001 -1.9142410316E+000  +4.0179947150E-004 +7.6130913904E+001 
5110000000.000 +4.5882786662E-004 +7.6626849572E+001  +9.9930638009E-001 -1.9321493675E+000  +9.9937439508E-001 -1.9192805821E+000  +8.8909098921E-004 +6.6057734369E+001 
5120000000.000 +7.8983301105E-004 +9.5565420257E+001  +9.9878992837E-001 -1.9579694411E+000  +9.9933459388E-001 -1.9377240635E+000  +1.0067613227E-003 +8.5175430154E+001 
5130000000.000 +9.1071398753E-004 +6.6517129257E+001  +9.9934102475E-001 -1.9379090539E+000  +9.9875971768E-001 -1.9328328974E+000  +1.1559810970E-003 +7.8626429368E+001 
5140000000.000 +5.9963161568E-004 +9.6304151667E+001  +1.0000072505E+000 -1.9482851602E+000  +9.9876947808E-001 -1.9342171420E+000  +6.0551409349E-004 +5.2025169368E+001 
5150000000.000 +2.9150488927E-004 +1.0277148590E+002  +9.9845068297E-001 -1.9303170353E+000  +9.9887817924E-001 -1.9559409630E+000  +5.5535152003E-004 +6.4320522927E+001 
5160000000.000 +8.3129917426E-004 +1.0644495601E+002  +9.9961756713E-001 -1.9397224240E+000  +9.9966945537E-001 -1.9470804072E+000  +8.3667137940E-004 +7.3436769826E+001 
5170000000.000 +6.0841821483E-004 +9.8501933904E+001  +9.9971699636E-001 -1.9568232025E+000  +9.9896195506E-001 -1.9432499049E+000  +5.3966055051E-004 +8.3246254168E+001 
5180000000.000 +7.4681346586E-004 +7.8207516372E+001  +9.9934423042E-001 -1.9320137575E+000  +9.9926510648E-001 -1.9509058224E+000  +9.7769462578E-004 +1.2012852953E+002 
5190000000.000 +9.6811843973E-004 +7.1233040160E+001  +9.9960992698E-001 -1.9920962098E+000  +9.9923206235E-001 -1.9420443245E+000  +5.9830185551E-004 +8.8278801411E+001 
5200000000.000 +4.2636774809E-004 +7.6463245144E+001  +9.9916198350E-001 -1.9873017413E+000  +9.9913620499E-001 -1.9506694026E+000  +3.6080062003E-004 +9.6708960473E+001 
5210000000.000 +8.1615286037E-004 +1.0352270182E+002  +9.9947972557E-001 -1.9721312125E+000  +9.9905075328E-001 -1.9494829355E+000  +9.7152577467E-005 -1.5518862793E+002 
5220000000.000 +7.6874762397E-004 +9.7632908432E+001  +9.9907833439E-001 -1.9767705944E+000  +9.9933220359E-001 -2.0030169879E+000  +5.6232523945E-004 +1.2408301207E+002 
5230000000.000 +5.4827138229E-004 +7.7111735201E+001  +9.9945863107E-001 -1.9878856566E+000  +9.9911620345E-001 -1.9807262925E+000  +6.5061464300E-004 +1.0453720414E+002 
5240000000.000 +5.9118982221E-004 +1.0176281389E+002  +9.9900319719E-001 -1.9810430081E+000  +9.9916182392E-001 -1.9965769558E+000  +6.0294620254E-004 +7.4918295354E+001 
5250000000.000 +2.1996603320E-004 +6.8225142692E+001  +9.9934745450E-001 -2.0114770478E+000  +9.9899297301E-001 -1.9659112527E+000  +3.7639000281E-004 +7.7334171501E+001 
5260000000.000 +4.8733170629E-004 +5.1496621553E+001  +9.9931039278E-001 -1.9865523321E+000  +9.9840191851E-001 -1.9774029772E+000  +8.4798115671E-004 +5.1126838523E+001 
5270000000.000 +6.4623322768E-004 +8.8520472363E+001  +9.9946533349E-001 -2.0158979309E+000  +9.9892834861E-001 -1.9772813174E+000  +9.7574950479E-004 +9.0570454860E+001 
5280000000.000 +6.0964893358E-004 +1.0056932786E+002  +9.9874632847E-001 -1.9778785368E+000  +9.9872988006E-001 -1.9564821291E+000  +8.3763973692E-004 +6.0442357850E+001 
5290000000.000 +3.9231410668E-004 +6.4187023617E+001  +9.9951995277E-001 -1.9991993339E+000  +9.9890158115E-001 -1.9897453475E+000  +6.0080475068E-004 +7.0446839168E+001 
5300000000.000 +7.5646118631E-004 +1.0380863046E+002  +9.9906972388E-001 -2.0187023598E+000  +9.9905911634E-001 -1.9961745356E+000  +1.0118440901E-003 +5.1637643013E+001 
5310000000.000 +9.1787768794E-004 +8.8319582741E+001  +9.9924254066E-001 -2.0125402821E+000  +9.9878559783E-001 -2.0212355974E+000  +1.1311771687E-003 +8.5857690735E+001 
5320000000.000 +7.3914588462E-004 +8.0890883443E+001  +9.9973839099E-001 -2.0341023405E+000  +9.9911612006E-001 -1.9861187753E+000  +6.6271256041E-004 +1.2630243480E+002 
5330000000.000 +5.9661494849E-004 +8.1627262916E+001  +9.9946233966E-001 -2.0258592011E+000  +9.9911691640E-001 -1.9752750817E+000  +3.7845070991E-004 -1.1183413391E+001 
5340000000.000 +6.4148371049E-004 +3.1583964016E+001  +9.9960108402E-001 -2.0194985789E+000  +9.9904672941E-001 -2.0055058816E+000  +7.0735255453E-004 +1.1294285125E+002 
5350000000.000 +9.5361574592E-004 +1.1213344780E+002  +9.9970947322E-001 -2.0224375342E+000  +9.9924022653E-001 -2.0190695102E+000  +1.2804816741E-003 +8.9047828534E+001 
5360000000.000 +8.6210475470E-004 +9.8780058479E+001  +1.0000045417E+000 -2.0082930729E+000  +9.9899747449E-001 -2.0407674165E+000  +3.6191178974E-004 +1.3975168909E+002 
5370000000.000 +9.5582353875E-004 +7.2403174767E+001  +9.9990874231E-001 -2.0174082675E+000  +9.9959316265E-001 -2.0037491142E+000  +8.7820790965E-004 +5.0287834926E+001 
5380000000.000 +9.7110073625E-004 +6.1749854109E+001  +9.9949188323E-001 -2.0157187138E+000  +9.9995899035E-001 -2.0386878717E+000  +5.6975618924E-004 +6.4472552082E+001 
5390000000.000 +8.5871869699E-004 +1.2993170417E+002  +9.9995811870E-001 -2.0522164193E+000  +9.9826762094E-001 -2.0253243520E+000  +1.4056232537E-003 +7.5268976289E+001 
5400000000.000 +8.7843391752E-004 +1.0039984471E+002  +9.9934442498E-001 -2.0467249407E+000  +9.9919778618E-001 -2.0466654818E+000  +8.4560482300E-004 +4.0398859371E+001 
5410000000.000 +6.5952221989E-004 +9.5574575992E+001  +9.9927703539E-001 -2.0256709925E+000  +9.9920561883E-001 -2.0312306883E+000  +7.0838355330E-004 +9.8216394076E+001 
5420000000.000 +5.3921094758E-004 +1.2780186249E+002  +9.9848789337E-001 -2.0509297679E+000  +9.9909407721E-001 -2.0658293559E+000  +5.0076254329E-004 +9.3221738791E+001 
5430000000.000 +8.6194248617E-004 +1.0551863394E+002  +9.9975106504E-001 -2.0543562504E+000  +9.9931332633E-001 -2.0471635381E+000  +3.5169554916E-004 +3.6243635411E+001 
5440000000.000 +9.5042067127E-004 +9.0861055256E+001  +9.9936911988E-001 -2.0227643577E+000  +9.9883696362E-001 -2.0615713370E+000  +1.9940179509E-004 +1.1957531313E+002 
5450000000.000 +3.6086437112E-004 +5.5992347642E+001  +9.9845836362E-001 -2.0730684695E+000  +9.9905694871E-001 -2.0677716417E+000  +7.0148102333E-004 +8.4382345452E+001 
5460000000.000 +5.6383303312E-004 +7.2256482127E+001  +9.9908707620E-001 -2.0876770737E+000  +9.9868766622E-001 -2.0944679149E+000  +5.2668716154E-004 +3.0825977338E+001 
5470000000.000 +8.1952083142E-004 +1.0466401538E+002  +9.9880101543E-001 -2.0539801336E+000  +9.9896980473E-001 -2.0614061138E+000  +6.3082076754E-004 +9.3551862056E+001 
5480000000.000 +8.3934585115E-004 +8.3011141915E+001  +9.9924108950E-001 -2.0621145755E+000  +9.9929282166E-001 -2.0566328314E+000  +3.2170372589E-004 +8.4586229070E+001 
5490000000.000 +8.5676715985E-004 +5.2788029384E+001  +9.9890534781E-001 -2.1050726653E+000  +9.9904841715E-001 -2.0880373157E+000  +6.2571184648E-004 +8.4104937360E+001 
5500000000.000 +6.3161660450E-004 +7.6341651099E+001  +9.9944499645E-001 -2.0368689540E+000  +9.9899601246E-001 -2.0952848366E+000  +1.3248964293E-003 +7.1894192945E+001 
5510000000.000 +9.0875071526E-004 +8.9510650884E+001  +9.9951646680E-001 -2.0839405393E+000  +9.9896627102E-001 -2.0754953688E+000  +5.1547786056E-004 +3.8799448083E+001 
5520000000.000 +7.6538932535E-004 +8.3979554327E+001  +9.9967447587E-001 -2.0350990022E+000  +9.9921566074E-001 -2.0598006587E+000  +7.6730538842E-004 +9.1478422950E+001 
5530000000.000 +8.2167274610E-004 +8.8088598737E+001  +9.9972717131E-001 -2.1036405208E+000  +9.9893248360E-001 -2.0664619481E+000  +1.3058155320E-003 +7.9732172164E+001 
5540000000.000 +6.1577146784E-004 +7.0284042576E+001  +9.9900963279E-001 -2.0835983259E+000  +9.9914304348E-001 -2.0634559585E+000  +7.2797384125E-004 +9.8988561167E+001 
5550000000.000 +1.0742034656E-003 +7.8118785016E+001  +9.9955311581E-001 -2.0705993164E+000  +9.9942898811E-001 -2.0889451102E+000  +5.7338214977E-004 +1.6610321548E+002 
5560000000.000 +7.1504792958E-004 +9.9097218129E+001  +9.9920907994E-001 -2.0736056848E+000  +9.9921393411E-001 -2.0908561182E+000  +8.3404869740E-004 +9.4447942962E+001 
5570000000.000 +7.9436071410E-004 +9.7715018592E+001  +9.9941440163E-001 -2.0753492755E+000  +9.9886445633E-001 -2.1139353603E+000  +6.3932745135E-004 +1.0410741536E+002 
5580000000.000 +7.5318811518E-004 +1.0844411718E+002  +1.0000612138E+000 -2.1232276500E+000  +9.9939414250E-001 -2.1128800624E+000  +4.3150395261E-004 +9.9045778050E+001 
5590000000.000 +6.0711290712E-004 +7.9745929519E+001  +9.9920226157E-001 -2.0938795556E+000  +9.9878959720E-001 -2.0805731873E+000  +6.9101472033E-004 +7.7273599846E+001 
5600000000.000 +6.1270148427E-004 +1.0093427021E+002  +9.9984428536E-001 -2.0985653335E+000  +9.9931556816E-001 -2.0905751956E+000  +4.6286708782E-004 +1.7041876642E+002 
5610000000.000 +5.6220215312E-004 +9.2732326441E+001  +1.0001427466E+000 -2.1206412618E+000  +9.9868080951E-001 -2.0983978061E+000  +7.3182781421E-004 +9.2174564424E+001 
5620000000.000 +1.1249721653E-003 +9.7735983141E+001  +9.9975549007E-001 -2.1321825970E+000  +9.9926021844E-001 -2.1345213060E+000  +1.0161774003E-003 +1.0952283382E+002 
5630000000.000 +7.2645083839E-004 +7.6563374442E+001  +9.9961666322E-001 -2.1506046459E+000  +9.9932898440E-001 -2.1203352366E+000  +7.7868794432E-004 +8.0093395752E+001 
5640000000.000 +6.0069226882E-004 +8.1247206833E+001  +9.9931745882E-001 -2.1424586193E+000  +9.9865060937E-001 -2.1284118145E+000  +7.1418326543E-004 +1.0669897631E+002 
5650000000.000 +6.9400131668E-004 +1.1126774312E+002  +9.9941556323E-001 -2.1409744574E+000  +9.9926004191E-001 -2.0917032782E+000  +7.7389545725E-004 +7.5703057606E+001 
5660000000.000 +9.7094943417E-004 +1.1636669035E+002  +9.9964270167E-001 -2.1112389167E+000  +9.9877162574E-001 -2.1258247305E+000  +6.6781717375E-004 +8.0993111200E+001 
5670000000.000 +6.1300288075E-004 +7.8329405997E+001  +9.9936506581E-001 -2.1242967802E+000  +9.9889776721E-001 -2.1531014764E+000  +8.6492631632E-004 +9.9343440271E+001 
5680000000.000 +8.9605907788E-004 +8.9804363188E+001  +9.9932084516E-001 -2.1693278488E+000  +9.9886795660E-001 -2.1609329600E+000  +5.7084149191E-004 +6.5721863384E+001 
5690000000.000 +9.6807381240E-004 +6.6366487451E+001  +9.9910190737E-001 -2.1479535622E+000  +9.9920157114E-001 -2.1396305242E+000  +4.4864609883E-004 +1.0091690253E+002 
5700000000.000 +9.8001601086E-004 +7.8516479829E+001  +9.9976691005E-001 -2.1797135536E+000  +9.9866050918E-001 -2.1586721735E+000  +5.2118520155E-004 +7.0580777133E+001 
5710000000.000 +1.1118320292E-003 +8.9526298197E+001  +9.9920195802E-001 -2.1766143352E+000  +9.9885849662E-001 -2.1560674267E+000  +9.1174140201E-004 +9.5972824705E+001 
5720000000.000 +9.2372817081E-004 +6.6191957173E+001  +9.9925708652E-001 -2.1705079612E+000  +9.9910526503E-001 -2.1622509600E+000  +8.9974541649E-004 +6.4787476393E+001 
5730000000.000 +5.4981757094E-004 +8.8347175926E+001  +9.9929649635E-001 -2.1641563398E+000  +9.9928495763E-001 -2.1521362275E+000  +4.8509735457E-004 +1.0931316960E+002 
5740000000.000 +4.7460900284E-004 +7.2544840057E+001  +9.9896905499E-001 -2.1539353659E+000  +9.9906733852E-001 -2.1686877214E+000  +8.7067541439E-004 +6.9261837855E+001 
5750000000.000 +7.9646196741E-004 +9.3092208916E+001  +9.9946232256E-001 -2.1545543597E+000  +9.9859654186E-001 -2.1529053102E+000  +6.9490881624E-004 +7.7721265289E+000 
5760000000.000 +7.1573424939E-004 +8.3878250425E+001  +9.9972059335E-001 -2.1504617268E+000  +9.9883618166E-001 -2.1698266840E+000  +1.2054792510E-003 +1.1394738311E+002 
5770000000.000 +8.3949386937E-004 +9.7486208075E+001  +9.9898687498E-001 -2.1719386135E+000  +9.9920295585E-001 -2.1713641676E+000  +8.2207721181E-004 +1.1519696407E+002 
5780000000.000 +7.8940032097E-004 +1.0424605494E+002  +9.9956197281E-001 -2.1584288148E+000  +9.9915380384E-001 -2.1567873589E+000  +5.4555298714E-004 +6.5032479524E+001 
5790000000.000 +2.9921859107E-004 +1.0456760082E+002  +9.9957543518E-001 -2.1909946268E+000  +9.9882380871E-001 -2.1822142598E+000  +1.0648880887E-003 +7.6378909406E+001 
5800000000.000 +3.3916991884E-004 +1.2112998384E+002  +9.9928607875E-001 -2.1768206843E+000  +9.9947052204E-001 -2.1849208530E+000  +4.1803906076E-004 +8.3263042431E+001 
5810000000.000 +9.0503294914E-004 +8.7179325336E+001  +9.9975031788E-001 -2.1823911197E+000  +9.9964079387E-001 -2.1972173765E+000  +2.4521386380E-004 +1.7758661990E+002 
5820000000.000 +9.8163002528E-004 +6.2378526857E+001  +9.9925223362E-001 -2.1749828185E+000  +9.9917882631E-001 -2.1983019471E+000  +9.4418957055E-004 +8.4775391634E+001 
5830000000.000 +6.3879998077E-004 +1.0110329282E+002  +9.9960076386E-001 -2.2084081365E+000  +9.9898758805E-001 -2.2031906951E+000  +1.0408933289E-003 +9.5421422086E+001 
5840000000.000 +6.6221821226E-004 +7.7391448368E+001  +9.9932686624E-001 -2.2127647554E+000  +9.9871568935E-001 -2.2064499298E+000  +1.1068557006E-003 +6.3028845830E+001 
5850000000.000 +1.0484283303E-003 +8.9208742039E+001  +1.0000816505E+000 -2.2338671514E+000  +9.9920144446E-001 -2.2150067960E+000  +1.1500672686E-003 +1.0157818723E+002 
5860000000.000 +9.4076211786E-004 +7.6902185633E+001  +9.9906841150E-001 -2.2037232584E+000  +9.9872912396E-001 -2.2148915774E+000  +4.5913659471E-004 +1.0205848163E+002 
5870000000.000 +1.1060367623E-003 +8.9705568831E+001  +9.9981186752E-001 -2.2250192012E+000  +9.9905863775E-001 -2.1936679153E+000  +9.1686637172E-004 +8.1203448797E+001 
5880000000.000 +7.7592687060E-004 +8.1825140980E+001  +9.9974880963E-001 -2.2103531767E+000  +9.9914067913E-001 -2.2270270961E+000  +5.2160151477E-004 +1.2613820653E+002 
5890000000.000 +8.1445970314E-004 +1.1227182080E+002  +9.9996340067E-001 -2.2236454090E+000  +9.9957821810E-001 -2.1843406522E+000  +7.3460848665E-004 +7.5826017888E+001 
5900000000.000 +5.2777348518E-004 +5.5113833425E+001  +9.9920113644E-001 -2.2210857217E+000  +9.9884043159E-001 -2.1972193067E+000  +5.6974571252E-004 +1.3698286069E+002 
5910000000.000 +1.0018659283E-003 +7.8217615364E+001  +9.9910906830E-001 -2.2288787218E+000  +9.9854745301E-001 -2.2368482122E+000  +9.1482896262E-004 +7.0572977841E+001 
5920000000.000 +1.1355092589E-003 +1.0152310107E+002  +9.9942859637E-001 -2.2445277302E+000  +9.9878097274E-001 -2.2561975996E+000  +3.7052439873E-004 +7.6444925829E+001 
5930000000.000 +6.8560439878E-004 +1.0240810996E+002  +9.9926140830E-001 -2.2411394847E+000  +9.9878735726E-001 -2.2187158400E+000  +4.3575337272E-004 +5.6843127913E+001 
5940000000.000 +7.8355835150E-004 +8.0515987557E+001  +9.9939133675E-001 -2.2573491903E+000  +9.9892226917E-001 -2.2290019240E+000  +1.1357377674E-003 +7.8366050472E+001 
5950000000.000 +7.9579704252E-004 +7.8721799269E+001  +9.9895268211E-001 -2.2557261878E+000  +9.9907085556E-001 -2.2290001484E+000  +3.7032887744E-004 +1.0863414086E+002 
5960000000.000 +8.5118162121E-004 +9.0185819746E+001  +9.9898808162E-001 -2.2715170558E+000  +9.9906097618E-001 -2.2640884838E+000  +1.2320695630E-003 +1.0975678178E+002 
5970000000.000 +1.0168958837E-003 +8.7246078483E+001  +9.9905450503E-001 -2.2592825519E+000  +9.9869494478E-001 -2.2584383193E+000  +6.7970069341E-004 +6.7171340409E+001 
5980000000.000 +8.6364712752E-004 +9.6930016573E+001  +9.9917340081E-001 -2.2492192062E+000  +9.9924291955E-001 -2.2601158676E+000  +9.7931187609E-004 +9.7204946498E+001 
5990000000.000 +6.9839972840E-004 +9.8224068744E+001  +9.9951007570E-001 -2.2689920608E+000  +9.9872650520E-001 -2.2567095459E+000  +1.1230987777E-003 +9.4438148393E+001 
6000000000.000 +6.4377586958E-004 +5.0238024946E+001  +9.9891010961E-001 -2.2617381117E+000  +9.9893794104E-001 -2.2701746793E+000  +9.6183041232E-004 +8.2193772070E+001 
6010000000.000 +4.1926224455E-004 +1.0582224966E+002  +9.9937498063E-001 -2.2460251287E+000  +9.9943373012E-001 -2.2581897421E+000  +1.1306742755E-003 +8.2353054030E+001 
6020000000.000 +1.2555463716E-003 +8.3201759771E+001  +9.9844598747E-001 -2.2867678134E+000  +9.9956936317E-001 -2.2707948414E+000  +4.3840301669E-004 +8.8858969326E+001 
6030000000.000 +8.3367606851E-004 +8.9881178159E+001  +9.9917897256E-001 -2.2754030686E+000  +9.9910583932E-001 -2.2866530910E+000  +5.9857392220E-004 +1.2991036789E+002 
6040000000.000 +9.9373009047E-004 +9.0174258145E+001  +9.9938266494E-001 -2.2953438177E+000  +9.9900486436E-001 -2.2477907865E+000  +1.0360891089E-003 +9.8117245823E+001 
6050000000.000 +6.1627279804E-004 +8.0952539405E+001  +9.9916820473E-001 -2.2633609368E+000  +9.9884486901E-001 -2.2513436660E+000  +7.3256249030E-004 +6.8541825021E+001 
6060000000.000 +7.3149163799E-004 +1.0517780190E+002  +9.9943052322E-001 -2.2965622181E+000  +9.9935085331E-001 -2.2650860387E+000  +5.3803406293E-004 +5.2972164525E+001 
6070000000.000 +5.7740379488E-004 +5.1294490667E+001  +9.9913202943E-001 -2.2719607855E+000  +9.9886710488E-001 -2.2973300778E+000  +1.0228856796E-003 +9.0541967028E+001 
6080000000.000 +9.7003881265E-004 +8.3326786032E+001  +9.9870102824E-001 -2.2867221039E+000  +9.9856978658E-001 -2.2826800332E+000  +8.4326045804E-004 +7.6132800438E+001 
6090000000.000 +6.6563423084E-004 +1.0511543598E+002  +9.9950101090E-001 -2.2944839445E+000  +9.9867424540E-001 -2.2962169977E+000  +1.0205781982E-003 +5.3386339200E+001 
6100000000.000 +8.0620633268E-004 +8.4296485482E+001  +9.9867408906E-001 -2.3157964814E+000  +9.9902669127E-001 -2.3045897801E+000  +1.0360003115E-003 +6.4506015299E+001 
6110000000.000 +6.3962543842E-004 +1.0418228450E+002  +9.9938488867E-001 -2.3017577366E+000  +9.9929777119E-001 -2.2925998681E+000  +4.8656757450E-004 +7.9998095846E+001 
6120000000.000 +9.8388937338E-004 +9.3880709454E+001  +9.9944879851E-001 -2.3119755177E+000  +9.9858356676E-001 -2.2705417822E+000  +8.1289903925E-004 +1.2242011571E+002 
6130000000.000 +4.3683200937E-005 +1.4021080717E+002  +9.9930567563E-001 -2.3257221861E+000  +9.9915484835E-001 -2.3260272774E+000  +9.2666529937E-004 +7.2648215087E+001 
