!  1-Port S-parameters saved by WinCal
! VAR NAME=2-Port SOLT labuser 7
! VAR Error Term Name=ERft phys rcv port 1 phys src port 1
!
# Hz S RI R 50
5000000000.000 +1.5163449796E-001 +5.3173276333E-001 
5010000000.000 +5.4016198803E-001 +1.0647029127E-001 
5020000000.000 +3.4039811412E-001 -4.3331017227E-001 
5030000000.000 -2.3371861109E-001 -5.0069110731E-001 
5040000000.000 -5.5301123545E-001 -1.6034918671E-002 
5050000000.000 -2.6346225748E-001 +4.8619669139E-001 
5060000000.000 +3.1386196139E-001 +4.5428163720E-001 
5070000000.000 +5.4712948858E-001 -7.4736438685E-002 
5080000000.000 +1.7970511004E-001 -5.2299677176E-001 
5090000000.000 -3.8633838990E-001 -3.9643751150E-001 
5100000000.000 -5.2834869539E-001 +1.6557107572E-001 
5110000000.000 -9.0773379611E-002 +5.4598747438E-001 
5120000000.000 +4.4658322646E-001 +3.2637229650E-001 
5130000000.000 +4.9118003478E-001 -2.5236881202E-001 
5140000000.000 -4.5358226269E-003 -5.5056220594E-001 
5150000000.000 -4.9206103951E-001 -2.4459717545E-001 
5160000000.000 -4.4079796689E-001 +3.2820575402E-001 
5170000000.000 +9.4010049799E-002 +5.4218003266E-001 
5180000000.000 +5.2631106057E-001 +1.5915616174E-001 
5190000000.000 +3.7666133108E-001 -3.9806267454E-001 
5200000000.000 -1.8436152197E-001 -5.1353624929E-001 
5210000000.000 -5.4023063708E-001 -6.8588499745E-002 
5220000000.000 -3.0593346645E-001 +4.5106907779E-001 
5230000000.000 +2.6617368020E-001 +4.7662445297E-001 
5240000000.000 +5.4527189436E-001 -2.4806801978E-002 
5250000000.000 +2.2351876602E-001 -4.9755523337E-001 
5260000000.000 -3.4294334202E-001 -4.2471483162E-001 
5270000000.000 -5.3496151901E-001 +1.1504796381E-001 
5280000000.000 -1.3597065332E-001 +5.3101962340E-001 
5290000000.000 +4.1455566510E-001 +3.5744446089E-001 
5300000000.000 +5.0301205775E-001 -2.0975710036E-001 
5310000000.000 +3.9766395283E-002 -5.4124422311E-001 
5320000000.000 -4.6356446600E-001 -2.7941323979E-001 
5330000000.000 -4.5864863279E-001 +2.8761701096E-001 
5340000000.000 +4.9903755845E-002 +5.4021922455E-001 
5350000000.000 +5.0645739450E-001 +1.9909873495E-001 
5360000000.000 +4.0563727761E-001 -3.6424419758E-001 
5370000000.000 -1.4376794349E-001 -5.2384389247E-001 
5380000000.000 -5.2787635816E-001 -1.0633549738E-001 
5390000000.000 -3.3114911367E-001 +4.1779185711E-001 
5400000000.000 +2.1805949050E-001 +4.8295106335E-001 
5410000000.000 +5.2945623795E-001 +2.8308690390E-002 
5420000000.000 +2.6845840111E-001 -4.5934116327E-001 
5430000000.000 -2.8772905418E-001 -4.4883046658E-001 
5440000000.000 -5.3024026423E-001 +5.3311232016E-002 
5450000000.000 -1.9339803482E-001 +4.9602887231E-001 
5460000000.000 +3.5451916000E-001 +3.9867786841E-001 
5470000000.000 +5.1726534060E-001 -1.3644192296E-001 
5480000000.000 +1.1100535497E-001 -5.2397304986E-001 
5490000000.000 -4.1816875888E-001 -3.3365059207E-001 
5500000000.000 -4.8427631331E-001 +2.2311803751E-001 
5510000000.000 -1.9338449282E-002 +5.3112008626E-001 
5520000000.000 +4.6291937343E-001 +2.5614061423E-001 
5530000000.000 +4.3712721950E-001 -2.9415883116E-001 
5540000000.000 -6.1274790782E-002 -5.2298965658E-001 
5550000000.000 -4.9549876437E-001 -1.8309650534E-001 
5560000000.000 -3.8650529649E-001 +3.6281824733E-001 
5570000000.000 +1.5313059258E-001 +5.0562092727E-001 
5580000000.000 +5.1509853515E-001 +8.9383958514E-002 
5590000000.000 +3.1248724708E-001 -4.1235394374E-001 
5600000000.000 -2.2083638635E-001 -4.6698279333E-001 
5610000000.000 -5.2106341133E-001 -1.7825715209E-002 
5620000000.000 -2.5343679111E-001 +4.6330488509E-001 
5630000000.000 +3.0463649634E-001 +4.3612997164E-001 
5640000000.000 +5.2576878571E-001 -7.9538016523E-002 
5650000000.000 +1.6244126472E-001 -5.0403788839E-001 
5660000000.000 -3.7696462332E-001 -3.7057772663E-001 
5670000000.000 -5.0087776690E-001 +1.7007356504E-001 
5680000000.000 -7.4615386601E-002 +5.2429490920E-001 
5690000000.000 +4.3399326705E-001 +3.0426155095E-001 
5700000000.000 +4.6790197172E-001 -2.5016343199E-001 
5710000000.000 -1.2922717538E-002 -5.3152437984E-001 
5720000000.000 -4.8254261907E-001 -2.2639781183E-001 
5730000000.000 -4.1765916682E-001 +3.3179823635E-001 
5740000000.000 +1.1023777525E-001 +5.2144016404E-001 
5750000000.000 +5.1496516776E-001 +1.3518304871E-001 
5760000000.000 +3.5191126791E-001 -3.9962450782E-001 
5770000000.000 -1.9983156299E-001 -4.9407466734E-001 
5780000000.000 -5.3130474457E-001 -4.2649039443E-002 
5790000000.000 -2.7612281107E-001 +4.5521636366E-001 
5800000000.000 +2.8087922613E-001 +4.5054934279E-001 
5810000000.000 +5.2668214094E-001 -4.6467335022E-002 
5820000000.000 +1.9673205307E-001 -4.8887892570E-001 
5830000000.000 -3.4491721960E-001 -3.9783891984E-001 
5840000000.000 -5.1311692228E-001 +1.2568475834E-001 
5850000000.000 -1.2023811806E-001 +5.1672791428E-001 
5860000000.000 +4.0771190015E-001 +3.3948329862E-001 
5870000000.000 +4.8327702764E-001 -2.1199858358E-001 
5880000000.000 +2.8121968976E-002 -5.2281890906E-001 
5890000000.000 -4.5120474481E-001 -2.6242282145E-001 
5900000000.000 -4.4090732879E-001 +2.8344217541E-001 
5910000000.000 +5.4407887037E-002 +5.2503820373E-001 
5920000000.000 +4.9580842869E-001 +1.8743137170E-001 
5930000000.000 +3.8833750297E-001 -3.5857016329E-001 
5940000000.000 -1.4447684053E-001 -5.0476986069E-001 
5950000000.000 -5.1226371236E-001 -1.0041508510E-001 
5960000000.000 -3.2216707708E-001 +4.0865984648E-001 
5970000000.000 +2.1706860689E-001 +4.7243823064E-001 
5980000000.000 +5.1862955361E-001 +2.1289033354E-002 
5990000000.000 +2.5304770649E-001 -4.5240248987E-001 
6000000000.000 -2.8963615685E-001 -4.2969959112E-001 
6010000000.000 -5.1170108774E-001 +6.4322305405E-002 
6020000000.000 -1.7213358032E-001 +4.8518639016E-001 
6030000000.000 +3.5479177209E-001 +3.6944818888E-001 
6040000000.000 +4.8666500573E-001 -1.5002030231E-001 
6050000000.000 +8.5231160638E-002 -5.0035800716E-001 
6060000000.000 -4.0685321345E-001 -3.0388497320E-001 
6070000000.000 -4.5799229115E-001 +2.2439032692E-001 
6080000000.000 -7.9633158557E-003 +5.1164292722E-001 
6090000000.000 +4.5326577996E-001 +2.3814393074E-001 
6100000000.000 +4.1522457712E-001 -2.9750968131E-001 
6110000000.000 -7.8887827644E-002 -5.0262544813E-001 
6120000000.000 -4.8278711210E-001 -1.5566845800E-001 
6130000000.000 -3.5654520517E-001 +3.5977536511E-001 
6140000000.000 +1.5928905558E-001 +4.8105118472E-001 
6150000000.000 +5.0222280538E-001 +7.5897896490E-002 
6160000000.000 +2.9503324288E-001 -4.1533046015E-001 
6170000000.000 -2.3939719319E-001 -4.5155988689E-001 
6180000000.000 -5.1127474840E-001 +1.2522371264E-002 
6190000000.000 -2.1636866410E-001 +4.6220936489E-001 
6200000000.000 +3.1545699940E-001 +3.9960224374E-001 
6210000000.000 +4.9822389588E-001 -1.0048416796E-001 
6220000000.000 +1.3847529816E-001 -4.8961209357E-001 
6230000000.000 -3.7270489989E-001 -3.4838822221E-001 
6240000000.000 -4.8078882407E-001 +1.7340937179E-001 
6250000000.000 -6.1539903285E-002 +5.0724427256E-001 
6260000000.000 +4.2485067514E-001 +2.8250180586E-001 
6270000000.000 +4.4346203402E-001 -2.5198732634E-001 
6280000000.000 -2.5137287502E-002 -5.1020865507E-001 
6290000000.000 -4.6737465073E-001 -2.0855383262E-001 
6300000000.000 -3.9738132523E-001 +3.2366838682E-001 
6310000000.000 +1.1014006576E-001 +5.0052394399E-001 
6320000000.000 +4.9546470062E-001 +1.2784214909E-001 
6330000000.000 +3.3605235480E-001 -3.8443518428E-001 
6340000000.000 -1.9163474592E-001 -4.7133592217E-001 
6350000000.000 -5.0539084565E-001 -4.1932209816E-002 
6360000000.000 -2.6630243232E-001 +4.3092174100E-001 
6370000000.000 +2.6332953306E-001 +4.3391289712E-001 
6380000000.000 +5.0833115676E-001 -3.8058314894E-002 
6390000000.000 +1.9602464340E-001 -4.7226971847E-001 
6400000000.000 -3.3365420423E-001 -3.8657462421E-001 
6410000000.000 -4.9184848649E-001 +1.2636992962E-001 
6420000000.000 -1.0494752731E-001 +4.9321397824E-001 
6430000000.000 +3.9178656308E-001 +3.1404759191E-001 
6440000000.000 +4.5708630960E-001 -2.0650192614E-001 
6450000000.000 +2.3488556148E-002 -5.0178894266E-001 
6460000000.000 -4.3737085248E-001 -2.4849898812E-001 
6470000000.000 -4.1925962431E-001 +2.7718526457E-001 
6480000000.000 +5.8121840917E-002 +4.9840043708E-001 
6490000000.000 +4.7037889106E-001 +1.7170646312E-001 
6500000000.000 +3.6381801553E-001 -3.4322457753E-001 
6510000000.000 -1.4300617700E-001 -4.7804512645E-001 
6520000000.000 -4.8793413989E-001 -8.6907320707E-002 
6530000000.000 -2.9645245306E-001 +3.9174194626E-001 
6540000000.000 +2.0953643026E-001 +4.4074237177E-001 
6550000000.000 +4.8848402428E-001 +1.8200864433E-002 
6560000000.000 +2.4025051978E-001 -4.3073131429E-001 
6570000000.000 -2.8224564949E-001 -4.0900498099E-001 
6580000000.000 -4.9074830454E-001 +7.5460192699E-002 
6590000000.000 -1.5031298588E-001 +4.6767546021E-001 
6600000000.000 +3.4225165395E-001 +3.4538933506E-001 
6610000000.000 +4.6504263166E-001 -1.4150642786E-001 
6620000000.000 +9.0507143650E-002 -4.8201920889E-001 
6630000000.000 -3.9354381210E-001 -3.0160545280E-001 
6640000000.000 -4.4621488563E-001 +2.1961006980E-001 
6650000000.000 -2.3488126589E-003 +4.9510019165E-001 
6660000000.000 +4.3887378952E-001 +2.2397011621E-001 
6670000000.000 +3.9939343883E-001 -2.8860146527E-001 
6680000000.000 -7.5560113328E-002 -4.8946299080E-001 
6690000000.000 -4.7307023597E-001 -1.5382578467E-001 
6700000000.000 -3.5046243695E-001 +3.5363766464E-001 
6710000000.000 +1.5759579134E-001 +4.7195093580E-001 
6720000000.000 +4.9253108328E-001 +7.2538991896E-002 
6730000000.000 +2.8727842198E-001 -4.0871045514E-001 
6740000000.000 -2.3860713999E-001 -4.4059451339E-001 
6750000000.000 -5.0023481819E-001 +1.5749986166E-002 
6760000000.000 -2.1112381422E-001 +4.5038718475E-001 
6770000000.000 +3.0172415405E-001 +3.9000130402E-001 
6780000000.000 +4.8223794714E-001 -8.9010975668E-002 
6790000000.000 +1.4096247795E-001 -4.7038429128E-001 
6800000000.000 -3.5838501825E-001 -3.4134942077E-001 
6810000000.000 -4.6983617236E-001 +1.7004594793E-001 
6820000000.000 -5.4319974143E-002 +4.9864261101E-001 
6830000000.000 +4.2054101075E-001 +2.6898493971E-001 
6840000000.000 +4.2557937375E-001 -2.5097679846E-001 
6850000000.000 -2.8044079687E-002 -4.8873475580E-001 
6860000000.000 -4.4577874572E-001 -1.9963165445E-001 
6870000000.000 -3.8356321100E-001 +3.0653003908E-001 
6880000000.000 +1.0095586881E-001 +4.8519741031E-001 
6890000000.000 +4.8353704303E-001 +1.2598779893E-001 
6900000000.000 +3.2647288332E-001 -3.7931148149E-001 
6910000000.000 -1.9306042490E-001 -4.5812546939E-001 
6920000000.000 -4.8994510370E-001 -3.5141473446E-002 
6930000000.000 -2.5397050769E-001 +4.1440559910E-001 
6940000000.000 +2.5046496449E-001 +4.1560164528E-001 
6950000000.000 +4.8756766800E-001 -3.3202209565E-002 
6960000000.000 +1.9147899862E-001 -4.5540177990E-001 
6970000000.000 -3.2540754607E-001 -3.7579338891E-001 
6980000000.000 -4.8013589943E-001 +1.2433205068E-001 
6990000000.000 -1.0499462265E-001 +4.8170407143E-001 
7000000000.000 +3.7877416401E-001 +3.1186049871E-001 
7010000000.000 +4.5052195508E-001 -1.9427775569E-001 
7020000000.000 +3.0408998341E-002 -4.9115033099E-001 
7030000000.000 -4.2670033859E-001 -2.4758549499E-001 
7040000000.000 -4.1250123984E-001 +2.7210454935E-001 
7050000000.000 +5.9617216890E-002 +4.9022586574E-001 
7060000000.000 +4.6426909288E-001 +1.6651876990E-001 
7070000000.000 +3.5787776813E-001 -3.3864952710E-001 
7080000000.000 -1.4035517025E-001 -4.7168566107E-001 
7090000000.000 -4.8389165124E-001 -8.5986565669E-002 
7100000000.000 -2.9092464310E-001 +3.9326597684E-001 
7110000000.000 +2.2025999617E-001 +4.3278956005E-001 
7120000000.000 +4.8293363055E-001 -8.4185346082E-005 
7130000000.000 +2.2104283184E-001 -4.2944012864E-001 
7140000000.000 -2.8475080121E-001 -3.9385649253E-001 
7150000000.000 -4.8001677763E-001 +8.0459197731E-002 
7160000000.000 -1.3855480463E-001 +4.6080843933E-001 
7170000000.000 +3.4190778074E-001 +3.2471305385E-001 
7180000000.000 +4.3958986883E-001 -1.5009339930E-001 
7190000000.000 +7.4034107931E-002 -4.6036666581E-001 
7200000000.000 -3.8190515786E-001 -2.8294546086E-001 
7210000000.000 -4.3140076821E-001 +2.2027576706E-001 
7220000000.000 +9.6779428309E-003 +4.8641470623E-001 
7230000000.000 +4.3537676758E-001 +2.0520198459E-001 
7240000000.000 +3.7719986966E-001 -2.8999387881E-001 
7250000000.000 -8.3239047532E-002 -4.6760643005E-001 
7260000000.000 -4.5788263145E-001 -1.4029465821E-001 
7270000000.000 -3.3438696441E-001 +3.5001313766E-001 
7280000000.000 +1.6513287451E-001 +4.5818342713E-001 
7290000000.000 +4.8437181425E-001 +5.7476556890E-002 
7300000000.000 +2.6771005046E-001 -4.0701706951E-001 
7310000000.000 -2.4397398826E-001 -4.1958777374E-001 
7320000000.000 -4.8167055761E-001 +3.1198732923E-002 
7330000000.000 -1.8678589414E-001 +4.4244940848E-001 
7340000000.000 +3.0959742346E-001 +3.6635041711E-001 
7350000000.000 +4.6840522848E-001 -1.0932070975E-001 
7360000000.000 +1.1517875370E-001 -4.6886926233E-001 
7370000000.000 -3.6727788728E-001 -3.1483584779E-001 
7380000000.000 -4.4605204079E-001 +1.8654459689E-001 
7390000000.000 -3.3923693358E-002 +4.8148070971E-001 
7400000000.000 +4.1448305881E-001 +2.4638859604E-001 
7410000000.000 +4.0519022352E-001 -2.5925448907E-001 
7420000000.000 -4.8976063519E-002 -4.7698043674E-001 
7430000000.000 -4.4617356273E-001 -1.7168466637E-001 
7440000000.000 -3.5533759221E-001 +3.1924685574E-001 
7450000000.000 +1.2432338798E-001 +4.6204526442E-001 
7460000000.000 +4.6972356509E-001 +9.6291486824E-002 
7470000000.000 +2.9568397249E-001 -3.7848917311E-001 
7480000000.000 -2.0838834646E-001 -4.3229479648E-001 
7490000000.000 -4.7678169755E-001 -4.8905986995E-003 
7500000000.000 -2.1645852502E-001 +4.1840855287E-001 
7510000000.000 +2.6716663694E-001 +3.7944980129E-001 
7520000000.000 +4.5635304073E-001 -5.7523237466E-002 
7530000000.000 +1.6296159460E-001 -4.3228134788E-001 
7540000000.000 -3.1492169847E-001 -3.4599334523E-001 
7550000000.000 -4.5283451828E-001 +1.3185313233E-001 
7560000000.000 -7.8851400658E-002 +4.6062395185E-001 
7570000000.000 +3.6820121684E-001 +2.7176490677E-001 
7580000000.000 +4.0530911561E-001 -1.9582322361E-001 
7590000000.000 +2.0157523556E-002 -4.4975337257E-001 
7600000000.000 -3.9518731994E-001 -2.3191339998E-001 
7610000000.000 -3.9371733958E-001 +2.5310088086E-001 
7620000000.000 +5.4260863805E-002 +4.7120415619E-001 
7630000000.000 +4.4805223263E-001 +1.5885544320E-001 
7640000000.000 +3.4058754154E-001 -3.2868599448E-001 
7650000000.000 -1.3825749018E-001 -4.5104043229E-001 
7660000000.000 -4.6396760125E-001 -8.3041084049E-002 
7670000000.000 -2.8702790287E-001 +3.7479634157E-001 
7680000000.000 +2.0339929188E-001 +4.2764565926E-001 
7690000000.000 +4.7466982821E-001 +1.0972192739E-002 
7700000000.000 +2.2228706222E-001 -4.2066346682E-001 
7710000000.000 -2.7653829419E-001 -3.8667292609E-001 
7720000000.000 -4.6888932621E-001 +7.3617642992E-002 
7730000000.000 -1.4489017062E-001 +4.5154974396E-001 
7740000000.000 +3.3655641289E-001 +3.3265321017E-001 
7750000000.000 +4.4808835389E-001 -1.4794458256E-001 
7760000000.000 +7.2955217659E-002 -4.6508208993E-001 
7770000000.000 -3.8140952098E-001 -2.7780918240E-001 
7780000000.000 -4.2355389502E-001 +2.1625837284E-001 
7790000000.000 +4.1946009627E-003 +4.7884137594E-001 
7800000000.000 +4.3069622751E-001 +2.0885094441E-001 
7810000000.000 +3.7588791129E-001 -2.8909104029E-001 
7820000000.000 -8.4492078431E-002 -4.6126638129E-001 
7830000000.000 -4.4681955020E-001 -1.3737978575E-001 
7840000000.000 -3.2799552428E-001 +3.3700345573E-001 
7850000000.000 +1.5635779560E-001 +4.4817657817E-001 
7860000000.000 +4.7283013814E-001 +5.6516189581E-002 
7870000000.000 +2.5881044782E-001 -3.9695856503E-001 
7880000000.000 -2.3558653503E-001 -4.0722553344E-001 
7890000000.000 -4.6797887772E-001 +2.3244898716E-002 
7900000000.000 -1.9388545708E-001 +4.2689830133E-001 
7910000000.000 +2.9326679354E-001 +3.6804492867E-001 
7920000000.000 +4.6220152830E-001 -9.6822234607E-002 
7930000000.000 +1.2049232264E-001 -4.5801177592E-001 
7940000000.000 -3.5679963338E-001 -3.1225673610E-001 
7950000000.000 -4.3802136497E-001 +1.7946198785E-001 
7960000000.000 -3.6633789898E-002 +4.6944972121E-001 
7970000000.000 +3.9863999590E-001 +2.4377680172E-001 
7980000000.000 +3.9598694618E-001 -2.4290623711E-001 
7990000000.000 -3.7001201955E-002 -4.6200186987E-001 
8000000000.000 -4.2885256485E-001 -1.7613702922E-001 
8010000000.000 -3.5155104802E-001 +3.0382212209E-001 
8020000000.000 +1.1243020589E-001 +4.5167565430E-001 
8030000000.000 +4.5473613633E-001 +1.0472073951E-001 
8040000000.000 +3.0100996686E-001 -3.5840788176E-001 
8050000000.000 -1.8372704610E-001 -4.3164256168E-001 
8060000000.000 -4.6815419052E-001 -2.9102249002E-002 
8070000000.000 -2.3463930235E-001 +4.0381056109E-001 
8080000000.000 +2.5290237996E-001 +3.8982444413E-001 
8090000000.000 +4.6151448532E-001 -4.7408474807E-002 
8100000000.000 +1.6875675543E-001 -4.3413258765E-001 
8110000000.000 -3.1402860290E-001 -3.4985990440E-001 
8120000000.000 -4.5646880465E-001 +1.2526183256E-001 
8130000000.000 -8.9969262710E-002 +4.6448591319E-001 
8140000000.000 +3.7382837772E-001 +2.8450058104E-001 
8150000000.000 +4.1846136729E-001 -2.0480012251E-001 
8160000000.000 +7.2910495112E-003 -4.6519382263E-001 
8170000000.000 -4.1334638561E-001 -2.1835800636E-001 
8180000000.000 -3.8325036841E-001 +2.7310741074E-001 
8190000000.000 +7.4116930345E-002 +4.6606679999E-001 
8200000000.000 +4.4841257957E-001 +1.4246545614E-001 
8210000000.000 +3.2905984228E-001 -3.3367929458E-001 
8220000000.000 -1.4752717072E-001 -4.4312185282E-001 
8230000000.000 -4.6142340745E-001 -6.8576204550E-002 
8240000000.000 -2.6929676073E-001 +3.8101520375E-001 
8250000000.000 +2.1848808479E-001 +4.1221814313E-001 
8260000000.000 +4.6707791945E-001 -8.9437774277E-003 
8270000000.000 +2.0220460109E-001 -4.2159807489E-001 
8280000000.000 -2.8558633469E-001 -3.7020356636E-001 
8290000000.000 -4.5863727938E-001 +8.7513140780E-002 
8300000000.000 -1.2766319251E-001 +4.4797321842E-001 
8310000000.000 +3.4259196652E-001 +3.1498901082E-001 
8320000000.000 +4.3503536813E-001 -1.6527015382E-001 
8330000000.000 +4.8515119932E-002 -4.6283518664E-001 
8340000000.000 -3.9085138466E-001 -2.5263903886E-001 
8350000000.000 -4.0226542784E-001 +2.3381438405E-001 
8360000000.000 +2.5670568501E-002 +4.6503010843E-001 
8370000000.000 +4.2635530956E-001 +1.8824107708E-001 
8380000000.000 +3.6024109065E-001 -2.9551121231E-001 
8390000000.000 -1.0316227952E-001 -4.5399742174E-001 
8400000000.000 -4.5170074079E-001 -1.1058138884E-001 
8410000000.000 -3.0187970887E-001 +3.5320880123E-001 
8420000000.000 +1.7948571318E-001 +4.2824094636E-001 
8430000000.000 +4.6242267654E-001 +3.3000211520E-002 
8440000000.000 +2.3876725361E-001 -3.9717765023E-001 
8450000000.000 -2.4637385359E-001 -3.9317075482E-001 
8460000000.000 -4.6268576942E-001 +4.3871933675E-002 
8470000000.000 -1.6605687964E-001 +4.3376861868E-001 
8480000000.000 +3.1205918971E-001 +3.4125131520E-001 
8490000000.000 +4.4399268158E-001 -1.2216284811E-001 
8500000000.000 +9.4834796076E-002 -4.5069399869E-001 
8510000000.000 -3.5946982405E-001 -2.9141372817E-001 
8520000000.000 -4.2432269500E-001 +1.9083590721E-001 
8530000000.000 -1.8388599318E-002 +4.6485962143E-001 
8540000000.000 +4.0598263836E-001 +2.2258591272E-001 
8550000000.000 +3.7991718121E-001 -2.6100387379E-001 
8560000000.000 -5.9437194605E-002 -4.5713858737E-001 
8570000000.000 -4.3688109864E-001 -1.5509700579E-001 
8580000000.000 -3.3671100335E-001 +3.2217938217E-001 
8590000000.000 +1.3808399566E-001 +4.4584010393E-001 
8600000000.000 +4.5964522469E-001 +7.4669618229E-002 
8610000000.000 +2.7117476899E-001 -3.7630444422E-001 
8620000000.000 -2.1425016710E-001 -4.1048954457E-001 
8630000000.000 -4.6252936800E-001 +6.5656100542E-003 
8640000000.000 -2.0293214082E-001 +4.1534210150E-001 
8650000000.000 +2.7838878454E-001 +3.6844557786E-001 
8660000000.000 +4.5359635315E-001 -8.1668813488E-002 
