!  1-Port S-parameters saved by WinCal
! VAR NAME=2-Port SOLT labuser 7
! VAR Error Term Name=ESrm phys rcv port 1 phys src port 1
!
# Hz S RI R 50
5000000000.000 +6.0432674771E-002 +6.7096340166E-002 
5010000000.000 +8.1771137384E-002 +5.0003803895E-002 
5020000000.000 +8.0470638218E-002 +1.7283835073E-002 
5030000000.000 +5.1578496150E-002 -1.5718737395E-003 
5040000000.000 +2.2088988344E-002 +1.1902591822E-002 
5050000000.000 +2.1814162502E-002 +3.9575747122E-002 
5060000000.000 +4.4377656704E-002 +4.6754098732E-002 
5070000000.000 +5.6867267599E-002 +2.7105804878E-002 
5080000000.000 +4.2682165143E-002 +8.2775635559E-003 
5090000000.000 +2.1759363562E-002 +1.3118392702E-002 
5100000000.000 +1.9879259508E-002 +2.9394811892E-002 
5110000000.000 +3.2069146291E-002 +2.9693213749E-002 
5120000000.000 +2.9550578473E-002 +1.2412122769E-002 
5130000000.000 +3.4226561712E-003 +6.8153322885E-003 
5140000000.000 -1.9105655945E-002 +3.1439631224E-002 
5150000000.000 -9.7065148143E-003 +6.5227959982E-002 
5160000000.000 +2.1500101482E-002 +7.3371456227E-002 
5170000000.000 +3.8329185560E-002 +5.1392088407E-002 
5180000000.000 +2.3132667466E-002 +3.0986896740E-002 
5190000000.000 -2.8605289293E-003 +3.9687990524E-002 
5200000000.000 -7.8831779873E-003 +6.8640465574E-002 
5210000000.000 +1.1582593406E-002 +8.8063530946E-002 
5220000000.000 +3.2572091579E-002 +8.6093745972E-002 
5230000000.000 +4.0030263863E-002 +7.7418289377E-002 
5240000000.000 +4.2295760154E-002 +7.6691437205E-002 
5250000000.000 +5.1803413753E-002 +7.7764974087E-002 
5260000000.000 +6.3839450770E-002 +6.8021678975E-002 
5270000000.000 +6.2717799631E-002 +5.0187762216E-002 
5280000000.000 +4.5840110475E-002 +4.2535521697E-002 
5290000000.000 +3.0844265609E-002 +5.5696777659E-002 
5300000000.000 +3.5908453267E-002 +7.8584786753E-002 
5310000000.000 +6.0552557280E-002 +9.0349624771E-002 
5320000000.000 +8.9757690769E-002 +8.0406118254E-002 
5330000000.000 +1.0671970157E-001 +5.1329853904E-002 
5340000000.000 +9.9744473787E-002 +1.5574033800E-002 
5350000000.000 +6.7169992140E-002 -6.3386025174E-003 
5360000000.000 +2.6973961174E-002 +5.0547846056E-003 
5370000000.000 +1.2958808513E-002 +4.7880592155E-002 
5380000000.000 +4.6542734608E-002 +8.6354098047E-002 
5390000000.000 +1.0520886962E-001 +7.5851470505E-002 
5400000000.000 +1.3255382743E-001 +1.2129505957E-002 
5410000000.000 +9.1867185954E-002 -5.3872829342E-002 
5420000000.000 +1.0000082717E-002 -6.0035905623E-002 
5430000000.000 -4.2437279391E-002 +2.1495535663E-003 
5440000000.000 -2.2596683909E-002 +7.4938368612E-002 
5450000000.000 +4.1106335855E-002 +9.4688477691E-002 
5460000000.000 +8.3722347613E-002 +5.5728184283E-002 
5470000000.000 +7.2451632247E-002 +6.5882162679E-003 
5480000000.000 +3.0398926144E-002 -7.9623579622E-003 
5490000000.000 -2.6395083771E-003 +1.2680302037E-002 
5500000000.000 -1.2434649658E-002 +4.4275018363E-002 
5510000000.000 -6.0318385383E-003 +7.3831271978E-002 
5520000000.000 +1.4834236406E-002 +9.9080603114E-002 
5530000000.000 +5.2939471620E-002 +1.0902516258E-001 
5540000000.000 +9.1789183134E-002 +8.5834709054E-002 
5550000000.000 +9.6682093079E-002 +3.7038903623E-002 
5560000000.000 +5.4031205105E-002 +6.6768660966E-003 
5570000000.000 +2.9894595320E-003 +3.3613798214E-002 
5580000000.000 +2.0229611677E-003 +9.8222286363E-002 
5590000000.000 +6.0676923154E-002 +1.3690117910E-001 
5600000000.000 +1.2739964004E-001 +1.1142885796E-001 
5610000000.000 +1.4577960309E-001 +4.6993973131E-002 
5620000000.000 +1.0973055693E-001 +3.0810565226E-003 
5630000000.000 +6.6426504159E-002 +1.0393588132E-002 
5640000000.000 +5.9101164694E-002 +4.3203658719E-002 
5650000000.000 +8.3286227697E-002 +5.8689680875E-002 
5660000000.000 +1.0682351207E-001 +4.6489801835E-002 
5670000000.000 +1.1306601947E-001 +2.4382065500E-002 
5680000000.000 +1.0901652772E-001 +7.1008227191E-003 
5690000000.000 +1.0223593119E-001 -7.5544727163E-003 
5700000000.000 +8.9032032734E-002 -2.1557029794E-002 
5710000000.000 +6.8026920983E-002 -2.6310639246E-002 
5720000000.000 +5.1649986382E-002 -1.5836579997E-002 
5730000000.000 +5.1800049065E-002 -3.4394285733E-003 
5740000000.000 +5.8789026057E-002 -5.8416938874E-003 
5750000000.000 +5.2542510470E-002 -1.8537259886E-002 
5760000000.000 +3.2459993622E-002 -2.0069872196E-002 
5770000000.000 +1.9560005514E-002 -3.9177088779E-003 
5780000000.000 +2.6513244890E-002 +9.9911190231E-003 
5790000000.000 +3.5020927866E-002 +2.4309124420E-003 
5800000000.000 +1.9067638379E-002 -1.2058291797E-002 
5810000000.000 -1.4450594717E-002 -1.2719221874E-004 
5820000000.000 -2.6584118341E-002 +4.3491227754E-002 
5830000000.000 +3.7678047331E-003 +8.0649838295E-002 
5840000000.000 +4.7853248555E-002 +7.4352135569E-002 
5850000000.000 +5.7109237788E-002 +3.6600780412E-002 
5860000000.000 +2.2670307548E-002 +1.8522428762E-002 
5870000000.000 -1.1434188284E-002 +5.0429681384E-002 
5880000000.000 +9.0053546326E-004 +1.0338048645E-001 
5890000000.000 +5.2561930957E-002 +1.2540656092E-001 
5900000000.000 +9.7069538062E-002 +1.0087211885E-001 
5910000000.000 +1.0181178418E-001 +6.2443042675E-002 
5920000000.000 +8.1111738389E-002 +4.8880694301E-002 
5930000000.000 +7.1137001079E-002 +6.3605535845E-002 
5940000000.000 +8.6754243270E-002 +7.8706874410E-002 
5950000000.000 +1.1183957448E-001 +7.4236696243E-002 
5960000000.000 +1.2669959373E-001 +5.5788819143E-002 
5970000000.000 +1.3051258448E-001 +3.7833284804E-002 
5980000000.000 +1.3102381491E-001 +2.2220686343E-002 
5990000000.000 +1.2785385864E-001 +5.4956750065E-003 
6000000000.000 +1.1637777661E-001 -7.8929371814E-003 
6010000000.000 +1.0266609639E-001 -8.9253095787E-003 
6020000000.000 +1.0111244071E-001 -1.2529107101E-003 
6030000000.000 +1.1529302301E-001 -3.4189453099E-003 
6040000000.000 +1.2575177736E-001 -2.8927720060E-002 
6050000000.000 +1.0917738131E-001 -6.3801717542E-002 
6060000000.000 +6.6815456990E-002 -7.7911160750E-002 
6070000000.000 +2.8378528217E-002 -5.6759062909E-002 
6080000000.000 +2.1979794160E-002 -1.9235619714E-002 
6090000000.000 +4.5898507713E-002 -3.0057563250E-004 
6100000000.000 +6.8486671238E-002 -1.6097792364E-002 
6110000000.000 +6.0118606406E-002 -4.7872152525E-002 
6120000000.000 +2.1447859959E-002 -6.0875590480E-002 
6130000000.000 -1.8152619941E-002 -3.8346884402E-002 
6140000000.000 -3.0024227304E-002 +5.7184551353E-003 
6150000000.000 -1.0188206318E-002 +4.0811158342E-002 
6160000000.000 +1.9945300489E-002 +4.8041745984E-002 
6170000000.000 +3.3967518780E-002 +3.4580060952E-002 
6180000000.000 +2.5396176905E-002 +2.5326421135E-002 
6190000000.000 +1.1403220104E-002 +3.6642085061E-002 
6200000000.000 +1.3040130111E-002 +6.1678191734E-002 
6210000000.000 +3.3841604044E-002 +8.0677879717E-002 
6220000000.000 +5.9759841215E-002 +8.2300812670E-002 
6230000000.000 +7.6378907982E-002 +7.2386786215E-002 
6240000000.000 +8.3010911346E-002 +6.4803257951E-002 
6250000000.000 +9.0407723658E-002 +6.3707052657E-002 
6260000000.000 +1.0425394139E-001 +6.0948837611E-002 
6270000000.000 +1.1861334221E-001 +4.9427641890E-002 
6280000000.000 +1.2566839046E-001 +3.1917232019E-002 
6290000000.000 +1.2375351277E-001 +1.6565884775E-002 
6300000000.000 +1.1884067542E-001 +8.0659493999E-003 
6310000000.000 +1.1693326220E-001 +4.7751356928E-003 
6320000000.000 +1.2096361659E-001 +2.0373665610E-003 
6330000000.000 +1.2996149218E-001 -5.7084710413E-003 
6340000000.000 +1.3967947058E-001 -2.4175859383E-002 
6350000000.000 +1.3833761482E-001 -5.4659460697E-002 
6360000000.000 +1.1475825243E-001 -8.4850419090E-002 
6370000000.000 +7.4388858207E-002 -9.3320364285E-002 
6380000000.000 +4.2599241968E-002 -7.2405456516E-002 
6390000000.000 +4.2101005571E-002 -4.2259906716E-002 
6400000000.000 +6.5134708252E-002 -3.5963278515E-002 
6410000000.000 +7.6291325570E-002 -6.2597575503E-002 
6420000000.000 +5.0892752361E-002 -9.3673712523E-002 
6430000000.000 +3.3888104408E-003 -9.3416742102E-002 
6440000000.000 -2.9146831087E-002 -5.9405523307E-002 
6450000000.000 -2.9240894067E-002 -2.0388029214E-002 
6460000000.000 -1.2835301747E-002 -1.4674271726E-003 
6470000000.000 -3.5874386575E-003 +1.5975438505E-003 
6480000000.000 -4.2746162292E-003 +6.4365867183E-003 
6490000000.000 -1.6770928293E-003 +1.6659211877E-002 
6500000000.000 +4.5762840763E-003 +2.0755582637E-002 
6510000000.000 +4.9628625031E-004 +2.0329334578E-002 
6520000000.000 -1.3875348085E-002 +3.5703487225E-002 
6530000000.000 -1.1124364264E-002 +7.4048111272E-002 
6540000000.000 +2.8559474805E-002 +1.0624722068E-001 
6550000000.000 +8.3635646116E-002 +9.6802517251E-002 
6560000000.000 +1.0700238415E-001 +5.0408389573E-002 
6570000000.000 +8.1283371731E-002 +1.6518658579E-002 
6580000000.000 +4.7930455795E-002 +3.4291820163E-002 
6590000000.000 +6.1853195870E-002 +7.7952941121E-002 
6600000000.000 +1.1880204142E-001 +8.6477798723E-002 
6610000000.000 +1.6190719548E-001 +3.9986315499E-002 
6620000000.000 +1.4979758122E-001 -1.8711332631E-002 
6630000000.000 +1.0468578442E-001 -3.5194116955E-002 
6640000000.000 +8.3230255583E-002 -7.9222405420E-003 
6650000000.000 +1.0656539154E-001 +1.2418632424E-002 
6660000000.000 +1.3744233289E-001 -8.0841437030E-003 
6670000000.000 +1.3623386360E-001 -4.8232744508E-002 
6680000000.000 +1.0931045898E-001 -6.8906490703E-002 
6690000000.000 +8.9725071438E-002 -6.6313468488E-002 
6700000000.000 +8.6643161911E-002 -6.6905533904E-002 
6710000000.000 +7.7114521264E-002 -8.1142902711E-002 
6720000000.000 +4.9321170311E-002 -8.6041976218E-002 
6730000000.000 +2.7676093675E-002 -6.4769534812E-002 
6740000000.000 +3.8979964097E-002 -4.1049392763E-002 
6750000000.000 +6.3896776483E-002 -5.3931033116E-002 
6760000000.000 +5.2609127983E-002 -9.6121910935E-002 
6770000000.000 -7.4721727987E-003 -1.1183601049E-001 
6780000000.000 -6.4791646501E-002 -6.4399904765E-002 
6790000000.000 -6.1109185650E-002 +1.4184693884E-002 
6800000000.000 +2.7574309345E-003 +5.3331930788E-002 
6810000000.000 +6.1212548155E-002 +2.0202773520E-002 
6820000000.000 +5.4105101615E-002 -4.2015465324E-002 
6830000000.000 -7.7791477909E-003 -5.9974582906E-002 
6840000000.000 -5.7754749226E-002 -1.1281886758E-002 
6850000000.000 -4.7995629765E-002 +6.1001703751E-002 
6860000000.000 +1.1405460499E-002 +1.0028834843E-001 
6870000000.000 +7.4907648734E-002 +8.5175842368E-002 
6880000000.000 +1.0214171433E-001 +3.5456363796E-002 
6890000000.000 +8.3695334020E-002 -8.3933458953E-003 
6900000000.000 +4.2003328433E-002 -1.4553542164E-002 
6910000000.000 +1.6504115673E-002 +2.1177676769E-002 
6920000000.000 +3.7337042602E-002 +6.8837786191E-002 
6930000000.000 +9.7441758747E-002 +8.2961553681E-002 
6940000000.000 +1.5164068683E-001 +4.1710418578E-002 
6950000000.000 +1.5484977218E-001 -2.7063822055E-002 
6960000000.000 +1.0664476439E-001 -6.6950599879E-002 
6970000000.000 +5.8356919000E-002 -4.9040850176E-002 
6980000000.000 +5.9656995276E-002 -6.6790690268E-003 
6990000000.000 +1.0163835454E-001 +2.2030061588E-003 
7000000000.000 +1.2956131976E-001 -3.7808614978E-002 
7010000000.000 +1.1011831077E-001 -8.5426858729E-002 
7020000000.000 +6.5259655740E-002 -9.7662053830E-002 
7030000000.000 +3.8215861379E-002 -7.8023013276E-002 
7040000000.000 +3.8353973607E-002 -6.1111973243E-002 
7050000000.000 +4.1705585331E-002 -6.3375758702E-002 
7060000000.000 +3.1461118885E-002 -6.8313985975E-002 
7070000000.000 +2.0522575843E-002 -6.1619557350E-002 
7080000000.000 +2.0947666289E-002 -5.6582747310E-002 
7090000000.000 +1.6623375696E-002 -6.7057127912E-002 
7100000000.000 -1.2373052529E-002 -7.3113355299E-002 
7110000000.000 -4.6715914164E-002 -4.3681613554E-002 
7120000000.000 -4.2305344459E-002 +1.0436836586E-002 
7130000000.000 +7.5508962544E-003 +3.5361153479E-002 
7140000000.000 +4.8905587497E-002 +5.3415677691E-004 
7150000000.000 +2.4573581896E-002 -5.2296674603E-002 
7160000000.000 -4.5905862483E-002 -4.4679957618E-002 
7170000000.000 -7.6113797088E-002 +3.5813454963E-002 
7180000000.000 -1.8142244780E-002 +1.1175826947E-001 
7190000000.000 +7.8722253863E-002 +1.0629026400E-001 
7200000000.000 +1.2381287725E-001 +2.6412386618E-002 
7210000000.000 +7.9388199546E-002 -4.3424769559E-002 
7220000000.000 +5.1912937120E-003 -3.0131198630E-002 
7230000000.000 -1.0180281888E-002 +4.1742036169E-002 
7240000000.000 +4.6738789508E-002 +8.8898972565E-002 
7250000000.000 +1.1518339165E-001 +6.9235191141E-002 
7260000000.000 +1.4012473200E-001 +1.1062821346E-002 
7270000000.000 +1.1933161787E-001 -3.4495769214E-002 
7280000000.000 +8.6677973493E-002 -4.6667885958E-002 
7290000000.000 +6.6321871466E-002 -3.7549988856E-002 
7300000000.000 +6.1545172728E-002 -2.2945086429E-002 
7310000000.000 +7.1741325101E-002 -9.9517695456E-003 
7320000000.000 +9.6894729168E-002 -1.1307881281E-002 
7330000000.000 +1.1962889465E-001 -4.1792863203E-002 
7340000000.000 +1.0882463319E-001 -9.1612579149E-002 
7350000000.000 +5.6828165549E-002 -1.1924621835E-001 
7360000000.000 +1.9630255830E-003 -9.4462697262E-002 
7370000000.000 -6.2261509625E-003 -3.9211986200E-002 
7380000000.000 +3.4563136792E-002 -1.1244313682E-002 
7390000000.000 +7.3386925702E-002 -3.8642131015E-002 
7400000000.000 +6.2447418824E-002 -8.9114340838E-002 
7410000000.000 +9.3815084231E-003 -1.0664493600E-001 
7420000000.000 -3.5953823165E-002 -7.4530009799E-002 
7430000000.000 -4.0068459696E-002 -2.5077803716E-002 
7440000000.000 -1.3077472262E-002 +4.3222208085E-003 
7450000000.000 +1.7144871208E-002 +5.0552027666E-003 
7460000000.000 +3.3207581083E-002 -1.1927079201E-002 
7470000000.000 +2.9517376786E-002 -3.4152546998E-002 
7480000000.000 +3.4059824943E-003 -4.7022417430E-002 
7490000000.000 -3.3602854344E-002 -2.8953024663E-002 
7500000000.000 -4.6373851675E-002 +2.6282884535E-002 
7510000000.000 -2.2205769675E-003 +8.2095451252E-002 
7520000000.000 +7.9205990216E-002 +8.1849856206E-002 
7530000000.000 +1.2984869463E-001 +1.1193163781E-002 
7540000000.000 +9.6026887260E-002 -7.1025671346E-002 
7550000000.000 +5.7189476718E-003 -8.0350251609E-002 
7560000000.000 -4.4002850602E-002 +4.9429826375E-004 
7570000000.000 +7.5370733263E-003 +8.7049573239E-002 
7580000000.000 +1.1355673670E-001 +8.8662930062E-002 
7590000000.000 +1.7664815344E-001 +1.6201464868E-003 
7600000000.000 +1.4552105818E-001 -9.6950484451E-002 
7610000000.000 +5.5801758567E-002 -1.2678981332E-001 
7620000000.000 -9.0795932352E-003 -7.6316435607E-002 
7630000000.000 -1.5263563668E-003 -6.5253117301E-003 
7640000000.000 +5.5268044356E-002 +2.0038141920E-002 
7650000000.000 +1.0745097394E-001 -9.7652828253E-003 
7660000000.000 +1.1974408501E-001 -6.9249039794E-002 
7670000000.000 +8.5128889148E-002 -1.2227414710E-001 
7680000000.000 +2.0266748282E-002 -1.3669952556E-001 
7690000000.000 -3.6089417765E-002 -9.8041737207E-002 
7700000000.000 -4.0258594886E-002 -3.0195921308E-002 
7710000000.000 +1.3466665215E-002 +8.3230430831E-003 
7720000000.000 +7.3153487095E-002 -2.3090210508E-002 
7730000000.000 +7.0765454157E-002 -9.6568060028E-002 
7740000000.000 -2.1994244490E-003 -1.3305867216E-001 
7750000000.000 -7.5741679281E-002 -8.5757873269E-002 
7760000000.000 -7.4089832993E-002 +1.3014969292E-003 
7770000000.000 -3.1948368884E-003 +4.0213360359E-002 
7780000000.000 +5.5652290207E-002 -2.1001900292E-003 
7790000000.000 +3.7755566054E-002 -6.7074391458E-002 
7800000000.000 -3.0095319969E-002 -7.2093694059E-002 
7810000000.000 -6.3292968982E-002 -7.8615434839E-003 
7820000000.000 -2.1138671353E-002 +5.2677215484E-002 
7830000000.000 +4.9603236544E-002 +4.7434271054E-002 
7840000000.000 +7.7046076728E-002 -9.7841909544E-003 
7850000000.000 +4.4107788283E-002 -5.2765277699E-002 
7860000000.000 -1.6331981828E-003 -4.0953273342E-002 
7870000000.000 -7.7846058109E-003 +2.5806715820E-003 
7880000000.000 +2.7030205211E-002 +2.7817376930E-002 
7890000000.000 +6.6407343344E-002 +1.5533164213E-002 
7900000000.000 +8.3130082508E-002 -1.7392070155E-002 
7910000000.000 +7.7551426476E-002 -4.8619002434E-002 
7920000000.000 +5.8050841820E-002 -7.0261174070E-002 
7930000000.000 +2.9042388033E-002 -7.7111619763E-002 
7940000000.000 +2.1219823942E-003 -6.0546737754E-002 
7950000000.000 +9.6232678173E-005 -2.6779339839E-002 
7960000000.000 +3.3310607280E-002 -5.6033515351E-003 
7970000000.000 +7.6440615897E-002 -2.8478569488E-002 
7980000000.000 +8.2614781415E-002 -8.8170955073E-002 
7990000000.000 +3.1617603840E-002 -1.3561257109E-001 
8000000000.000 -4.3042625468E-002 -1.2423861383E-001 
8010000000.000 -8.0322522060E-002 -5.8605707577E-002 
8020000000.000 -5.1394513045E-002 +6.3397092912E-003 
8030000000.000 +1.3445589898E-002 +1.6428308667E-002 
8040000000.000 +5.2354684591E-002 -3.1942425396E-002 
8050000000.000 +2.9129142175E-002 -9.0451545627E-002 
8060000000.000 -3.6057056664E-002 -1.0232403030E-001 
8070000000.000 -8.6052227949E-002 -5.4579640835E-002 
8080000000.000 -7.9377795286E-002 +1.4529239613E-002 
8090000000.000 -2.4166197921E-002 +5.0209353481E-002 
8100000000.000 +3.2172722107E-002 +2.9386790085E-002 
8110000000.000 +4.3400840799E-002 -2.3384831910E-002 
8120000000.000 +5.6121508423E-003 -5.4863820562E-002 
8130000000.000 -3.8431231381E-002 -3.4617224492E-002 
8140000000.000 -4.1684114392E-002 +1.5623491337E-002 
8150000000.000 -3.6061619887E-004 +4.6268306639E-002 
8160000000.000 +4.7269201876E-002 +3.0835543390E-002 
8170000000.000 +6.0779237975E-002 -1.2016656609E-002 
8180000000.000 +3.7682082217E-002 -4.0949059650E-002 
8190000000.000 +9.8169514101E-003 -3.5376137600E-002 
8200000000.000 +6.8644604575E-003 -1.2719163262E-002 
8210000000.000 +2.5897832420E-002 -2.4155168580E-003 
8220000000.000 +4.5543765667E-002 -1.3688684444E-002 
8230000000.000 +5.0119020861E-002 -3.5168672246E-002 
8240000000.000 +4.1308242382E-002 -5.2588044914E-002 
8250000000.000 +2.7567124089E-002 -6.1729657857E-002 
8260000000.000 +1.2692189982E-002 -6.3988961560E-002 
8270000000.000 -4.8017409861E-005 -5.7799570870E-002 
8280000000.000 -2.7538509252E-003 -4.6207720946E-002 
8290000000.000 +6.0581494993E-003 -4.1488468584E-002 
8300000000.000 +1.3599761285E-002 -5.2697838257E-002 
8310000000.000 +3.9332652316E-003 -7.0724654435E-002 
8320000000.000 -2.2047824491E-002 -7.5584341535E-002 
8330000000.000 -4.4163111871E-002 -5.7838612431E-002 
8340000000.000 -4.4566104848E-002 -3.2338832000E-002 
8350000000.000 -2.9046965986E-002 -2.1450343633E-002 
8360000000.000 -1.9602392141E-002 -2.8816159335E-002 
8370000000.000 -2.6218154025E-002 -3.7096091204E-002 
8380000000.000 -3.9344326554E-002 -3.2820765783E-002 
8390000000.000 -4.5222947075E-002 -1.9489230004E-002 
8400000000.000 -4.3176536537E-002 -7.4285512787E-003 
8410000000.000 -3.9194468209E-002 +1.8596301605E-003 
8420000000.000 -3.2886096297E-002 +1.2288273214E-002 
8430000000.000 -1.8171582413E-002 +2.0564649646E-002 
8440000000.000 +1.2173711648E-004 +1.5217050091E-002 
8450000000.000 +5.3155352769E-003 -2.4317593626E-003 
8460000000.000 -9.0736733099E-003 -1.1736432103E-002 
8470000000.000 -2.2933109363E-002 +2.2682725386E-003 
8480000000.000 -1.2225019823E-002 +2.5807722013E-002 
8490000000.000 +1.9096214733E-002 +2.8340584916E-002 
8500000000.000 +3.9516317075E-002 +8.5103070645E-004 
8510000000.000 +2.6111483346E-002 -2.9464792820E-002 
8520000000.000 -4.5182539809E-003 -2.8968883737E-002 
8530000000.000 -1.2561237949E-002 -1.2885373269E-004 
8540000000.000 +1.5076826085E-002 +1.8653747464E-002 
8550000000.000 +4.8419257198E-002 -2.2850429490E-004 
8560000000.000 +5.0990704423E-002 -4.1781395934E-002 
8570000000.000 +1.8834804988E-002 -6.7676289129E-002 
8580000000.000 -1.6411653795E-002 -5.6760888548E-002 
8590000000.000 -2.3172049072E-002 -2.6980742185E-002 
8600000000.000 -2.2803320736E-003 -1.1716650010E-002 
8610000000.000 +1.9341820631E-002 -2.5510717393E-002 
8620000000.000 +1.8685740037E-002 -5.4814843207E-002 
8630000000.000 -8.0528139965E-003 -7.6040855339E-002 
8640000000.000 -4.5378783199E-002 -7.1139143769E-002 
8650000000.000 -6.9165617410E-002 -3.9638544533E-002 
8660000000.000 -6.1288085824E-002 -1.3228515839E-003 
