!  1-Port S-parameters saved by WinCal
! VAR NAME=2-Port SOLT labuser 7
! VAR Error Term Name=ELdm phys rcv port 2 phys src port 1
!
# Hz S RI R 50
5000000000.000 +2.1561400987E-001 +5.0777626817E-002 
5010000000.000 +1.2854363122E-001 -6.9608317616E-002 
5020000000.000 -3.5946945025E-003 -1.6935348479E-002 
5030000000.000 +2.7481736242E-002 +1.1225507773E-001 
5040000000.000 +1.5615934083E-001 +9.2425441422E-002 
5050000000.000 +1.5496324504E-001 -4.3561419790E-002 
5060000000.000 +1.7351107888E-002 -7.4798186204E-002 
5070000000.000 -4.5752965377E-002 +4.7460747568E-002 
5080000000.000 +5.1207604815E-002 +1.2638560676E-001 
5090000000.000 +1.3214221964E-001 +4.8977443349E-002 
5100000000.000 +6.4551034609E-002 -3.3260711891E-002 
5110000000.000 -2.4160779435E-002 +2.5261060513E-002 
5120000000.000 +1.9737012024E-002 +1.1902984112E-001 
5130000000.000 +1.1164108667E-001 +9.0337747895E-002 
5140000000.000 +9.1013724378E-002 +1.9890853447E-003 
5150000000.000 +1.9482127998E-004 +1.9674827617E-002 
5160000000.000 +1.0742667370E-002 +1.1840550502E-001 
5170000000.000 +1.1500523114E-001 +1.2294056552E-001 
5180000000.000 +1.3811389251E-001 +1.8325779395E-002 
5190000000.000 +3.5071900093E-002 -2.2785234327E-002 
5200000000.000 -2.5610226964E-002 +7.6502561194E-002 
5210000000.000 +6.1145847476E-002 +1.5838023884E-001 
5220000000.000 +1.5783965717E-001 +9.4491710669E-002 
5230000000.000 +1.1701017382E-001 -4.8439722427E-003 
5240000000.000 +2.1593437626E-002 +2.3383536921E-002 
5250000000.000 +4.4276273100E-002 +1.1860853044E-001 
5260000000.000 +1.4365634520E-001 +1.0493490849E-001 
5270000000.000 +1.4342058627E-001 +3.5848185439E-003 
5280000000.000 +4.2095709697E-002 -5.7038828739E-003 
5290000000.000 +2.6536216748E-002 +1.0029074513E-001 
5300000000.000 +1.4076541687E-001 +1.3127829497E-001 
5310000000.000 +2.0158369240E-001 +1.7693697332E-002 
5320000000.000 +1.0474988555E-001 -7.4261779015E-002 
5330000000.000 -4.9583381141E-003 -1.3180104211E-003 
5340000000.000 +4.8705589356E-002 +1.1509564968E-001 
5350000000.000 +1.7199647440E-001 +7.9730177165E-002 
5360000000.000 +1.6420284894E-001 -5.1036213686E-002 
5370000000.000 +3.6587135413E-002 -7.7313934620E-002 
5380000000.000 -1.4217832608E-002 +3.4169352073E-002 
5390000000.000 +8.1005230400E-002 +9.2846610375E-002 
5400000000.000 +1.4329107079E-001 +3.9573338470E-003 
5410000000.000 +5.7606042397E-002 -7.1758266195E-002 
5420000000.000 -3.7825766970E-002 +1.2523020218E-003 
5430000000.000 +1.3919597637E-002 +1.0864825535E-001 
5440000000.000 +1.2263682758E-001 +7.4874255982E-002 
5450000000.000 +9.9776472370E-002 -3.5304550927E-002 
5460000000.000 -1.7088230012E-002 -2.6050450947E-002 
5470000000.000 -3.1232842749E-002 +9.2924872441E-002 
5480000000.000 +7.6911551874E-002 +1.3094508544E-001 
5490000000.000 +1.2674698726E-001 +3.9183899405E-002 
5500000000.000 +4.3358353586E-002 -1.3028431009E-002 
5510000000.000 -1.5096878612E-002 +6.9229814628E-002 
5520000000.000 +6.0962720486E-002 +1.4085646013E-001 
5530000000.000 +1.4324958588E-001 +7.8207217134E-002 
5540000000.000 +8.9688474494E-002 -9.4685267382E-003 
5550000000.000 -8.6263877737E-003 +4.3125805856E-002 
5560000000.000 +3.5435718725E-002 +1.6287796264E-001 
5570000000.000 +1.7497765479E-001 +1.4807690038E-001 
5580000000.000 +2.0077505152E-001 +4.5192672282E-003 
5590000000.000 +6.5447594004E-002 -5.6210969046E-002 
5600000000.000 -2.3664433765E-002 +6.8757988353E-002 
5610000000.000 +8.1654275789E-002 +1.8846008317E-001 
5620000000.000 +2.2751467711E-001 +1.2471157449E-001 
5630000000.000 +2.1753153142E-001 -2.3165680771E-002 
5640000000.000 +9.2946173899E-002 -4.9834158626E-002 
5650000000.000 +5.7909234938E-002 +4.9749457879E-002 
5660000000.000 +1.4568671528E-001 +8.4814762749E-002 
5670000000.000 +1.8951000986E-001 +7.5378417195E-003 
5680000000.000 +1.3274517070E-001 -4.0785517245E-002 
5690000000.000 +1.0121662755E-001 +1.2769013860E-003 
5700000000.000 +1.5647818724E-001 +1.0496707294E-002 
5710000000.000 +1.7117237102E-001 -7.5964061621E-002 
5720000000.000 +6.9697349510E-002 -1.2791335992E-001 
5730000000.000 -2.0719831839E-002 -4.0993320063E-002 
5740000000.000 +4.2889488105E-002 +6.7700883434E-002 
5750000000.000 +1.6209802512E-001 +1.9151571944E-002 
5760000000.000 +1.3421868868E-001 -1.1964112969E-001 
5770000000.000 -2.0393473658E-002 -1.3720047031E-001 
5780000000.000 -9.5481321423E-002 +3.6840480188E-003 
5790000000.000 +4.0337885866E-003 +1.1479654468E-001 
5800000000.000 +1.1786920102E-001 +5.5020464269E-002 
5810000000.000 +7.7943599613E-002 -5.0020851872E-002 
5820000000.000 -2.7026694621E-002 -2.3056135614E-002 
5830000000.000 -2.3254408237E-002 +8.3060176865E-002 
5840000000.000 +6.8388854593E-002 +1.0456367467E-001 
5850000000.000 +9.6672907610E-002 +3.7555718855E-002 
5860000000.000 +4.2661495483E-002 +2.1413480473E-002 
5870000000.000 +3.5794344018E-002 +8.0909135588E-002 
5880000000.000 +1.0382582126E-001 +9.3885730720E-002 
5890000000.000 +1.2731819220E-001 +2.6669482138E-002 
5900000000.000 +6.1851742254E-002 +1.9366974071E-004 
5910000000.000 +3.2135048421E-002 +7.3123963121E-002 
5920000000.000 +1.1277962553E-001 +1.1962487427E-001 
5930000000.000 +1.8399028569E-001 +4.5673607353E-002 
5940000000.000 +1.2727568437E-001 -4.2060392634E-002 
5950000000.000 +3.1585960485E-002 +3.2008326656E-003 
5960000000.000 +6.9905704907E-002 +1.1240036406E-001 
5970000000.000 +1.9873524134E-001 +9.5462309328E-002 
5980000000.000 +2.2271326112E-001 -4.0416937833E-002 
5990000000.000 +1.0142704734E-001 -1.0368734761E-001 
6000000000.000 +1.6918893890E-002 -3.0481309904E-003 
6010000000.000 +1.0397752309E-001 +9.5691500181E-002 
6020000000.000 +2.2463842215E-001 +2.8706008848E-002 
6030000000.000 +2.0050077167E-001 -1.0834583544E-001 
6040000000.000 +7.6075630491E-002 -1.3347217733E-001 
6050000000.000 +2.8973813322E-002 -4.3448455887E-002 
6060000000.000 +9.6293293932E-002 -5.0267372672E-003 
6070000000.000 +1.2726010740E-001 -7.3568450293E-002 
6080000000.000 +5.7795711215E-002 -1.1660444559E-001 
6090000000.000 +4.1776437562E-003 -6.3505878273E-002 
6100000000.000 +4.4440802577E-002 -2.1626550342E-002 
6110000000.000 +7.2426009058E-002 -7.8029896036E-002 
6120000000.000 -1.0983404783E-002 -1.2512656350E-001 
6130000000.000 -1.0522858914E-001 -4.6492916917E-002 
6140000000.000 -7.0295990356E-002 +7.9429898928E-002 
6150000000.000 +5.0589113852E-002 +8.8551812636E-002 
6160000000.000 +7.6037491958E-002 -1.7207370579E-002 
6170000000.000 -3.1199929589E-002 -5.2111106320E-002 
6180000000.000 -9.9571472514E-002 +5.5276212743E-002 
6190000000.000 -2.7688435721E-002 +1.6640266593E-001 
6200000000.000 +9.1322481106E-002 +1.5675872075E-001 
6210000000.000 +1.2247608068E-001 +7.3967686003E-002 
6220000000.000 +7.8502828834E-002 +4.7376786142E-002 
6230000000.000 +7.1497913629E-002 +8.2959750834E-002 
6240000000.000 +1.1277774909E-001 +9.0608618335E-002 
6250000000.000 +1.2985943498E-001 +6.1502172063E-002 
6260000000.000 +1.2240409377E-001 +5.9176560033E-002 
6270000000.000 +1.5497020288E-001 +7.2029441131E-002 
6280000000.000 +2.0638375045E-001 +2.5279806940E-002 
6290000000.000 +1.8430427872E-001 -6.0943158431E-002 
6300000000.000 +9.4173144236E-002 -7.3287084872E-002 
6310000000.000 +6.7727593339E-002 +7.5343801952E-003 
6320000000.000 +1.5243912008E-001 +3.9092757764E-002 
6330000000.000 +2.0822408687E-001 -5.3882878625E-002 
6340000000.000 +1.3039412522E-001 -1.4828364039E-001 
6350000000.000 +1.3117687392E-002 -1.0866453616E-001 
6360000000.000 +1.9742111132E-002 +6.4799861856E-003 
6370000000.000 +1.2841634134E-001 +1.5388567105E-002 
6380000000.000 +1.5344301538E-001 -9.4838294892E-002 
6390000000.000 +4.8082282546E-002 -1.4963446133E-001 
6400000000.000 -3.4506105933E-002 -6.7675653320E-002 
6410000000.000 +1.9529217391E-002 +2.3570059717E-002 
6420000000.000 +1.0927910619E-001 -1.5858179102E-002 
6430000000.000 +7.9206204827E-002 -1.1130438783E-001 
6440000000.000 -2.4023330173E-002 -1.0360184974E-001 
6450000000.000 -4.6448204406E-002 -8.7910618583E-003 
6460000000.000 +2.5754765084E-002 +2.8684729954E-002 
6470000000.000 +5.8922521271E-002 -2.9135528738E-002 
6480000000.000 +1.9778176207E-004 -5.9778381517E-002 
6490000000.000 -4.1160707853E-002 -3.0805719637E-003 
6500000000.000 -9.3149117470E-004 +4.5390627438E-002 
6510000000.000 +3.5846662322E-002 +1.7901465880E-002 
6520000000.000 -2.9193129438E-003 -4.2928210884E-003 
6530000000.000 -3.4886973966E-002 +5.6369597189E-002 
6540000000.000 +2.6655129688E-002 +1.1885609423E-001 
6550000000.000 +1.0902240358E-001 +8.1877987203E-002 
6560000000.000 +9.2311164324E-002 +3.4087913682E-003 
6570000000.000 +1.7903175404E-002 +2.2482450230E-002 
6580000000.000 +3.9576757958E-002 +1.1494214215E-001 
6590000000.000 +1.5624057983E-001 +1.2003069619E-001 
6600000000.000 +2.0770871324E-001 +5.5465373457E-003 
6610000000.000 +1.2152891225E-001 -7.5310694299E-002 
6620000000.000 +3.9051085930E-002 -1.1505781359E-002 
6630000000.000 +1.0070995087E-001 +7.3205286071E-002 
6640000000.000 +2.0846957660E-001 +1.9348753602E-002 
6650000000.000 +1.9135748338E-001 -1.1059634082E-001 
6660000000.000 +7.0721400760E-002 -1.3972821045E-001 
6670000000.000 +2.2912071920E-002 -5.0404011167E-002 
6680000000.000 +9.5706837465E-002 -1.1701093704E-002 
6690000000.000 +1.3299419805E-001 -9.2179577369E-002 
6700000000.000 +5.0324270584E-002 -1.5251329815E-001 
6710000000.000 -3.1783833447E-002 -9.3497678554E-002 
6720000000.000 -3.5241970163E-004 -1.6185100213E-002 
6730000000.000 +6.0258478379E-002 -4.5933793869E-002 
6740000000.000 +1.5253992231E-002 -1.1036046972E-001 
6750000000.000 -7.5594148523E-002 -6.6902078078E-002 
6760000000.000 -6.0356941452E-002 +4.4490046102E-002 
6770000000.000 +5.0745581921E-002 +6.0915224245E-002 
6780000000.000 +8.4589136160E-002 -4.4012063669E-002 
6790000000.000 -2.1116229881E-002 -9.2814341439E-002 
6800000000.000 -9.8852465965E-002 +8.0718958387E-003 
6810000000.000 -2.5873072422E-002 +1.1974691348E-001 
6820000000.000 +1.0218295285E-001 +9.1115741684E-002 
6830000000.000 +1.1166180100E-001 -3.0331806491E-002 
6840000000.000 +7.2051923356E-003 -6.1811210491E-002 
6850000000.000 -3.8677127127E-002 +2.3791524340E-002 
6860000000.000 +2.3697010354E-002 +8.0806664901E-002 
6870000000.000 +8.0675858391E-002 +4.4339929397E-002 
6880000000.000 +6.1305121972E-002 +2.0630097254E-003 
6890000000.000 +3.6898586941E-002 +2.0477753179E-002 
6900000000.000 +6.3716697312E-002 +3.5337192121E-002 
6910000000.000 +7.6136354250E-002 -8.8449535924E-004 
6920000000.000 +2.7395771696E-002 -1.4056888736E-002 
6930000000.000 +3.5338633598E-003 +5.2123891391E-002 
6940000000.000 +7.9125056277E-002 +1.0408032323E-001 
6950000000.000 +1.6596355804E-001 +4.2498785860E-002 
6960000000.000 +1.3693227657E-001 -6.4416115680E-002 
6970000000.000 +2.9801393011E-002 -6.5092027740E-002 
6980000000.000 +1.1213082330E-002 +3.7629907502E-002 
6990000000.000 +1.1391904540E-001 +7.6162935999E-002 
7000000000.000 +1.8333098226E-001 -1.7768718838E-002 
7010000000.000 +1.1939911023E-001 -1.1237758171E-001 
7020000000.000 +2.5872730159E-002 -8.5100475605E-002 
7030000000.000 +3.6007306518E-002 -1.1160235477E-002 
7040000000.000 +1.0013333184E-001 -2.4754145829E-002 
7050000000.000 +8.7220004862E-002 -9.7127123370E-002 
7060000000.000 +1.0024320743E-002 -1.0182020189E-001 
7070000000.000 -1.0590135726E-002 -3.8862841678E-002 
7080000000.000 +3.5662320848E-002 -2.3348707226E-002 
7090000000.000 +3.6873526457E-002 -7.4904985848E-002 
7100000000.000 -3.5838410102E-002 -8.0348979452E-002 
7110000000.000 -6.7454085535E-002 +9.2046616224E-004 
7120000000.000 -6.2270531481E-004 +5.6008898557E-002 
7130000000.000 +5.9463111156E-002 +6.1736632635E-003 
7140000000.000 +1.1345313921E-002 -5.3986046681E-002 
7150000000.000 -6.2336271793E-002 -3.7199629304E-003 
7160000000.000 -2.7262929731E-002 +9.0840708019E-002 
7170000000.000 +7.5184441599E-002 +8.6003812199E-002 
7180000000.000 +9.3545215089E-002 -7.2458984560E-003 
7190000000.000 +9.9538088748E-003 -3.2142987342E-002 
7200000000.000 -1.9299747961E-002 +5.1615487991E-002 
7210000000.000 +6.4916182603E-002 +9.7183952383E-002 
7220000000.000 +1.3210446735E-001 +2.4229359111E-002 
7230000000.000 +7.7307601931E-002 -5.4292130166E-002 
7240000000.000 -1.6943143847E-003 -1.2070451612E-002 
7250000000.000 +3.3953001126E-002 +6.8961593747E-002 
7260000000.000 +1.2422168235E-001 +4.4279488717E-002 
7270000000.000 +1.1843286555E-001 -5.4659880699E-002 
7280000000.000 +1.7625932757E-002 -6.8236397082E-002 
7290000000.000 -1.1495485979E-002 +3.0575109531E-002 
7300000000.000 +8.4069069398E-002 +7.7966004793E-002 
7310000000.000 +1.5598383131E-001 -8.4365077680E-003 
7320000000.000 +8.9051725081E-002 -1.0299779148E-001 
7330000000.000 -1.7587975268E-002 -5.9702521892E-002 
7340000000.000 +4.2352925460E-003 +5.1507588598E-002 
7350000000.000 +1.1898264224E-001 +5.2923175390E-002 
7360000000.000 +1.5148679206E-001 -5.9309215411E-002 
7370000000.000 +5.8608625775E-002 -1.2206747348E-001 
7380000000.000 -1.6801340754E-002 -6.0931809952E-002 
7390000000.000 +1.8742890640E-002 +7.2317867749E-003 
7400000000.000 +7.6390761254E-002 -1.8667356869E-002 
7410000000.000 +5.4993715552E-002 -7.3822584800E-002 
7420000000.000 +2.8147349724E-003 -6.2656802731E-002 
7430000000.000 +6.6201319662E-003 -2.4060280004E-002 
7440000000.000 +3.1339923628E-002 -3.7756515542E-002 
7450000000.000 -2.3967443777E-003 -6.7879234716E-002 
7460000000.000 -5.6926525256E-002 -2.8184640978E-002 
7470000000.000 -3.5259997886E-002 +4.6655273393E-002 
7480000000.000 +4.0614777456E-002 +4.9190643570E-002 
7490000000.000 +5.4587529957E-002 -2.0113757757E-002 
7500000000.000 -1.8055773798E-002 -3.8592845178E-002 
7510000000.000 -5.2988825160E-002 +4.1918142763E-002 
7520000000.000 +1.8500621301E-002 +1.0530051915E-001 
7530000000.000 +1.0017032627E-001 +6.3827288657E-002 
7540000000.000 +8.7474664118E-002 -1.2282197774E-002 
7550000000.000 +2.6187735580E-002 -7.6578200604E-003 
7560000000.000 +3.4298684856E-002 +5.0632069966E-002 
7570000000.000 +9.9576215752E-002 +4.9264726612E-002 
7580000000.000 +1.1588925731E-001 -1.3948012071E-002 
7590000000.000 +6.8273791462E-002 -3.8162863924E-002 
7600000000.000 +5.4453459120E-002 -3.2132878305E-004 
7610000000.000 +1.0281474192E-001 +3.4793808374E-003 
7620000000.000 +1.1725900684E-001 -6.2206829079E-002 
7630000000.000 +4.9158437314E-002 -1.0011465390E-001 
7640000000.000 -2.8268407072E-003 -4.4259939320E-002 
7650000000.000 +4.5165300871E-002 +9.5476410953E-003 
7660000000.000 +1.0709220059E-001 -4.0730397071E-002 
7670000000.000 +6.0989388050E-002 -1.2612239667E-001 
7680000000.000 -4.6940690485E-002 -1.0357791639E-001 
7690000000.000 -5.7499896271E-002 +8.6287815177E-003 
7700000000.000 +4.4718731016E-002 +4.5933836544E-002 
7710000000.000 +1.0254067269E-001 -4.6022763961E-002 
7720000000.000 +2.1862011145E-002 -1.2772436568E-001 
7730000000.000 -8.3816146284E-002 -7.1449032057E-002 
7740000000.000 -6.5325574235E-002 +4.3498826364E-002 
7750000000.000 +3.9410051667E-002 +6.0733289683E-002 
7760000000.000 +7.9370496699E-002 -2.4858918004E-002 
7770000000.000 +1.3049993407E-002 -7.7891382262E-002 
7780000000.000 -4.6927762109E-002 -3.3929203537E-002 
7790000000.000 -2.8796772792E-002 +2.1254539928E-002 
7800000000.000 +6.6136242190E-003 +1.9674758873E-002 
7810000000.000 +1.0797181103E-003 +6.6239667346E-003 
7820000000.000 -3.7484540911E-003 +2.9199246529E-002 
7830000000.000 +3.2109668648E-002 +4.0865439315E-002 
7840000000.000 +5.3812885124E-002 +1.0923031582E-005 
7850000000.000 +7.4786870311E-003 -3.1213981514E-002 
7860000000.000 -4.1352767802E-002 +2.1009221219E-002 
7870000000.000 +1.5582239446E-003 +9.6988016143E-002 
7880000000.000 +9.6715666217E-002 +8.6975225488E-002 
7890000000.000 +1.2700717333E-001 -2.6496201305E-003 
7900000000.000 +6.0610206966E-002 -5.6474221444E-002 
7910000000.000 +2.8425764483E-003 -1.0031698420E-002 
7920000000.000 +3.8344976540E-002 +4.9492809477E-002 
7930000000.000 +1.0453027220E-001 +2.9679779639E-002 
7940000000.000 +1.1062709970E-001 -3.4049127306E-002 
7950000000.000 +6.8949167391E-002 -5.7763701714E-002 
7960000000.000 +5.2838901060E-002 -4.1435942015E-002 
7970000000.000 +6.5218592449E-002 -4.7235832720E-002 
7980000000.000 +4.9934824205E-002 -7.5613471519E-002 
7990000000.000 +9.5309396246E-003 -7.0242096340E-002 
8000000000.000 +5.0143368649E-003 -3.3170596403E-002 
8010000000.000 +3.8692397945E-002 -3.1779919899E-002 
8020000000.000 +3.7394775148E-002 -7.6656986535E-002 
8030000000.000 -2.2235802027E-002 -9.0709230511E-002 
8040000000.000 -6.2555420148E-002 -3.4393703162E-002 
8050000000.000 -2.8067299777E-002 +2.0604427554E-002 
8060000000.000 +2.2494185234E-002 +5.7285583609E-003 
8070000000.000 +1.1568675782E-002 -3.6588983226E-002 
8080000000.000 -3.2888455825E-002 -2.3242289742E-002 
8090000000.000 -2.5297477235E-002 +2.9624500677E-002 
8100000000.000 +3.0002589475E-002 +3.5744636613E-002 
8110000000.000 +4.7375137919E-002 -1.4513213139E-002 
8120000000.000 +1.1358614875E-003 -3.6826351247E-002 
8130000000.000 -2.7354681979E-002 +1.0313616728E-002 
8140000000.000 +1.8377331869E-002 +5.2387827530E-002 
8150000000.000 +7.6794159776E-002 +1.9301018078E-002 
8160000000.000 +6.6412009275E-002 -4.7061172929E-002 
8170000000.000 +6.3109988014E-003 -5.8608310460E-002 
8180000000.000 -1.7196886868E-002 -1.3412077342E-002 
8190000000.000 +1.4071786591E-002 +1.2198588305E-002 
8200000000.000 +3.8547615481E-002 -9.5529700774E-003 
8210000000.000 +2.4757860681E-002 -3.2307265902E-002 
8220000000.000 +7.6465986856E-003 -2.6640809225E-002 
8230000000.000 +1.0271195654E-002 -2.1093277147E-002 
8240000000.000 +4.3489409887E-003 -3.1176859265E-002 
8250000000.000 -2.1191122836E-002 -2.2693113006E-002 
8260000000.000 -2.2517962994E-002 +1.7037778654E-002 
8270000000.000 +2.2152132043E-002 +3.5766341369E-002 
8280000000.000 +5.8380518857E-002 -3.5246390565E-003 
8290000000.000 +3.1272936371E-002 -5.2184855516E-002 
8300000000.000 -2.3489248596E-002 -3.9168832609E-002 
8310000000.000 -2.4052956156E-002 +1.7324874234E-002 
8320000000.000 +3.0886689454E-002 +3.2207828443E-002 
8330000000.000 +6.1613895945E-002 -1.5793872049E-002 
8340000000.000 +2.8871445892E-002 -5.8820848354E-002 
8350000000.000 -1.4992248680E-002 -4.5717854670E-002 
8360000000.000 -1.5062087346E-002 -1.2752673408E-002 
8370000000.000 +5.7660063761E-003 -1.1737062401E-002 
8380000000.000 +2.4876689694E-003 -2.8143544405E-002 
8390000000.000 -1.3774484634E-002 -2.4239817945E-002 
8400000000.000 -1.0397485607E-002 -1.2168475565E-002 
8410000000.000 -3.4863450336E-003 -2.2735759518E-002 
8420000000.000 -2.7356414119E-002 -3.5021918815E-002 
8430000000.000 -5.8164838775E-002 -5.8822085599E-003 
8440000000.000 -4.0738601978E-002 +4.2983598508E-002 
8450000000.000 +1.3007799833E-002 +4.5737979268E-002 
8460000000.000 +3.0384794731E-002 -2.3357784682E-003 
8470000000.000 -1.3095076054E-002 -2.6632229843E-002 
8480000000.000 -4.5645882215E-002 +1.6456703858E-002 
8490000000.000 -7.2275751600E-003 +6.3960215322E-002 
8500000000.000 +5.4775502603E-002 +4.2238837833E-002 
8510000000.000 +5.8041585969E-002 -2.2859644606E-002 
8520000000.000 +3.6136932980E-003 -4.7248610555E-002 
8530000000.000 -2.9855618636E-002 -9.5968603831E-003 
8540000000.000 -5.7577658900E-003 +2.3811779784E-002 
8550000000.000 +2.6552468954E-002 +8.8354369217E-003 
8560000000.000 +2.2158158991E-002 -2.3179633902E-002 
8570000000.000 -2.7361789379E-003 -3.2354807354E-002 
8580000000.000 -1.9277127941E-002 -2.6050891107E-002 
8590000000.000 -3.4037525121E-002 -1.9516653629E-002 
8600000000.000 -5.1683162536E-002 +2.5752639709E-003 
8610000000.000 -4.1884891388E-002 +4.1751497057E-002 
8620000000.000 +4.5542874924E-003 +5.2879925513E-002 
8630000000.000 +3.3128675487E-002 +9.4713035187E-003 
8640000000.000 -6.1338153480E-003 -3.3742883268E-002 
8650000000.000 -6.8505039440E-002 -1.8139809109E-003 
8660000000.000 -5.8121799510E-002 +7.9956566116E-002 
