!  1-Port S-parameters saved by WinCal
! VAR NAME=2-Port SOLT labuser 7
! VAR Error Term Name=ELdm phys rcv port 1 phys src port 2
!
# Hz S RI R 50
5000000000.000 -1.6243081057E-002 +9.9340953224E-002 
5010000000.000 +8.7461133044E-002 +1.3374033401E-001 
5020000000.000 +1.5841656353E-001 +3.7257427976E-002 
5030000000.000 +8.8949912771E-002 -6.9256545121E-002 
5040000000.000 -3.7450972856E-002 -3.9410687130E-002 
5050000000.000 -4.7035922145E-002 +8.5259735187E-002 
5060000000.000 +6.7144859083E-002 +1.2666088913E-001 
5070000000.000 +1.3613147269E-001 +2.8801330879E-002 
5080000000.000 +6.2041616291E-002 -6.5093458278E-002 
5090000000.000 -4.7632840497E-002 -2.2796400736E-002 
5100000000.000 -3.6565395653E-002 +8.9059897677E-002 
5110000000.000 +7.1461971590E-002 +1.0084959711E-001 
5120000000.000 +1.0518615400E-001 -4.2815883995E-003 
5130000000.000 +4.7620547294E-003 -6.8097341056E-002 
5140000000.000 -9.3152893353E-002 +1.2885809762E-002 
5150000000.000 -5.0825723358E-002 +1.3255422530E-001 
5160000000.000 +7.1378657105E-002 +1.3173625445E-001 
5170000000.000 +1.0521517129E-001 +2.1169027543E-002 
5180000000.000 +7.0745828741E-003 -4.0025525771E-002 
5190000000.000 -7.8021122049E-002 +3.7915971616E-002 
5200000000.000 -3.3527068918E-002 +1.4070100097E-001 
5210000000.000 +7.0862930623E-002 +1.3419154919E-001 
5220000000.000 +8.9600334960E-002 +4.3049447643E-002 
5230000000.000 +9.2010544468E-003 +1.3178001751E-002 
5240000000.000 -3.1625013427E-002 +9.1319012099E-002 
5250000000.000 +4.1758727002E-002 +1.5343833760E-001 
5260000000.000 +1.3038452709E-001 +1.0068564771E-001 
5270000000.000 +1.0752623170E-001 -2.8782154087E-003 
5280000000.000 +9.9430594465E-004 -1.3478810332E-002 
5290000000.000 -3.7602705014E-002 +8.5231069020E-002 
5300000000.000 +4.3365429539E-002 +1.5368134171E-001 
5310000000.000 +1.3001006108E-001 +1.0700670457E-001 
5320000000.000 +1.2069374940E-001 +2.0696482206E-002 
5330000000.000 +5.2114801323E-002 +9.2571012595E-003 
5340000000.000 +4.0979239516E-002 +5.9812836021E-002 
5350000000.000 +9.0074113535E-002 +6.4090201317E-002 
5360000000.000 +9.7163425936E-002 +3.3845481544E-003 
5370000000.000 +2.6457128017E-002 -1.6121840684E-002 
5380000000.000 -1.5617659286E-002 +5.9135033920E-002 
5390000000.000 +5.9266017194E-002 +1.2935732872E-001 
5400000000.000 +1.6622864329E-001 +7.3179664918E-002 
5410000000.000 +1.5556244453E-001 -6.5922978071E-002 
5420000000.000 +1.2763256409E-002 -1.2175974258E-001 
5430000000.000 -1.0476968728E-001 -1.4374047006E-002 
5440000000.000 -5.9159093027E-002 +1.3193819455E-001 
5450000000.000 +8.3095931625E-002 +1.4776819953E-001 
5460000000.000 +1.4324494797E-001 +3.3200014710E-002 
5470000000.000 +6.1960622797E-002 -5.4858152371E-002 
5480000000.000 -3.6141432140E-002 -1.1596964150E-002 
5490000000.000 -2.6449511580E-002 +7.7374157603E-002 
5500000000.000 +4.0550484885E-002 +8.5562129065E-002 
5510000000.000 +4.4972937004E-002 +3.4957447925E-002 
5520000000.000 -1.2688373059E-002 +4.3066975268E-002 
5530000000.000 -1.1498127840E-002 +1.2231676917E-001 
5540000000.000 +8.2779691159E-002 +1.5257673262E-001 
5550000000.000 +1.5390824169E-001 +6.6852758827E-002 
5560000000.000 +9.3877783137E-002 -3.7898622563E-002 
5570000000.000 -3.3013838068E-002 -1.3583846662E-002 
5580000000.000 -5.6927734242E-002 +1.2146807214E-001 
5590000000.000 +6.2091505456E-002 +1.9971006826E-001 
5600000000.000 +1.8404027129E-001 +1.3116821374E-001 
5610000000.000 +1.7662153960E-001 +5.2437642612E-004 
5620000000.000 +6.7086993219E-002 -3.7067500147E-002 
5630000000.000 +1.1644657070E-002 +4.4076220675E-002 
5640000000.000 +7.3001366912E-002 +1.0703594283E-001 
5650000000.000 +1.4391009405E-001 +6.4979741538E-002 
5660000000.000 +1.2541614916E-001 -8.0110056194E-003 
5670000000.000 +6.1130595088E-002 -5.0406591691E-003 
5680000000.000 +6.3072290594E-002 +5.3021048955E-002 
5690000000.000 +1.2984757336E-001 +5.1265679798E-002 
5700000000.000 +1.4865098605E-001 -2.7823719652E-002 
5710000000.000 +7.4137665358E-002 -8.2108187879E-002 
5720000000.000 -4.3596906235E-003 -3.3706936485E-002 
5730000000.000 +1.6715536301E-002 +4.9218873770E-002 
5740000000.000 +9.6576478828E-002 +4.4417692568E-002 
5750000000.000 +1.0777764640E-001 -3.7848554958E-002 
5760000000.000 +2.6053845466E-002 -7.4402912353E-002 
5770000000.000 -3.9221307794E-002 -9.7181701733E-003 
5780000000.000 +2.7535069277E-003 +6.7358880833E-002 
5790000000.000 +8.0640701717E-002 +4.3420801970E-002 
5800000000.000 +6.7040993562E-002 -4.2047494506E-002 
5810000000.000 -3.3346196559E-002 -5.1150651235E-002 
5820000000.000 -8.3562824990E-002 +4.9685486684E-002 
5830000000.000 -9.6153286120E-003 +1.3947807273E-001 
5840000000.000 +9.6988117338E-002 +1.0613851114E-001 
5850000000.000 +9.7056875249E-002 -5.1516626799E-004 
5860000000.000 -5.8363759997E-003 -2.7227520818E-002 
5870000000.000 -6.6556309001E-002 +6.7619786052E-002 
5880000000.000 -1.6811541205E-003 +1.6227984259E-001 
5890000000.000 +1.0454165804E-001 +1.4679257118E-001 
5900000000.000 +1.2748386062E-001 +5.8786517219E-002 
5910000000.000 +6.3753483030E-002 +2.3751374341E-002 
5920000000.000 +2.9551044910E-002 +7.8439678931E-002 
5930000000.000 +8.0732456626E-002 +1.2297948712E-001 
5940000000.000 +1.4161562116E-001 +8.8981130963E-002 
5950000000.000 +1.3197539840E-001 +2.7391388365E-002 
5960000000.000 +8.1334192223E-002 +2.7247943540E-002 
5970000000.000 +8.6546146384E-002 +7.6670309714E-002 
5980000000.000 +1.5174989223E-001 +7.9108108196E-002 
5990000000.000 +1.8252450278E-001 +5.2959114662E-003 
6000000000.000 +1.2663441738E-001 -5.7016872323E-002 
6010000000.000 +5.3058010056E-002 -2.8312986035E-002 
6020000000.000 +6.5110155799E-002 +4.5467560676E-002 
6030000000.000 +1.4554807233E-001 +4.8075700122E-002 
6040000000.000 +1.7856577685E-001 -3.9410230880E-002 
6050000000.000 +1.0902391054E-001 -1.1349335618E-001 
6060000000.000 +1.5827312237E-002 -8.7981999372E-002 
6070000000.000 +1.4035654678E-003 -5.1859444346E-003 
6080000000.000 +6.1481892523E-002 +2.4393185009E-002 
6090000000.000 +9.4696241803E-002 -2.2697262328E-002 
6100000000.000 +5.6538689625E-002 -6.5514096266E-002 
6110000000.000 +6.3271601548E-003 -4.5951973886E-002 
6120000000.000 +5.9335629861E-003 -5.3793760428E-003 
6130000000.000 +2.8827935397E-002 -5.2911195223E-003 
6140000000.000 +1.1485002512E-002 -2.7114406436E-002 
6150000000.000 -3.2952793235E-002 -5.0160287481E-003 
6160000000.000 -3.3002997165E-002 +6.0701326539E-002 
6170000000.000 +2.8289132189E-002 +9.2133700707E-002 
6180000000.000 +7.5231137722E-002 +4.9545873358E-002 
6190000000.000 +4.4814985998E-002 -2.7183030882E-003 
6200000000.000 -1.9881604545E-002 +2.2754874548E-002 
6210000000.000 -1.6057957294E-002 +1.0362179323E-001 
6220000000.000 +6.4539940232E-002 +1.3951110652E-001 
6230000000.000 +1.2854277466E-001 +8.6875803792E-002 
6240000000.000 +1.0599964094E-001 +2.1742785078E-002 
6250000000.000 +4.9691116119E-002 +3.3120158104E-002 
6260000000.000 +5.9601155184E-002 +9.5112757997E-002 
6270000000.000 +1.3373893952E-001 +1.0468825371E-001 
6280000000.000 +1.7854301768E-001 +3.6424635921E-002 
6290000000.000 +1.3824124800E-001 -2.9718740618E-002 
6300000000.000 +7.3421323296E-002 -1.3435597830E-002 
6310000000.000 +7.9437563215E-002 +4.7006638335E-002 
6320000000.000 +1.4579681499E-001 +5.3421762004E-002 
6330000000.000 +1.8134322003E-001 -1.1205815977E-002 
6340000000.000 +1.4364526274E-001 -7.0465284473E-002 
6350000000.000 +8.9773323505E-002 -6.6258569439E-002 
6360000000.000 +8.6110358960E-002 -3.6225085136E-002 
6370000000.000 +1.0962453975E-001 -4.8297297038E-002 
6380000000.000 +9.2723684823E-002 -8.9210743060E-002 
6390000000.000 +3.5976353484E-002 -9.0433805701E-002 
6400000000.000 +1.3690252416E-002 -3.8071763394E-002 
6410000000.000 +5.7472864597E-002 -9.2708045720E-003 
6420000000.000 +9.3812220567E-002 -5.7765131841E-002 
6430000000.000 +4.7479681471E-002 -1.2086053631E-001 
6440000000.000 -4.5248904595E-002 -1.0499904178E-001 
6450000000.000 -7.9956371468E-002 -1.3766415602E-002 
6460000000.000 -2.3348461308E-002 +5.2663706727E-002 
6470000000.000 +4.3599490342E-002 +2.9353455601E-002 
6480000000.000 +3.1911113818E-002 -2.8530324228E-002 
6490000000.000 -2.8985601161E-002 -2.4055395259E-002 
6500000000.000 -4.4707810171E-002 +3.8540418195E-002 
6510000000.000 +1.4794788290E-003 +7.5472970081E-002 
6520000000.000 +3.6134415485E-002 +5.2937797076E-002 
6530000000.000 +1.4884406109E-002 +3.3242473720E-002 
6540000000.000 -7.2953585354E-003 +7.2493260212E-002 
6550000000.000 +3.7400202574E-002 +1.2425946028E-001 
6560000000.000 +1.1661178412E-001 +1.0568885277E-001 
6570000000.000 +1.3343018046E-001 +2.6087416099E-002 
6580000000.000 +6.5806318088E-002 -1.0351694008E-002 
6590000000.000 +1.9419157505E-002 +5.3245878992E-002 
6600000000.000 +7.8699464186E-002 +1.2437933265E-001 
6610000000.000 +1.8137275361E-001 +9.2591332694E-002 
6620000000.000 +2.0178795297E-001 -1.7656867334E-002 
6630000000.000 +1.1517465185E-001 -8.0795736052E-002 
6640000000.000 +3.6283000231E-002 -2.5226999948E-002 
6650000000.000 +7.3795696226E-002 +5.7626605146E-002 
6660000000.000 +1.6699695371E-001 +4.0118603819E-002 
6670000000.000 +1.8707353474E-001 -5.8165489600E-002 
6680000000.000 +1.0979101519E-001 -1.1543369704E-001 
6690000000.000 +4.0288404719E-002 -7.3498231559E-002 
6700000000.000 +6.2721103615E-002 -1.5348939341E-002 
6710000000.000 +1.1756160505E-001 -4.0000518250E-002 
6720000000.000 +9.6873513314E-002 -1.0835386280E-001 
6730000000.000 +1.5898895771E-002 -1.1162785471E-001 
6740000000.000 -1.3081700064E-002 -3.8483265341E-002 
6750000000.000 +5.0315366618E-002 +1.1669720761E-003 
6760000000.000 +9.9067602456E-002 -6.4441908808E-002 
6770000000.000 +3.2809694663E-002 -1.4372099753E-001 
6780000000.000 -8.5458164713E-002 -1.0767797135E-001 
6790000000.000 -1.1094705572E-001 +2.5330912168E-002 
6800000000.000 -3.3715040930E-003 +1.0769631486E-001 
6810000000.000 +1.1035983464E-001 +4.4974515870E-002 
6820000000.000 +8.8479175156E-002 -7.9115628890E-002 
6830000000.000 -3.8325899993E-002 -9.8611666267E-002 
6840000000.000 -1.0566242878E-001 +1.0011369878E-002 
6850000000.000 -4.3469968118E-002 +1.1619896004E-001 
6860000000.000 +6.2897075440E-002 +1.1523123916E-001 
6870000000.000 +9.9858203120E-002 +4.1282270319E-002 
6880000000.000 +6.1674441786E-002 +2.9628097809E-003 
6890000000.000 +3.7141705978E-002 +2.6835824454E-002 
6900000000.000 +6.0113000584E-002 +4.3291101774E-002 
6910000000.000 +7.3250309060E-002 +2.2867361793E-002 
6920000000.000 +4.8771031562E-002 +1.8034607422E-002 
6930000000.000 +4.8094910000E-002 +6.2037927292E-002 
6940000000.000 +1.1438514033E-001 +8.7601810100E-002 
6950000000.000 +1.8281571673E-001 +2.6527442239E-002 
6960000000.000 +1.6202601606E-001 -7.4313736038E-002 
6970000000.000 +6.1475430100E-002 -9.9966423426E-002 
6980000000.000 +6.5700933992E-003 -1.7614141538E-002 
6990000000.000 +7.3496926370E-002 +5.4837113243E-002 
7000000000.000 +1.6841211658E-001 +9.5907514147E-003 
7010000000.000 +1.6250445089E-001 -1.0465430595E-001 
7020000000.000 +5.7611366528E-002 -1.4804979108E-001 
7030000000.000 -1.6458626703E-002 -7.7855561899E-002 
7040000000.000 +2.0612104242E-002 -2.2056788224E-003 
7050000000.000 +9.1285918720E-002 -2.5752644099E-002 
7060000000.000 +7.8050226611E-002 -1.0115471668E-001 
7070000000.000 -1.9431810900E-003 -1.1004137587E-001 
7080000000.000 -3.4116781748E-002 -4.2416362735E-002 
7090000000.000 +1.3661660194E-002 -6.0369265195E-003 
7100000000.000 +4.3817511466E-002 -4.9402176216E-002 
7110000000.000 -1.1853014131E-002 -8.7005891710E-002 
7120000000.000 -7.6410847412E-002 -3.0316115468E-002 
7130000000.000 -4.3525055334E-002 +6.1278724913E-002 
7140000000.000 +5.6968231324E-002 +6.0335576869E-002 
7150000000.000 +8.2366123466E-002 -4.0577811525E-002 
7160000000.000 -2.2821301432E-002 -9.3040199481E-002 
7170000000.000 -1.1795257410E-001 +4.6031121290E-003 
7180000000.000 -6.2027045683E-002 +1.4522010543E-001 
7190000000.000 +9.2606612766E-002 +1.6134018304E-001 
7200000000.000 +1.7881719239E-001 +3.2209248710E-002 
7210000000.000 +9.5755061920E-002 -9.2057951408E-002 
7220000000.000 -4.1852308083E-002 -5.3726881396E-002 
7230000000.000 -4.8823660444E-002 +8.4841913887E-002 
7240000000.000 +7.2713259314E-002 +1.4142535569E-001 
7250000000.000 +1.6985042493E-001 +6.3237126095E-002 
7260000000.000 +1.4472120665E-001 -4.0078301677E-002 
7270000000.000 +6.5757588557E-002 -4.7304347189E-002 
7280000000.000 +5.6466123885E-002 +8.4270378052E-003 
7290000000.000 +1.0767392101E-001 +1.1160846194E-002 
7300000000.000 +1.1558556106E-001 -4.4324115573E-002 
7310000000.000 +6.0543828050E-002 -6.2555990692E-002 
7320000000.000 +3.9284554088E-002 -8.3570337354E-003 
7330000000.000 +1.0367720864E-001 +1.9460706890E-002 
7340000000.000 +1.5941815197E-001 -5.3999041055E-002 
7350000000.000 +1.0413619197E-001 -1.5148236410E-001 
7360000000.000 -1.9094084133E-002 -1.4280963273E-001 
7370000000.000 -6.1476758235E-002 -2.6726790406E-002 
7380000000.000 +2.9201180330E-002 +5.0424739481E-002 
7390000000.000 +1.2859517300E-001 -1.1899642935E-002 
7400000000.000 +1.0107281693E-001 -1.2985633952E-001 
7410000000.000 -2.2094913381E-002 -1.4846863574E-001 
7420000000.000 -8.7359756438E-002 -4.9946586392E-002 
7430000000.000 -3.2074487182E-002 +3.5909513145E-002 
7440000000.000 +4.6655484768E-002 +1.7301088284E-002 
7450000000.000 +4.2862347617E-002 -4.5632817182E-002 
7460000000.000 -1.2047447252E-002 -4.5159501320E-002 
7470000000.000 -1.6089051981E-002 +5.0601978001E-003 
7480000000.000 +2.7206834866E-002 +1.2013400314E-002 
7490000000.000 +2.7161725090E-002 -3.2804736413E-002 
7500000000.000 -3.7500522743E-002 -2.7688706050E-002 
7510000000.000 -5.3918010448E-002 +6.3863923741E-002 
7520000000.000 +4.4290852442E-002 +1.2936770826E-001 
7530000000.000 +1.6041628850E-001 +6.2897912004E-002 
7540000000.000 +1.5082660298E-001 -8.0636680887E-002 
7550000000.000 +7.0939888360E-003 -1.3158193961E-001 
7560000000.000 -9.5436428136E-002 -9.3667353406E-003 
7570000000.000 -1.8570553912E-002 +1.3700413837E-001 
7580000000.000 +1.4856223398E-001 +1.3229012015E-001 
7590000000.000 +2.2530355011E-001 -1.3645765470E-002 
7600000000.000 +1.4012163164E-001 -1.4441807069E-001 
7610000000.000 +3.4619669632E-003 -1.2853647581E-001 
7620000000.000 -2.7557438283E-002 -1.8218930370E-002 
7630000000.000 +4.7575751934E-002 +3.1310149007E-002 
7640000000.000 +1.0131895574E-001 -1.2335280510E-002 
7650000000.000 +8.4867864146E-002 -5.7249868482E-002 
7660000000.000 +6.4048528269E-002 -5.2947548577E-002 
7670000000.000 +8.3186492759E-002 -5.8675857801E-002 
7680000000.000 +7.8735657657E-002 -1.1261101570E-001 
7690000000.000 +1.1564393154E-004 -1.4149064128E-001 
7700000000.000 -7.4689869486E-002 -7.1207840686E-002 
7710000000.000 -3.6712699513E-002 +3.5184650099E-002 
7720000000.000 +8.3135456885E-002 +3.7223251390E-002 
7730000000.000 +1.2903391322E-001 -8.4246024525E-002 
7740000000.000 +2.3487173357E-002 -1.7969889366E-001 
7750000000.000 -1.1461290115E-001 -1.1771713825E-001 
7760000000.000 -1.1644343573E-001 +3.3800456540E-002 
7770000000.000 +1.4102518523E-002 +9.5031465032E-002 
7780000000.000 +1.1174524407E-001 +9.1684111319E-004 
7790000000.000 +5.3566884795E-002 -1.1686109788E-001 
7800000000.000 -7.6166842909E-002 -9.5213765088E-002 
7810000000.000 -9.9429708955E-002 +3.4777909582E-002 
7820000000.000 +6.3761743712E-003 +1.0354238113E-001 
7830000000.000 +1.0420609981E-001 +3.8823438994E-002 
7840000000.000 +8.1199105077E-002 -6.0983326436E-002 
7850000000.000 -8.4733018707E-003 -6.5625451267E-002 
7860000000.000 -2.9669347883E-002 +1.1463656789E-002 
7870000000.000 +3.3362357803E-002 +4.8434085416E-002 
7880000000.000 +7.9379329310E-002 +4.8822843118E-003 
7890000000.000 +5.4955209675E-002 -3.5859064702E-002 
7900000000.000 +2.6643466583E-002 -1.4602254405E-002 
7910000000.000 +6.2785922226E-002 +1.1372557367E-002 
7920000000.000 +1.0871683927E-001 -3.4016058417E-002 
7930000000.000 +7.4724351476E-002 -1.1045866837E-001 
7940000000.000 -2.0264312604E-002 -1.0788019606E-001 
7950000000.000 -5.3313015961E-002 -1.2039803758E-002 
7960000000.000 +3.0758083218E-002 +5.4020361591E-002 
7970000000.000 +1.3040241386E-001 -4.1072559933E-003 
7980000000.000 +1.1870915336E-001 -1.2710946141E-001 
7990000000.000 +1.8133390124E-003 -1.7491314490E-001 
8000000000.000 -9.0518389079E-002 -1.0104576960E-001 
8010000000.000 -7.1409693872E-002 -6.2453841248E-004 
8020000000.000 +6.3588274135E-003 +1.8284504452E-002 
8030000000.000 +3.8578594006E-002 -3.2068535680E-002 
8040000000.000 +1.0164974597E-002 -6.4107425781E-002 
8050000000.000 -1.4507721957E-002 -5.2977028309E-002 
8060000000.000 -1.2729271551E-002 -4.5811367122E-002 
8070000000.000 -2.6513216919E-002 -5.7975742095E-002 
8080000000.000 -6.8053609569E-002 -3.8973584945E-002 
8090000000.000 -7.3630165572E-002 +2.9474485643E-002 
8100000000.000 -3.2400477800E-003 +7.4707938564E-002 
8110000000.000 +7.5847483872E-002 +2.7425762212E-002 
8120000000.000 +6.1497452108E-002 -6.7549386912E-002 
8130000000.000 -3.8160004763E-002 -8.6734648826E-002 
8140000000.000 -9.2975047758E-002 +6.0946601174E-003 
8150000000.000 -2.5426962155E-002 +9.6068938637E-002 
8160000000.000 +8.5760650923E-002 +7.2607079026E-002 
8170000000.000 +1.1037576681E-001 -3.3221444147E-002 
8180000000.000 +2.8280990467E-002 -9.0430415073E-002 
8190000000.000 -4.3463997813E-002 -3.3540200557E-002 
8200000000.000 -7.3677692999E-003 +4.3531457034E-002 
8210000000.000 +7.3550587570E-002 +3.1275331147E-002 
8220000000.000 +8.8422599643E-002 -4.5725227159E-002 
8230000000.000 +2.7556425062E-002 -8.0395236388E-002 
8240000000.000 -1.0577997287E-002 -3.8050456731E-002 
8250000000.000 +2.6416606584E-002 -2.8287090659E-003 
8260000000.000 +6.7041452379E-002 -4.1505721718E-002 
8270000000.000 +3.4974762244E-002 -9.8860465815E-002 
8280000000.000 -3.5257171038E-002 -8.5798310156E-002 
8290000000.000 -4.1230986012E-002 -1.5905080207E-002 
8300000000.000 +2.4568099608E-002 +4.6439949271E-003 
8310000000.000 +6.0940908713E-002 -6.0818156976E-002 
8320000000.000 +2.4829325329E-003 -1.2244783170E-001 
8330000000.000 -8.3871188692E-002 -8.8908864763E-002 
8340000000.000 -8.4942929874E-002 +2.0109585034E-003 
8350000000.000 -7.7722229196E-003 +3.1850313676E-002 
8360000000.000 +3.6839997460E-002 -3.0935143066E-002 
8370000000.000 -1.3970385179E-002 -8.8085543453E-002 
8380000000.000 -8.5946114786E-002 -5.3358559351E-002 
8390000000.000 -7.8463449912E-002 +2.3344303329E-002 
8400000000.000 -1.1719733380E-002 +3.9362535089E-002 
8410000000.000 +1.3621108005E-002 -1.2776748587E-002 
8420000000.000 -3.4281579532E-002 -3.8499695410E-002 
8430000000.000 -6.9130399262E-002 +1.1975186849E-002 
8440000000.000 -2.3218598443E-002 +6.4610269874E-002 
8450000000.000 +4.5169934344E-002 +3.7179844762E-002 
8460000000.000 +3.8336650401E-002 -3.5747662375E-002 
8470000000.000 -3.5228642738E-002 -4.6091043613E-002 
8480000000.000 -6.2698097180E-002 +2.8561719939E-002 
8490000000.000 +6.7159160512E-003 +8.1510571406E-002 
8500000000.000 +8.4114828676E-002 +3.1829180150E-002 
8510000000.000 +6.6045764455E-002 -6.0245299401E-002 
8520000000.000 -2.5554861081E-002 -7.1816472048E-002 
8530000000.000 -6.1495171202E-002 +1.2884679287E-002 
8540000000.000 +1.2627739016E-002 +7.2673159397E-002 
8550000000.000 +9.7652153474E-002 +2.1073172847E-002 
8560000000.000 +8.3311975405E-002 -7.8119931073E-002 
8570000000.000 -9.6573287168E-003 -1.0464823389E-001 
8580000000.000 -6.1675669453E-002 -3.4164212739E-002 
8590000000.000 -1.4405637304E-002 +2.7402659810E-002 
8600000000.000 +5.0785705787E-002 -1.7981316356E-003 
8610000000.000 +4.2239445329E-002 -6.9532954736E-002 
8620000000.000 -1.9192288254E-002 -8.4106149764E-002 
8630000000.000 -4.7177797586E-002 -4.2673945319E-002 
8640000000.000 -2.3858815721E-002 -2.0434195099E-002 
8650000000.000 -1.4648841049E-002 -4.2813815388E-002 
8660000000.000 -5.0693781987E-002 -5.1063679011E-002 
