!  1-Port S-parameters saved by WinCal
! VAR NAME=2-Port SOLT labuser 7
! VAR Error Term Name=ETrt phys rcv port 1 phys src port 2
!
# Hz S RI R 50
5000000000.000 +2.9561942868E+000 -6.1145453543E+000 
5010000000.000 +1.9300784648E+000 -6.4253984618E+000 
5020000000.000 +9.2405320734E-001 -6.6273059200E+000 
5030000000.000 -1.6562804490E-001 -6.7338984709E+000 
5040000000.000 -1.3184537744E+000 -6.6079531973E+000 
5050000000.000 -2.3707615237E+000 -6.2301114404E+000 
5060000000.000 -3.2817122177E+000 -5.7306433495E+000 
5070000000.000 -4.1268690723E+000 -5.1567069454E+000 
5080000000.000 -4.9249034328E+000 -4.4375381615E+000 
5090000000.000 -5.6010714553E+000 -3.5743908765E+000 
5100000000.000 -6.1078208898E+000 -2.6141361441E+000 
5110000000.000 -6.4462593278E+000 -1.5762855302E+000 
5120000000.000 -6.6015505832E+000 -4.7929402256E-001 
5130000000.000 -6.5619359958E+000 +6.3275013365E-001 
5140000000.000 -6.3137848592E+000 +1.6886528963E+000 
5150000000.000 -5.9228155436E+000 +2.6411089628E+000 
5160000000.000 -5.4356900525E+000 +3.5256871697E+000 
5170000000.000 -4.8034153968E+000 +4.3651970686E+000 
5180000000.000 -4.0088344102E+000 +5.0601351895E+000 
5190000000.000 -3.1489341028E+000 +5.5823262371E+000 
5200000000.000 -2.2858758529E+000 +6.0116504663E+000 
5210000000.000 -1.3288465952E+000 +6.3889248839E+000 
5220000000.000 -2.1339225934E-001 +6.5962303226E+000 
5230000000.000 +9.7414416794E-001 +6.5310320571E+000 
5240000000.000 +2.0779042293E+000 +6.1872412682E+000 
5250000000.000 +3.0004006579E+000 +5.6936195991E+000 
5260000000.000 +3.8076022447E+000 +5.1454116033E+000 
5270000000.000 +4.6042805987E+000 +4.5184790442E+000 
5280000000.000 +5.3415574645E+000 +3.6655668220E+000 
5290000000.000 +5.8345898430E+000 +2.6369359403E+000 
5300000000.000 +6.0628188573E+000 +1.6364474821E+000 
5310000000.000 +6.1866520199E+000 +7.1943929733E-001 
5320000000.000 +6.2534780901E+000 -2.2924847397E-001 
5330000000.000 +6.1683402046E+000 -1.2519449655E+000 
5340000000.000 +5.8750550990E+000 -2.2519171674E+000 
5350000000.000 +5.4252606229E+000 -3.1556011957E+000 
5360000000.000 +4.8653773788E+000 -3.9826974536E+000 
5370000000.000 +4.1618260576E+000 -4.7385466383E+000 
5380000000.000 +3.2999235275E+000 -5.3587559175E+000 
5390000000.000 +2.3397977855E+000 -5.7763524600E+000 
5400000000.000 +1.3710154379E+000 -6.0160669538E+000 
5410000000.000 +4.1244760189E-001 -6.1280313256E+000 
5420000000.000 -5.4555328824E-001 -6.1072314743E+000 
5430000000.000 -1.4985434655E+000 -5.9333637169E+000 
5440000000.000 -2.4055356499E+000 -5.6082956171E+000 
5450000000.000 -3.2524133543E+000 -5.1716038904E+000 
5460000000.000 -4.0592231542E+000 -4.6257295041E+000 
5470000000.000 -4.8071031793E+000 -3.9130106215E+000 
5480000000.000 -5.3986727408E+000 -3.0324571266E+000 
5490000000.000 -5.7944656392E+000 -2.0770728704E+000 
5500000000.000 -6.0361036682E+000 -1.0980433748E+000 
5510000000.000 -6.1241012185E+000 -8.2665231288E-002 
5520000000.000 -6.0023952590E+000 +9.3966348153E-001 
5530000000.000 -5.6976614228E+000 +1.8565275490E+000 
5540000000.000 -5.3113990678E+000 +2.6695201630E+000 
5550000000.000 -4.8493744775E+000 +3.4497875691E+000 
5560000000.000 -4.2527821037E+000 +4.2130741634E+000 
5570000000.000 -3.4843048351E+000 +4.8799335472E+000 
5580000000.000 -2.6020270039E+000 +5.3470816030E+000 
5590000000.000 -1.7177474246E+000 +5.6202644758E+000 
5600000000.000 -8.7109910186E-001 +5.8022311788E+000 
5610000000.000 +4.4815188151E-002 +5.9441535956E+000 
5620000000.000 +1.0753072381E+000 +5.9150369245E+000 
5630000000.000 +2.0674235551E+000 +5.6190858700E+000 
5640000000.000 +2.9117314649E+000 +5.1701030146E+000 
5650000000.000 +3.6946403842E+000 +4.6543983500E+000 
5660000000.000 +4.4618893977E+000 +3.9968314349E+000 
5670000000.000 +5.0948770955E+000 +3.1519779758E+000 
5680000000.000 +5.4919296971E+000 +2.2319565309E+000 
5690000000.000 +5.7047059469E+000 +1.3418613081E+000 
5700000000.000 +5.8237179743E+000 +4.6626858619E-001 
5710000000.000 +5.8659117321E+000 -4.5568176621E-001 
5720000000.000 +5.7517179583E+000 -1.4431358100E+000 
5730000000.000 +5.4159603419E+000 -2.4211957893E+000 
5740000000.000 +4.9059143924E+000 -3.2834893010E+000 
5750000000.000 +4.2920938258E+000 -4.0159692061E+000 
5760000000.000 +3.5809500808E+000 -4.6528611533E+000 
5770000000.000 +2.7782685363E+000 -5.1799761982E+000 
5780000000.000 +1.8804458263E+000 -5.5750080702E+000 
5790000000.000 +9.1526169148E-001 -5.8002535861E+000 
5800000000.000 -5.1705682729E-002 -5.8301378886E+000 
5810000000.000 -9.7525137058E-001 -5.7030687437E+000 
5820000000.000 -1.8585806499E+000 -5.4374102299E+000 
5830000000.000 -2.6517456799E+000 -5.0614382647E+000 
5840000000.000 -3.3815715186E+000 -4.6416864433E+000 
5850000000.000 -4.1422700633E+000 -4.1303179545E+000 
5860000000.000 -4.8600511880E+000 -3.3745393215E+000 
5870000000.000 -5.3238679375E+000 -2.4256234108E+000 
5880000000.000 -5.5513071396E+000 -1.5270662249E+000 
5890000000.000 -5.7490342454E+000 -6.7600130339E-001 
5900000000.000 -5.8661809981E+000 +3.1507137862E-001 
5910000000.000 -5.6981979919E+000 +1.3645789950E+000 
5920000000.000 -5.3068540784E+000 +2.2468686517E+000 
5930000000.000 -4.8594171647E+000 +2.9890320429E+000 
5940000000.000 -4.3529763887E+000 +3.7028792492E+000 
5950000000.000 -3.7094553491E+000 +4.3547806131E+000 
5960000000.000 -2.9582869697E+000 +4.9004954672E+000 
5970000000.000 -2.1019059876E+000 +5.2983882954E+000 
5980000000.000 -1.2107388125E+000 +5.5076215049E+000 
5990000000.000 -3.5261266864E-001 +5.5762119763E+000 
6000000000.000 +5.0048148721E-001 +5.5748217832E+000 
6010000000.000 +1.3837506564E+000 +5.4648538582E+000 
6020000000.000 +2.2717696968E+000 +5.1678571921E+000 
6030000000.000 +3.0720991232E+000 +4.6950309886E+000 
6040000000.000 +3.7682781480E+000 +4.1210700869E+000 
6050000000.000 +4.3845336644E+000 +3.4544517973E+000 
6060000000.000 +4.8899922557E+000 +2.7043004370E+000 
6070000000.000 +5.2588674246E+000 +1.8888650236E+000 
6080000000.000 +5.4712389868E+000 +1.0254001362E+000 
6090000000.000 +5.5321116801E+000 +1.6734899276E-001 
6100000000.000 +5.4827752015E+000 -6.8891902930E-001 
6110000000.000 +5.3233178628E+000 -1.5574936935E+000 
6120000000.000 +5.0117910648E+000 -2.4343968698E+000 
6130000000.000 +4.5260236327E+000 -3.2463794287E+000 
6140000000.000 +3.9020147618E+000 -3.9372664833E+000 
6150000000.000 +3.1949891216E+000 -4.5013563799E+000 
6160000000.000 +2.4258917490E+000 -4.9521305611E+000 
6170000000.000 +1.5953121280E+000 -5.2981623010E+000 
6180000000.000 +6.8171430625E-001 -5.5023342686E+000 
6190000000.000 -2.8859329985E-001 -5.5152574250E+000 
6200000000.000 -1.2178345741E+000 -5.3286187378E+000 
6210000000.000 -2.0339339457E+000 -5.0066721050E+000 
6220000000.000 -2.7493012768E+000 -4.6222943540E+000 
6230000000.000 -3.4216859864E+000 -4.1820930090E+000 
6240000000.000 -4.0622288216E+000 -3.6204668097E+000 
6250000000.000 -4.6164164681E+000 -2.8982421318E+000 
6260000000.000 -5.0113698521E+000 -2.0700921405E+000 
6270000000.000 -5.2543032229E+000 -1.2242930782E+000 
6280000000.000 -5.3919169499E+000 -3.7670176725E-001 
6290000000.000 -5.4280291793E+000 +5.0081499915E-001 
6300000000.000 -5.2949741837E+000 +1.4248132547E+000 
6310000000.000 -4.9387164200E+000 +2.3057882712E+000 
6320000000.000 -4.4418240669E+000 +3.0365403846E+000 
6330000000.000 -3.8926833875E+000 +3.6548625252E+000 
6340000000.000 -3.2900213610E+000 +4.2369654513E+000 
6350000000.000 -2.5650560162E+000 +4.7585789224E+000 
6360000000.000 -1.7176039759E+000 +5.1336310897E+000 
6370000000.000 -8.3261507662E-001 +5.3148208834E+000 
6380000000.000 +9.2338119995E-003 +5.3429981530E+000 
6390000000.000 +8.2258161010E-001 +5.2756143344E+000 
6400000000.000 +1.6511848930E+000 +5.0936765680E+000 
6410000000.000 +2.4917485416E+000 +4.7452979797E+000 
6420000000.000 +3.2570699890E+000 +4.2197901935E+000 
6430000000.000 +3.8848156024E+000 +3.5854577250E+000 
6440000000.000 +4.3729908524E+000 +2.9118468172E+000 
6450000000.000 +4.7687464752E+000 +2.2120469141E+000 
6460000000.000 +5.0945026689E+000 +1.4684628989E+000 
6470000000.000 +5.3178915079E+000 +6.2326285900E-001 
6480000000.000 +5.3579966568E+000 -3.0926949011E-001 
6490000000.000 +5.1746557374E+000 -1.2114289938E+000 
6500000000.000 +4.8618200200E+000 -2.0194947642E+000 
6510000000.000 +4.4639020204E+000 -2.7507391369E+000 
6520000000.000 +3.9572050409E+000 -3.4190087114E+000 
6530000000.000 +3.3483498129E+000 -3.9933790430E+000 
6540000000.000 +2.6855893161E+000 -4.4548635773E+000 
6550000000.000 +1.9514160384E+000 -4.8352781610E+000 
6560000000.000 +1.1285703379E+000 -5.1035149993E+000 
6570000000.000 +2.4523172811E-001 -5.2342166564E+000 
6580000000.000 -6.8448373563E-001 -5.2038827969E+000 
6590000000.000 -1.5587151844E+000 -4.9692214109E+000 
6600000000.000 -2.2996108326E+000 -4.5905295455E+000 
6610000000.000 -2.9256624537E+000 -4.1637053828E+000 
6620000000.000 -3.5161876543E+000 -3.7030607900E+000 
6630000000.000 -4.1038237095E+000 -3.1168039501E+000 
6640000000.000 -4.5847329317E+000 -2.3758025121E+000 
6650000000.000 -4.8875035512E+000 -1.5534164381E+000 
6660000000.000 -5.0221830715E+000 -7.2972099897E-001 
6670000000.000 -5.0551570955E+000 +5.1777514805E-002 
6680000000.000 -5.0117027242E+000 +8.4575981586E-001 
6690000000.000 -4.8346869115E+000 +1.6706877803E+000 
6700000000.000 -4.4851707469E+000 +2.4456989901E+000 
6710000000.000 -4.0065230573E+000 +3.1187325426E+000 
6720000000.000 -3.4573294576E+000 +3.7002054478E+000 
6730000000.000 -2.8372636657E+000 +4.2147429568E+000 
6740000000.000 -2.1234921832E+000 +4.6636851677E+000 
6750000000.000 -1.3065910307E+000 +4.9811776363E+000 
6760000000.000 -4.3798261944E-001 +5.0911675312E+000 
6770000000.000 +3.6609415005E-001 +5.0003787548E+000 
6780000000.000 +1.0731026191E+000 +4.8456093574E+000 
6790000000.000 +1.8035840844E+000 +4.6546255256E+000 
6800000000.000 +2.5774505790E+000 +4.3407660553E+000 
6810000000.000 +3.3074385404E+000 +3.8531730925E+000 
6820000000.000 +3.9265505973E+000 +3.2132434977E+000 
6830000000.000 +4.3806998411E+000 +2.4769273349E+000 
6840000000.000 +4.6498767701E+000 +1.7191187813E+000 
6850000000.000 +4.8090418981E+000 +1.0005176530E+000 
6860000000.000 +4.9311105166E+000 +2.8534984901E-001 
6870000000.000 +4.9669342507E+000 -5.2481528353E-001 
6880000000.000 +4.8122040709E+000 -1.3781865167E+000 
6890000000.000 +4.4737662280E+000 -2.1589674395E+000 
6900000000.000 +4.0246023647E+000 -2.8240749865E+000 
6910000000.000 +3.5295964055E+000 -3.3783343878E+000 
6920000000.000 +2.9937567700E+000 -3.8707873325E+000 
6930000000.000 +2.3622739520E+000 -4.3148787880E+000 
6940000000.000 +1.6269727866E+000 -4.6445135325E+000 
6950000000.000 +8.5800000877E-001 -4.8315040727E+000 
6960000000.000 +8.0622376119E-002 -4.9354737508E+000 
6970000000.000 -7.4986944099E-001 -4.9473254580E+000 
6980000000.000 -1.6092531745E+000 -4.7661201754E+000 
6990000000.000 -2.3837484883E+000 -4.3988318572E+000 
7000000000.000 -3.0481755127E+000 -3.9350755815E+000 
7010000000.000 -3.6420734010E+000 -3.3768605401E+000 
7020000000.000 -4.1273020137E+000 -2.7061929060E+000 
7030000000.000 -4.4715114181E+000 -1.9758252096E+000 
7040000000.000 -4.7077262991E+000 -1.2225651121E+000 
7050000000.000 -4.8378057344E+000 -4.3570626884E-001 
7060000000.000 -4.8256624607E+000 +3.5496212053E-001 
7070000000.000 -4.6839854873E+000 +1.1052542729E+000 
7080000000.000 -4.4479643332E+000 +1.8097413391E+000 
7090000000.000 -4.1136975603E+000 +2.4979388590E+000 
7100000000.000 -3.6442798638E+000 +3.1565734645E+000 
7110000000.000 -3.0419528621E+000 +3.7188250323E+000 
7120000000.000 -2.3719730021E+000 +4.1384674499E+000 
7130000000.000 -1.6898568170E+000 +4.4369633033E+000 
7140000000.000 -9.8582689997E-001 +4.6572685928E+000 
7150000000.000 -2.1136220210E-001 +4.7711711774E+000 
7160000000.000 +5.9863778675E-001 +4.7056849432E+000 
7170000000.000 +1.3426305914E+000 +4.4770998155E+000 
7180000000.000 +1.9906860581E+000 +4.1769634100E+000 
7190000000.000 +2.6050986120E+000 +3.8456251976E+000 
7200000000.000 +3.2240460576E+000 +3.4333648684E+000 
7210000000.000 +3.8098185947E+000 +2.8628456851E+000 
7220000000.000 +4.2418590986E+000 +2.1411538781E+000 
7230000000.000 +4.4663718652E+000 +1.3950484554E+000 
7240000000.000 +4.5784122567E+000 +7.0267735193E-001 
7250000000.000 +4.6582816733E+000 +1.0102767637E-002 
7260000000.000 +4.6546851978E+000 -7.5661710309E-001 
7270000000.000 +4.4787308379E+000 -1.5622288284E+000 
7280000000.000 +4.1241619443E+000 -2.2910014415E+000 
7290000000.000 +3.6724943786E+000 -2.9008663301E+000 
7300000000.000 +3.1544538381E+000 -3.4239169513E+000 
7310000000.000 +2.5586395936E+000 -3.8690408562E+000 
7320000000.000 +1.8895472906E+000 -4.2219923992E+000 
7330000000.000 +1.1727454768E+000 -4.4583563317E+000 
7340000000.000 +4.4847103348E-001 -4.5867572501E+000 
7350000000.000 -2.7263105119E-001 -4.6246889374E+000 
7360000000.000 -1.0145709268E+000 -4.5607665164E+000 
7370000000.000 -1.7640097698E+000 -4.3545532957E+000 
7380000000.000 -2.4676146264E+000 -3.9966740070E+000 
7390000000.000 -3.0842246613E+000 -3.5176793656E+000 
7400000000.000 -3.6064540534E+000 -2.9531100432E+000 
7410000000.000 -4.0205018786E+000 -2.3175216284E+000 
7420000000.000 -4.3270584668E+000 -1.6443634370E+000 
7430000000.000 -4.5518259751E+000 -9.3597168914E-001 
7440000000.000 -4.6617490012E+000 -1.5412708322E-001 
7450000000.000 -4.5866274074E+000 +6.4696306776E-001 
7460000000.000 -4.3554519296E+000 +1.3575340981E+000 
7470000000.000 -4.0731658365E+000 +1.9865924393E+000 
7480000000.000 -3.7493024343E+000 +2.6205757074E+000 
7490000000.000 -3.2909579963E+000 +3.2504814621E+000 
7500000000.000 -2.6895880206E+000 +3.7750727106E+000 
7510000000.000 -2.0118480956E+000 +4.1309992952E+000 
7520000000.000 -1.3262480835E+000 +4.3512261150E+000 
7530000000.000 -6.4869848955E-001 +4.4824065066E+000 
7540000000.000 +6.3231623109E-002 +4.5490891269E+000 
7550000000.000 +8.5027416300E-001 +4.4994977362E+000 
7560000000.000 +1.6300977567E+000 +4.2433254687E+000 
7570000000.000 +2.2682368018E+000 +3.8298377937E+000 
7580000000.000 +2.7559707635E+000 +3.3928712175E+000 
7590000000.000 +3.1974167408E+000 +2.9741122728E+000 
7600000000.000 +3.6557676389E+000 +2.4966228794E+000 
7610000000.000 +4.0718257465E+000 +1.8931372642E+000 
7620000000.000 +4.3584920205E+000 +1.1833214849E+000 
7630000000.000 +4.4874677737E+000 +4.3591559101E-001 
7640000000.000 +4.4908896215E+000 -2.9330487732E-001 
7650000000.000 +4.3875450888E+000 -1.0028424399E+000 
7660000000.000 +4.1763815543E+000 -1.6809876395E+000 
7670000000.000 +3.8715226321E+000 -2.3076623330E+000 
7680000000.000 +3.4812590308E+000 -2.8994018226E+000 
7690000000.000 +2.9719700802E+000 -3.4585565758E+000 
7700000000.000 +2.3218601708E+000 -3.9231486274E+000 
7710000000.000 +1.5963781415E+000 -4.2169315200E+000 
7720000000.000 +8.8285906878E-001 -4.3753897546E+000 
7730000000.000 +1.8871049976E-001 -4.4448418037E+000 
7740000000.000 -5.1043010168E-001 -4.4206892780E+000 
7750000000.000 -1.1935027839E+000 -4.2798945118E+000 
7760000000.000 -1.8419218689E+000 -4.0370315704E+000 
7770000000.000 -2.4596997814E+000 -3.7124766841E+000 
7780000000.000 -3.0584070865E+000 -3.2831253447E+000 
7790000000.000 -3.5856189253E+000 -2.7244502018E+000 
7800000000.000 -3.9683765357E+000 -2.0646533743E+000 
7810000000.000 -4.1930626811E+000 -1.3820461484E+000 
7820000000.000 -4.3130045086E+000 -7.2537589445E-001 
7830000000.000 -4.3770633567E+000 -5.9072604210E-002 
7840000000.000 -4.3463530688E+000 +6.6126822595E-001 
7850000000.000 -4.1611988019E+000 +1.3911715187E+000 
7860000000.000 -3.8365184601E+000 +2.0420987974E+000 
7870000000.000 -3.4516016884E+000 +2.5958669672E+000 
7880000000.000 -3.0355849346E+000 +3.0994454444E+000 
7890000000.000 -2.5469933936E+000 +3.5699961056E+000 
7900000000.000 -1.9459562622E+000 +3.9719273056E+000 
7910000000.000 -1.2552078382E+000 +4.2462698500E+000 
7920000000.000 -5.2726573708E-001 +4.3794278333E+000 
7930000000.000 +2.0799632697E-001 +4.3890069181E+000 
7940000000.000 +9.3173247739E-001 +4.2797869040E+000 
7950000000.000 +1.6170431992E+000 +4.0466161789E+000 
7960000000.000 +2.2240400137E+000 +3.7046875152E+000 
7970000000.000 +2.7389066439E+000 +3.2932753784E+000 
7980000000.000 +3.1984876908E+000 +2.8311873140E+000 
7990000000.000 +3.6189310260E+000 +2.2910008609E+000 
8000000000.000 +3.9566357612E+000 +1.6741441710E+000 
8010000000.000 +4.1840034803E+000 +1.0040175508E+000 
8020000000.000 +4.2939415331E+000 +3.0821805946E-001 
8030000000.000 +4.2903886269E+000 -3.8353720423E-001 
8040000000.000 +4.1777221421E+000 -1.0528138451E+000 
8050000000.000 +3.9649227375E+000 -1.6971405533E+000 
8060000000.000 +3.6434840484E+000 -2.3225664567E+000 
8070000000.000 +3.1993829390E+000 -2.8957156790E+000 
8080000000.000 +2.6629369120E+000 -3.3672834258E+000 
8090000000.000 +2.0711525415E+000 -3.7244960454E+000 
8100000000.000 +1.4558563647E+000 -3.9908409308E+000 
8110000000.000 +8.2046383176E-001 -4.1850573927E+000 
8120000000.000 +1.4264218098E-001 -4.3020717643E+000 
8130000000.000 -5.9008421408E-001 -4.2901313901E+000 
8140000000.000 -1.3151227596E+000 -4.1065067441E+000 
8150000000.000 -1.9636479459E+000 -3.7922653464E+000 
8160000000.000 -2.5300560598E+000 -3.4252783600E+000 
8170000000.000 -3.0652496185E+000 -2.9993190489E+000 
8180000000.000 -3.5550037268E+000 -2.4588518135E+000 
8190000000.000 -3.9168223409E+000 -1.8022238689E+000 
8200000000.000 -4.1107888153E+000 -1.1236015699E+000 
8210000000.000 -4.1928709646E+000 -4.7933238185E-001 
8220000000.000 -4.2089927544E+000 +1.5808808925E-001 
8230000000.000 -4.1493177621E+000 +8.2051645022E-001 
8240000000.000 -3.9718947316E+000 +1.4981262863E+000 
8250000000.000 -3.6694032731E+000 +2.1341141344E+000 
8260000000.000 -3.2668068827E+000 +2.7010594335E+000 
8270000000.000 -2.7807274336E+000 +3.1892571064E+000 
8280000000.000 -2.2413171321E+000 +3.5944592545E+000 
8290000000.000 -1.6501405286E+000 +3.9263463842E+000 
8300000000.000 -9.7061440385E-001 +4.1695468825E+000 
8310000000.000 -2.3460158584E-001 +4.2706530336E+000 
8320000000.000 +4.9490561733E-001 +4.2140961980E+000 
8330000000.000 +1.1618830049E+000 +4.0469148245E+000 
8340000000.000 +1.7767095071E+000 +3.7974281634E+000 
8350000000.000 +2.3428726967E+000 +3.4593954654E+000 
8360000000.000 +2.8468246619E+000 +3.0474579925E+000 
8370000000.000 +3.2887998879E+000 +2.5737395362E+000 
8380000000.000 +3.6688872211E+000 +2.0120727423E+000 
8390000000.000 +3.9505959148E+000 +1.3692878924E+000 
8400000000.000 +4.1111862695E+000 +6.8562343479E-001 
8410000000.000 +4.1543673976E+000 +2.8410451568E-003 
8420000000.000 +4.0895026771E+000 -6.6613083612E-001 
8430000000.000 +3.9218210097E+000 -1.3052902834E+000 
8440000000.000 +3.6678759656E+000 -1.9082819852E+000 
8450000000.000 +3.3263314655E+000 -2.4788905669E+000 
8460000000.000 +2.8729228789E+000 -3.0063642596E+000 
8470000000.000 +2.3059723212E+000 -3.4419208861E+000 
8480000000.000 +1.6827510174E+000 -3.7375450957E+000 
8490000000.000 +1.0751815380E+000 -3.9130280514E+000 
8500000000.000 +4.8848668264E-001 -4.0216943522E+000 
8510000000.000 -1.2369423062E-001 -4.0816086528E+000 
8520000000.000 -7.9085520853E-001 -4.0499334377E+000 
8530000000.000 -1.4734320739E+000 -3.8674608911E+000 
8540000000.000 -2.0986537633E+000 -3.5416021035E+000 
8550000000.000 -2.6333986590E+000 -3.1339933407E+000 
8560000000.000 -3.1011325714E+000 -2.6710413228E+000 
8570000000.000 -3.5085475857E+000 -2.1482138849E+000 
8580000000.000 -3.8241751087E+000 -1.5498888219E+000 
8590000000.000 -4.0265848274E+000 -8.9483298845E-001 
8600000000.000 -4.1091399652E+000 -2.1449222242E-001 
8610000000.000 -4.0773357297E+000 +4.6992369497E-001 
8620000000.000 -3.9326511772E+000 +1.1400240858E+000 
8630000000.000 -3.6797460156E+000 +1.7660002914E+000 
8640000000.000 -3.3411593677E+000 +2.3280542899E+000 
8650000000.000 -2.9284728730E+000 +2.8193947123E+000 
8660000000.000 -2.4463616116E+000 +3.2453741649E+000 
