!  1-Port S-parameters saved by WinCal
! VAR NAME=2-Port SOLT labuser 3
! VAR Error Term Name=ELdm phys rcv port 1 phys src port 2
!
# Hz S RI R 50
8000000000.000 -2.2675727598E-001 -1.8113708916E-001 
8100000000.000 -1.8861064608E-001 +8.4228774451E-003 
8200000000.000 -1.8300833703E-001 +1.6798454535E-005 
8300000000.000 -1.5854444988E-001 +1.1882011534E-002 
8400000000.000 -1.6099984761E-001 +4.9935161731E-002 
8500000000.000 -8.5620525830E-002 +7.2301655785E-002 
8600000000.000 -7.1651487657E-002 +5.7929968724E-002 
8700000000.000 -1.1249893369E-001 -3.2689984870E-002 
8800000000.000 -4.4866541211E-002 +7.7551320259E-002 
8900000000.000 -4.3867595904E-002 -4.3284951749E-002 
9000000000.000 -1.0192923279E-001 +1.4250865232E-002 
9100000000.000 -1.2889888529E-001 -2.0122776285E-002 
9200000000.000 -5.7378990407E-002 +4.1749854010E-003 
9300000000.000 -1.5373446162E-001 +3.9738187894E-002 
9400000000.000 -1.1953136181E-001 +7.0540819383E-002 
9500000000.000 -1.0882611081E-001 +1.2112199187E-001 
9600000000.000 -1.0191257426E-001 +2.4505026291E-002 
9700000000.000 -1.3431361897E-001 +1.6042969530E-001 
9800000000.000 -4.1058304529E-002 +2.8776211459E-002 
9900000000.000 +1.1911252143E-003 +1.4599468747E-001 
10000000000.000 -6.2280240736E-002 +5.6795972982E-002 
10100000000.000 +3.8016212473E-002 +6.0635897873E-002 
10200000000.000 -3.5399233616E-002 +2.4609697349E-002 
10300000000.000 +7.3604341910E-002 +6.2423147021E-003 
10400000000.000 -6.7197118294E-002 +1.1412929503E-002 
10500000000.000 -7.9264886338E-003 -1.9766817712E-002 
10600000000.000 -6.2473500227E-002 +4.6246399522E-002 
10700000000.000 -8.1341930122E-002 -6.2855403360E-002 
10800000000.000 -9.2893012794E-002 +1.0612573869E-001 
10900000000.000 -8.8899915177E-002 -3.6655906563E-002 
11000000000.000 -1.8974830489E-003 +9.6881225893E-002 
11100000000.000 -6.8008165525E-002 +9.7232260644E-002 
11200000000.000 +1.2380526443E-002 +1.0779427363E-001 
11300000000.000 -7.1376654519E-003 +1.1039640817E-001 
11400000000.000 +6.7037102034E-002 -1.0228877103E-003 
11500000000.000 -1.4395646864E-002 +1.2650735283E-001 
11600000000.000 +6.3369812054E-002 -5.6953699424E-002 
11700000000.000 -1.1471035818E-002 +5.3751460991E-002 
11800000000.000 -2.1535961085E-002 -8.5163282913E-002 
11900000000.000 +2.0465791196E-002 -4.1846227207E-003 
12000000000.000 -6.7476268880E-002 -5.1894559541E-002 
