!  1-Port S-parameters saved by WinCal
! VAR NAME=2-Port SOLT labuser 3
! VAR Error Term Name=ERft phys rcv port 1 phys src port 1
!
# Hz S RI R 50
8000000000.000 +3.0790745105E+000 +3.0311461523E+000 
8100000000.000 +1.5462900249E+000 -4.6113536497E+000 
8200000000.000 -3.1423008052E+000 -5.7203264176E+000 
8300000000.000 -2.9055951978E+000 +3.1522024170E+000 
8400000000.000 +5.2496700620E+000 +6.2742354796E+000 
8500000000.000 +3.9377936277E+000 -1.5780408686E+000 
8600000000.000 -4.2443090474E+000 -3.6995425952E+000 
8700000000.000 -5.9679299106E+000 +9.1125663308E-001 
8800000000.000 +2.0452427592E+000 +4.0031845546E+000 
8900000000.000 +8.0284346777E+000 -1.2047514705E+000 
9000000000.000 -6.8321097847E-002 -4.4053452069E+000 
9100000000.000 -5.3846057533E+000 +1.8382415973E+000 
9200000000.000 -1.1423951060E+000 +6.0580000535E+000 
9300000000.000 +5.3616630405E+000 +1.7313261786E-001 
9400000000.000 +2.0679184704E+000 -5.9326185471E+000 
9500000000.000 -4.6899810472E+000 -1.5342332167E+000 
9600000000.000 -1.2030758898E+000 +6.3050912103E+000 
9700000000.000 +5.7531054013E+000 +3.5123955716E+000 
9800000000.000 +3.3981777028E+000 -4.8444446622E+000 
9900000000.000 -4.8428417948E+000 -3.3015881445E+000 
10000000000.000 -3.7136805029E+000 +5.5976275725E+000 
10100000000.000 +5.0095737174E+000 +5.0287303692E+000 
10200000000.000 +5.4068798768E+000 -4.2970325907E+000 
10300000000.000 -2.9459398638E+000 -5.1070152897E+000 
10400000000.000 -4.3721402664E+000 +3.9837664063E+000 
10500000000.000 +4.2694452021E+000 +7.5324789828E+000 
10600000000.000 +5.4663082146E+000 -1.9391447300E+000 
10700000000.000 -2.8396894894E+000 -5.6159450208E+000 
10800000000.000 -5.7579367530E+000 +1.3810809099E+000 
10900000000.000 +2.8308513389E+000 +5.6014416336E+000 
11000000000.000 +7.7781831078E+000 +6.1239455053E-002 
11100000000.000 -1.8008778759E-001 -5.0933325102E+000 
11200000000.000 -6.8806259313E+000 +9.2521416308E-001 
11300000000.000 -1.3104099687E+000 +6.1725517744E+000 
11400000000.000 +6.7237464477E+000 +1.1735474697E+000 
11500000000.000 +3.0108314474E+000 -4.7219596558E+000 
11600000000.000 -4.8664417810E+000 -1.3838687733E+000 
11700000000.000 -4.0578382789E+000 +6.8734127208E+000 
11800000000.000 +3.9670513933E+000 +3.5148400206E+000 
11900000000.000 +4.0150048354E+000 -4.4745747037E+000 
12000000000.000 -2.9726785479E+000 -3.9547777547E+000 
