!  1-Port S-parameters saved by WinCal
! VAR NAME=2-Port SOLT labuser 3
! VAR Error Term Name=ETrt phys rcv port 2 phys src port 1
!
# Hz S RI R 50
8000000000.000 -3.3212790997E+000 +3.3856016488E-001 
8100000000.000 +1.7206740793E+000 +3.3020992483E+000 
8200000000.000 +4.7798946262E+000 +1.1306430471E+000 
8300000000.000 -3.5396227260E-002 -3.1061150213E+000 
8400000000.000 -6.0014149467E+000 -7.4222963568E-001 
8500000000.000 -1.4176640038E+000 +2.6577833336E+000 
8600000000.000 +4.1073571913E+000 +1.7281980813E-001 
8700000000.000 +3.0234319482E+000 -2.9448210170E+000 
8800000000.000 -2.8289151976E+000 -1.6481291169E+000 
8900000000.000 -4.3103899052E+000 +3.6789153618E+000 
9000000000.000 +1.5185560209E+000 +2.7260243313E+000 
9100000000.000 +2.7235769548E+000 -2.9538247644E+000 
9200000000.000 -1.1172117034E+000 -4.1403777672E+000 
9300000000.000 -3.4497584094E+000 +1.3153388553E+000 
9400000000.000 +1.1124167669E-001 +4.3703563457E+000 
9500000000.000 +3.4098654530E+000 -1.4067336316E-001 
9600000000.000 -5.0087788662E-001 -4.4782648191E+000 
9700000000.000 -4.6099116788E+000 -1.1998526031E+000 
9800000000.000 -1.3539716602E+000 +3.8801794512E+000 
9900000000.000 +3.7697736250E+000 +1.3693217098E+000 
10000000000.000 +1.8827529589E+000 -4.2959231729E+000 
10100000000.000 -4.0003364181E+000 -3.0364779470E+000 
10200000000.000 -3.5536065114E+000 +3.2360131778E+000 
10300000000.000 +2.4172750195E+000 +3.4444766999E+000 
10400000000.000 +2.7583984240E+000 -2.9076864009E+000 
10500000000.000 -2.9494839927E+000 -5.2375642337E+000 
10600000000.000 -3.7688056428E+000 +1.0973961350E+000 
10700000000.000 +1.6778644253E+000 +4.1448217928E+000 
10800000000.000 +4.0480601353E+000 -7.9551297890E-001 
10900000000.000 -1.5587168026E+000 -4.0974844151E+000 
11000000000.000 -5.2498328440E+000 -7.7278308386E-001 
11100000000.000 -5.8094287970E-001 +3.4136128658E+000 
11200000000.000 +4.8141463027E+000 +4.0899634355E-001 
11300000000.000 +2.0181853327E+000 -4.0152603657E+000 
11400000000.000 -4.5690821141E+000 -1.8972262001E+000 
11500000000.000 -2.8515432010E+000 +2.6275329379E+000 
11600000000.000 +2.9894667701E+000 +1.9033379170E+000 
11700000000.000 +4.2473541201E+000 -3.3880325114E+000 
11800000000.000 -1.6825489502E+000 -3.4324468038E+000 
11900000000.000 -3.8821156604E+000 +1.8006756921E+000 
12000000000.000 +8.2293818551E-001 +3.5430067684E+000 
