!  1-Port S-parameters saved by WinCal
! VAR NAME=2-Port SOLT labuser 3
! VAR Error Term Name=ELdm phys rcv port 2 phys src port 1
!
# Hz S RI R 50
8000000000.000 -4.5796553328E-001 -8.7439840855E-002 
8100000000.000 +3.5113620214E-001 +1.4988494900E-001 
8200000000.000 -3.9854115797E-001 -2.5190753796E-001 
8300000000.000 +2.0354242061E-001 +2.7150468173E-001 
8400000000.000 -3.0753855549E-001 -3.8633542616E-001 
8500000000.000 +8.8650122826E-002 +3.9551370605E-001 
8600000000.000 -1.4160727496E-001 -4.3619721335E-001 
8700000000.000 -1.4128590572E-001 +4.1147361197E-001 
8800000000.000 +8.9839789142E-002 -4.2719544900E-001 
8900000000.000 -2.8630531913E-001 +3.8952448125E-001 
9000000000.000 +2.1102778134E-001 -2.9190014360E-001 
9100000000.000 -4.7061552603E-001 +2.3436661892E-001 
9200000000.000 +3.4827501201E-001 -1.1312351549E-001 
9300000000.000 -5.0696041212E-001 +6.4301842689E-002 
9400000000.000 +3.1434174103E-001 +7.9505398378E-002 
9500000000.000 -5.1413583614E-001 -8.8548668618E-002 
9600000000.000 +3.1703699996E-001 +3.3593474403E-001 
9700000000.000 -3.6632571886E-001 -2.9048757858E-001 
9800000000.000 +1.2416391696E-001 +4.3531391943E-001 
9900000000.000 -2.1765980050E-001 -3.5549497001E-001 
10000000000.000 +3.3451418706E-002 +5.0830690926E-001 
10100000000.000 -2.8612537673E-002 -3.6718253372E-001 
10200000000.000 -2.3419082644E-001 +5.0856024166E-001 
10300000000.000 +1.8772136573E-001 -3.1893505233E-001 
10400000000.000 -3.6346173800E-001 +4.4586181155E-001 
10500000000.000 +3.9996282181E-001 -1.0612861434E-001 
10600000000.000 -5.1331060486E-001 +1.4313240802E-001 
10700000000.000 +4.3106441745E-001 +8.3675710811E-002 
10800000000.000 -3.9930942135E-001 +9.1873922401E-002 
10900000000.000 +4.4352607763E-001 +1.9330673314E-001 
11000000000.000 -4.4215399764E-001 -1.7935245333E-001 
11100000000.000 +3.4895153723E-001 +4.2861302714E-001 
11200000000.000 -2.1536918626E-001 -3.2579240383E-001 
11300000000.000 +1.5278101329E-001 +4.9959533492E-001 
11400000000.000 -2.6637121609E-002 -4.4918612613E-001 
11500000000.000 -6.6205602046E-002 +5.2710162202E-001 
11600000000.000 +1.9795944755E-001 -3.5659873770E-001 
11700000000.000 -2.3596906875E-001 +3.9069928799E-001 
11800000000.000 +3.1376543760E-001 -3.6543478892E-001 
11900000000.000 -3.8221244500E-001 +3.3968463582E-001 
12000000000.000 +5.1766147369E-001 -5.5541804277E-002 
