!  1-Port S-parameters saved by WinCal
! VAR NAME=2-Port SOLT labuser 6
! VAR Error Term Name=EDir phys rcv port 1 phys src port 1
!
# Hz S RI R 50
8000000000.000 -3.9732377410E-002 +9.2341887284E-002 
8100000000.000 +9.5467168190E-002 +2.9857149134E-002 
8200000000.000 +4.6808168011E-002 -4.4873671060E-002 
8300000000.000 -7.0608672128E-002 +2.4312390498E-003 
8400000000.000 -8.9370693815E-002 +1.3633052142E-001 
8500000000.000 +1.2909763766E-002 +4.4951516921E-002 
8600000000.000 -1.1142295077E-002 -4.7612221617E-002 
8700000000.000 -6.6470383272E-002 -7.7315903629E-002 
8800000000.000 -5.8168667402E-002 +2.1112281992E-002 
8900000000.000 +3.0039643593E-003 +1.8348256423E-002 
9000000000.000 +2.6365496642E-002 -4.0240647502E-002 
9100000000.000 -3.2851075533E-002 -6.4532870810E-002 
9200000000.000 -1.1770667175E-002 -1.8440102978E-002 
9300000000.000 +4.4646611204E-002 +3.9575060348E-003 
9400000000.000 +8.4103492032E-002 -1.7737941992E-002 
9500000000.000 +3.0608574298E-002 -2.4804911959E-002 
9600000000.000 +2.3470453331E-002 +2.6999315461E-002 
9700000000.000 +5.4433686665E-002 +7.4865557749E-002 
9800000000.000 +6.4610592036E-002 +2.9191475023E-002 
9900000000.000 +8.6137766322E-003 -3.9036348460E-006 
10000000000.000 -4.2299457134E-002 +5.3099292621E-002 
10100000000.000 -2.5035465638E-002 +9.2346839601E-002 
10200000000.000 +1.0753548003E-002 +4.2966023538E-002 
10300000000.000 -1.9678577132E-002 -2.1460065543E-002 
10400000000.000 -7.1393946836E-002 +3.8698852788E-003 
10500000000.000 -7.5832891194E-002 +3.9926420731E-002 
10600000000.000 +1.6569103288E-003 +4.5073207025E-003 
10700000000.000 -8.1518701382E-004 -5.2400773927E-002 
10800000000.000 -2.9712094595E-002 -4.9999274861E-002 
10900000000.000 -2.6433803564E-002 +3.4008193614E-003 
11000000000.000 +3.2727934449E-002 +1.3550211903E-002 
11100000000.000 +3.6867271239E-002 -2.2318852433E-002 
11200000000.000 +2.5036511907E-003 -4.1370549287E-002 
11300000000.000 -1.2093608436E-002 +3.2134563215E-004 
11400000000.000 +1.2825319951E-002 +2.4277263093E-002 
11500000000.000 +1.7063791728E-002 +5.3470617940E-003 
11600000000.000 -1.0443125608E-002 -1.0331882988E-002 
11700000000.000 -3.9095252395E-002 +7.5318504491E-003 
11800000000.000 -6.8223991280E-003 +1.5967043792E-002 
11900000000.000 +1.5916034156E-002 -6.3521983401E-003 
12000000000.000 +2.9707391860E-003 -2.5250875314E-002 
