!  1-Port S-parameters saved by WinCal
! VAR NAME=2-Port SOLT labuser 6
! VAR Error Term Name=ELdm phys rcv port 2 phys src port 1
!
# Hz S RI R 50
8000000000.000 -7.2932676708E-002 +1.8237167360E-002 
8100000000.000 -7.0780284416E-002 +6.8034094508E-002 
8200000000.000 -2.5323724025E-002 +4.3517982900E-002 
8300000000.000 -1.1314373702E-001 -3.6800362286E-003 
8400000000.000 -6.1466340433E-002 +3.2951342761E-002 
8500000000.000 -2.2685555909E-002 +8.7759334417E-002 
8600000000.000 -9.4294539108E-002 +4.0208792807E-002 
8700000000.000 -7.8130605780E-002 +3.8031937169E-003 
8800000000.000 -1.8424581568E-002 +4.5864510729E-002 
8900000000.000 -2.4588203056E-002 +9.2047636078E-002 
9000000000.000 -9.3636746737E-002 +8.3837329774E-003 
9100000000.000 -6.3193374820E-002 +1.7258866367E-002 
9200000000.000 -2.8542190932E-002 +6.5086709168E-002 
9300000000.000 -3.5447863043E-004 +4.4296036974E-002 
9400000000.000 -1.1104593505E-001 +1.2609682885E-003 
9500000000.000 -6.4319731676E-002 +6.7955079559E-002 
9600000000.000 -1.3324517653E-002 +1.4606296719E-001 
9700000000.000 +1.8556855254E-002 +1.7323203238E-002 
9800000000.000 -8.2671826804E-002 +1.4690493775E-002 
9900000000.000 -5.4821942505E-002 +4.5153348978E-002 
10000000000.000 +6.4172471991E-002 +9.2444579184E-002 
10100000000.000 -3.9995719778E-002 +7.8222109141E-002 
10200000000.000 -9.1086873875E-002 +7.9286357362E-003 
10300000000.000 -5.1269961110E-002 +2.9962695024E-002 
10400000000.000 -1.8240937288E-002 +2.0565425247E-001 
10500000000.000 +9.4251748169E-004 +7.8050868217E-002 
10600000000.000 -4.7430089027E-002 -1.1057064953E-001 
10700000000.000 -5.8099292700E-002 +1.0241837192E-001 
10800000000.000 +7.6200391568E-002 +1.7556675895E-001 
10900000000.000 +9.1029600778E-003 +1.3988773023E-002 
11000000000.000 -4.7070349081E-002 -3.8164648057E-002 
11100000000.000 +5.2734229195E-003 +1.1167784978E-001 
11200000000.000 +1.4023462394E-002 +7.6525847201E-002 
11300000000.000 +5.8850211393E-002 +3.8489916496E-002 
11400000000.000 -6.6875312050E-003 -4.4716780782E-002 
11500000000.000 -1.6709419245E-002 +6.0529492796E-002 
11600000000.000 -6.6085920834E-003 +1.3433748823E-001 
11700000000.000 +4.0963864695E-002 -6.4341870841E-002 
11800000000.000 -1.8126515911E-002 -6.7254463606E-002 
11900000000.000 -2.7117244600E-002 +1.3270425288E-001 
12000000000.000 +3.6047366550E-002 +1.2767025411E-001 
