!  1-Port S-parameters saved by WinCal
! VAR NAME=2-Port SOLT labuser 6
! VAR Error Term Name=ETrt phys rcv port 2 phys src port 1
!
# Hz S RI R 50
8000000000.000 -3.5664328741E-002 +1.6825929278E-003 
8100000000.000 +1.8310382409E-002 +3.5469586205E-002 
8200000000.000 +4.9089750683E-002 +1.4317015234E-002 
8300000000.000 -3.0470841315E-004 -3.3217645515E-002 
8400000000.000 -6.1463854932E-002 -1.0622286350E-002 
8500000000.000 -1.5697913948E-002 +2.8182126386E-002 
8600000000.000 +4.1866850680E-002 +2.9843448721E-003 
8700000000.000 +3.3507713342E-002 -3.0217657107E-002 
8800000000.000 -2.8975614018E-002 -1.7491332084E-002 
8900000000.000 -4.7337486158E-002 +3.6601532532E-002 
9000000000.000 +1.5522896483E-002 +2.8336751391E-002 
9100000000.000 +2.9464634527E-002 -2.9838912220E-002 
9200000000.000 -1.0151571731E-002 -4.3848587237E-002 
9300000000.000 -3.7084231149E-002 +1.2479187932E-002 
9400000000.000 +8.0181279947E-004 +4.6194657475E-002 
9500000000.000 +3.5641719730E-002 -8.3492904243E-004 
9600000000.000 -4.6571581940E-003 -4.6354171797E-002 
9700000000.000 -4.7052042701E-002 -1.4163255119E-002 
9800000000.000 -1.5543205705E-002 +4.0225810538E-002 
9900000000.000 +3.9694999411E-002 +1.5682000557E-002 
10000000000.000 +2.0038006364E-002 -4.5514357060E-002 
10100000000.000 -4.0766551186E-002 -3.1661179306E-002 
10200000000.000 -3.6972455004E-002 +3.3697125190E-002 
10300000000.000 +2.3466826048E-002 +3.5835078318E-002 
10400000000.000 +3.0130115076E-002 -2.9840747991E-002 
10500000000.000 -3.0448282884E-002 -5.5024155630E-002 
10600000000.000 -4.0124867645E-002 +1.1867279166E-002 
10700000000.000 +1.7966989771E-002 +4.1812941597E-002 
10800000000.000 +4.1203276499E-002 -7.1529617849E-003 
10900000000.000 -1.5670837982E-002 -4.2187465968E-002 
11000000000.000 -5.4980313822E-002 -9.9311156469E-003 
11100000000.000 -5.8272835821E-003 +3.5876957794E-002 
11200000000.000 +5.0249683253E-002 +3.9876450255E-003 
11300000000.000 +1.9614724619E-002 -4.1357941808E-002 
11400000000.000 -4.5484154524E-002 -2.0257202329E-002 
11500000000.000 -2.9773949264E-002 +2.6747119347E-002 
11600000000.000 +3.0349004472E-002 +2.0296355980E-002 
11700000000.000 +4.4903587748E-002 -3.6504721215E-002 
11800000000.000 -1.7237010217E-002 -3.4811430534E-002 
11900000000.000 -3.9576221260E-002 +1.8847258540E-002 
12000000000.000 +7.7136748055E-003 +3.5088785022E-002 
