!  1-Port S-parameters saved by WinCal
! VAR NAME=2-Port SOLT labuser 6
! VAR Error Term Name=ESrm phys rcv port 1 phys src port 1
!
# Hz S RI R 50
8000000000.000 -1.4396082944E-001 -1.2009620881E-001 
8100000000.000 -1.6986655947E-001 -5.1071795196E-002 
8200000000.000 -1.3935962123E-001 -2.4846675899E-002 
8300000000.000 -1.3943240185E-001 -4.9160320727E-002 
8400000000.000 -1.9294118034E-001 -1.8663370986E-003 
8500000000.000 -1.1861523889E-001 +4.4845417784E-002 
8600000000.000 -1.2903348971E-001 -6.7231848074E-003 
8700000000.000 -1.9559841380E-001 +4.1153406593E-002 
8800000000.000 -8.6639342456E-002 +9.4200164100E-002 
8900000000.000 -6.8311433365E-002 +1.9690574451E-002 
9000000000.000 -1.2704610260E-001 +4.0262605751E-002 
9100000000.000 -6.5365138878E-002 +9.1813591639E-002 
9200000000.000 -3.2163798279E-002 +2.1765077121E-002 
9300000000.000 -1.3171453618E-001 +3.6225627455E-002 
9400000000.000 -7.4100490773E-002 +1.1443820962E-001 
9500000000.000 -3.0232100323E-002 +4.8036635752E-002 
9600000000.000 -7.9204012539E-002 +1.9599929165E-002 
9700000000.000 -9.7893432951E-002 +5.9662325567E-002 
9800000000.000 -4.9914862732E-002 +8.7979272044E-002 
9900000000.000 -4.3535125722E-002 +3.5986163726E-002 
10000000000.000 -9.6382864394E-002 +6.8399913804E-002 
10100000000.000 -3.5395292369E-002 +8.7842418661E-002 
10200000000.000 -1.8577886750E-002 +6.7771537132E-002 
10300000000.000 -4.3240604203E-002 +3.5732152055E-002 
10400000000.000 -5.1472445339E-002 +6.6939514661E-002 
10500000000.000 -2.0263116516E-002 +1.0042210036E-001 
10600000000.000 -1.8349182101E-002 +4.9332235889E-002 
10700000000.000 -4.1245860807E-002 +6.3030913856E-002 
10800000000.000 -1.5669510975E-002 +8.2529206739E-002 
10900000000.000 -1.6192384671E-003 +3.5938687418E-002 
11000000000.000 -2.8763375119E-002 +3.0680964430E-002 
11100000000.000 -2.1162954601E-002 +6.2723300641E-002 
11200000000.000 +3.8073863294E-003 +5.1188303782E-002 
11300000000.000 +5.6850180625E-003 +2.9368999515E-002 
11400000000.000 -7.3151038746E-003 +5.4542385939E-002 
11500000000.000 +1.2555408575E-002 +4.8204667347E-002 
11600000000.000 -9.0034973396E-003 +2.6385393772E-002 
11700000000.000 +1.0598186348E-002 +2.8029217191E-002 
11800000000.000 -2.0913733109E-002 +1.4712841832E-002 
11900000000.000 -3.1913756212E-002 +2.5105785917E-002 
12000000000.000 -1.4339262076E-002 +4.5878101922E-002 
