!  1-Port S-parameters saved by WinCal
! VAR NAME=2-Port SOLT labuser 6
! VAR Error Term Name=ELdm phys rcv port 1 phys src port 2
!
# Hz S RI R 50
8000000000.000 -2.1127357806E-001 -1.7153895286E-001 
8100000000.000 -1.5960428081E-001 +1.2189065689E-002 
8200000000.000 -1.5732797680E-001 -3.3416090465E-003 
8300000000.000 -1.4115808190E-001 -4.5403786740E-004 
8400000000.000 -1.4735791393E-001 +3.8334283177E-002 
8500000000.000 -7.5405986642E-002 +5.4896825542E-002 
8600000000.000 -6.8844995243E-002 +4.1407254142E-002 
8700000000.000 -1.1468826967E-001 -4.4412129644E-002 
8800000000.000 -4.7200219897E-002 +6.3739257009E-002 
8900000000.000 -5.0044839926E-002 -5.3118757780E-002 
9000000000.000 -1.0658917202E-001 +9.8952681192E-003 
9100000000.000 -1.3370019035E-001 -2.5559351773E-002 
9200000000.000 -6.4551077516E-002 -3.0757623403E-003 
9300000000.000 -1.6060784630E-001 +3.8477740860E-002 
9400000000.000 -1.2302810593E-001 +6.7450226537E-002 
9500000000.000 -1.1003748078E-001 +1.1303672757E-001 
9600000000.000 -1.0921092865E-001 +1.9253134364E-002 
9700000000.000 -1.3417064182E-001 +1.6394011922E-001 
9800000000.000 -4.2989966583E-002 +2.4667550592E-002 
9900000000.000 -4.9242443453E-003 +1.4405392929E-001 
10000000000.000 -6.5132137367E-002 +6.0557112921E-002 
10100000000.000 +4.0170027632E-002 +5.9895803318E-002 
10200000000.000 -4.2339061932E-002 +2.2323615507E-002 
10300000000.000 +6.8747774697E-002 +6.2666175015E-003 
10400000000.000 -6.3739701848E-002 +1.1298654719E-002 
10500000000.000 -1.3452661506E-002 -2.2860821753E-002 
10600000000.000 -6.5001473268E-002 +5.2392228736E-002 
10700000000.000 -7.6113742310E-002 -5.8161116127E-002 
10800000000.000 -8.9102542126E-002 +1.0089714796E-001 
10900000000.000 -9.5177238085E-002 -2.8747779229E-002 
11000000000.000 +4.4392449615E-003 +9.9191455468E-002 
11100000000.000 -6.8460595294E-002 +9.1535397928E-002 
11200000000.000 +8.3784687710E-003 +1.1156769005E-001 
11300000000.000 -4.2296709230E-003 +1.1400627569E-001 
11400000000.000 +6.8025116601E-002 -5.7869420393E-003 
11500000000.000 -1.8329880993E-002 +1.2764321824E-001 
11600000000.000 +6.3923669607E-002 -5.3042030895E-002 
11700000000.000 -6.3074054256E-003 +4.8669127800E-002 
11800000000.000 -2.8107508841E-002 -8.9686024073E-002 
11900000000.000 +2.2302772833E-002 +6.6225381970E-004 
12000000000.000 -6.5458067610E-002 -5.2000587670E-002 
