!  2-Port S-parameters saved by WinCal
! VAR NAME=Inputdeem2 2
! VAR DATE=7/8/2025 1:03:28 PM
! VAR FILENAME=Inputdeem2.s2p
!
# Hz S MA R 50
1000000000.000 +3.4510000000E-002 -5.2474000000E+001  +9.5546000000E-001 +1.4325400000E+002  +9.5546000000E-001 +1.4325400000E+002  +9.7400000000E-003 -1.5665100000E+002 
1100000000.000 +1.7300000000E-003 +1.4715800000E+002  +9.5536000000E-001 +1.0021500000E+002  +9.5536000000E-001 +1.0021500000E+002  +2.0930000000E-002 -8.6808000000E+001 
1200000000.000 +3.3310000000E-002 +2.2127000000E+001  +9.5130000000E-001 +3.1716000000E+001  +9.5130000000E-001 +3.1716000000E+001  +5.7550000000E-002 -1.3526400000E+002 
1300000000.000 +4.2580000000E-002 -1.3763000000E+001  +9.5020000000E-001 -1.1510000000E+001  +9.5020000000E-001 -1.1510000000E+001  +4.5160000000E-002 -1.3096300000E+002 
1400000000.000 +5.3400000000E-003 -1.4097500000E+002  +9.4872000000E-001 -7.9752000000E+001  +9.4872000000E-001 -7.9752000000E+001  +2.9810000000E-002 -7.4282000000E+001 
1500000000.000 +3.2680000000E-002 -4.8862000000E+001  +9.5203000000E-001 -1.2242600000E+002  +9.5203000000E-001 -1.2242600000E+002  +9.4690000000E-002 -1.1242500000E+002 
1600000000.000 +5.0040000000E-002 -5.2985000000E+001  +9.4441000000E-001 +1.6851800000E+002  +9.4441000000E-001 +1.6851800000E+002  +6.4220000000E-002 -1.4214900000E+002 
1700000000.000 +3.7040000000E-002 -1.7426600000E+002  +9.4340000000E-001 +1.0043600000E+002  +9.4340000000E-001 +1.0043600000E+002  +4.4470000000E-002 -1.3593300000E+002 
1800000000.000 +2.3630000000E-002 +5.8720000000E+000  +9.4112000000E-001 +5.6915000000E+001  +9.4112000000E-001 +5.6915000000E+001  +4.5800000000E-002 -1.2117600000E+002 
1900000000.000 +5.1160000000E-002 -6.1944000000E+001  +9.3925000000E-001 -1.0985000000E+001  +9.3925000000E-001 -1.0985000000E+001  +7.7960000000E-002 -1.4834200000E+002 
2000000000.000 +4.9190000000E-002 -1.0876500000E+002  +9.3987000000E-001 -5.4456000000E+001  +9.3987000000E-001 -5.4456000000E+001  +5.0050000000E-002 -1.7451600000E+002 
2100000000.000 +3.0070000000E-002 +4.7334000000E+001  +9.3690000000E-001 -1.2255800000E+002  +9.3690000000E-001 -1.2255800000E+002  +6.0080000000E-002 -1.3471200000E+002 
2200000000.000 +5.2530000000E-002 -9.2428000000E+001  +9.3331000000E-001 -1.6556100000E+002  +9.3331000000E-001 -1.6556100000E+002  +7.5960000000E-002 -1.3798000000E+002 
2300000000.000 +6.9760000000E-002 -1.3201000000E+002  +9.3397000000E-001 +1.2633000000E+002  +9.3397000000E-001 +1.2633000000E+002  +1.0104000000E-001 -1.6607300000E+002 
2400000000.000 +4.7240000000E-002 +9.6806000000E+001  +9.3300000000E-001 +5.7822000000E+001  +9.3300000000E-001 +5.7822000000E+001  +6.0100000000E-002 -1.6193400000E+002 
2500000000.000 +3.6400000000E-002 -6.8262000000E+001  +9.3278000000E-001 +1.5319000000E+001  +9.3278000000E-001 +1.5319000000E+001  +8.6800000000E-002 -1.3170700000E+002 
2600000000.000 +7.6100000000E-002 -1.3374400000E+002  +9.2774000000E-001 -5.3608000000E+001  +9.2774000000E-001 -5.3608000000E+001  +1.0093000000E-001 -1.6317800000E+002 
2700000000.000 +9.6710000000E-002 +1.7475600000E+002  +9.2658000000E-001 -9.7226000000E+001  +9.2658000000E-001 -9.7226000000E+001  +8.0020000000E-002 +1.7142500000E+002 
2800000000.000 +4.5730000000E-002 -1.2634000000E+001  +9.2891000000E-001 -1.6467000000E+002  +9.2891000000E-001 -1.6467000000E+002  +6.9990000000E-002 -1.6056600000E+002 
2900000000.000 +7.2970000000E-002 -1.6551900000E+002  +9.3235000000E-001 +1.5268600000E+002  +9.3235000000E-001 +1.5268600000E+002  +1.2362000000E-001 -1.5832800000E+002 
3000000000.000 +1.0766000000E-001 +1.5916500000E+002  +9.2174000000E-001 +8.3422000000E+001  +9.2174000000E-001 +8.3422000000E+001  +1.1487000000E-001 +1.7719600000E+002 
3100000000.000 +7.4710000000E-002 +3.4597000000E+001  +9.2274000000E-001 +1.5441000000E+001  +9.2274000000E-001 +1.5441000000E+001  +8.5770000000E-002 +1.6863000000E+002 
3200000000.000 +4.5560000000E-002 -1.1670300000E+002  +9.2229000000E-001 -2.6942000000E+001  +9.2229000000E-001 -2.6942000000E+001  +7.1980000000E-002 -1.7266800000E+002 
3300000000.000 +9.1270000000E-002 +1.5871700000E+002  +9.1817000000E-001 -9.6154000000E+001  +9.1817000000E-001 -9.6154000000E+001  +1.1213000000E-001 -1.7740800000E+002 
3400000000.000 +1.2765000000E-001 +1.0486900000E+002  +9.1441000000E-001 -1.3896000000E+002  +9.1441000000E-001 -1.3896000000E+002  +1.4186000000E-001 +1.6472200000E+002 
3500000000.000 +6.7290000000E-002 -2.8516000000E+001  +9.1867000000E-001 +1.5262200000E+002  +9.1867000000E-001 +1.5262200000E+002  +8.0100000000E-002 +1.5825600000E+002 
3600000000.000 +6.3790000000E-002 +1.4347500000E+002  +9.2009000000E-001 +1.1101600000E+002  +9.2009000000E-001 +1.1101600000E+002  +9.6740000000E-002 -1.6110800000E+002 
3700000000.000 +9.8760000000E-002 +9.6715000000E+001  +9.1359000000E-001 +3.9812000000E+001  +9.1359000000E-001 +3.9812000000E+001  +1.1040000000E-001 +1.6720700000E+002 
3800000000.000 +9.4820000000E-002 -2.3941000000E+001  +9.1430000000E-001 -2.6872000000E+001  +9.1430000000E-001 -2.6872000000E+001  +9.7450000000E-002 +1.4047600000E+002 
3900000000.000 +5.8890000000E-002 -1.0183300000E+002  +9.1413000000E-001 -6.9846000000E+001  +9.1413000000E-001 -6.9846000000E+001  +6.2460000000E-002 +1.5492500000E+002 
4000000000.000 +5.8700000000E-002 +9.7304000000E+001  +9.1305000000E-001 -1.3855600000E+002  +9.1305000000E-001 -1.3855600000E+002  +8.1660000000E-002 +1.5261200000E+002 
4100000000.000 +8.5040000000E-002 +6.2110000000E+000  +9.0831000000E-001 +1.7848600000E+002  +9.0831000000E-001 +1.7848600000E+002  +9.5360000000E-002 +1.4322800000E+002 
4200000000.000 +7.3980000000E-002 -8.2297000000E+001  +9.1201000000E-001 +1.1002800000E+002  +9.1201000000E-001 +1.1002800000E+002  +7.9800000000E-002 +1.2745300000E+002 
4300000000.000 +5.0260000000E-002 -1.6886800000E+002  +9.1308000000E-001 +6.6877000000E+001  +9.1308000000E-001 +6.6877000000E+001  +4.7630000000E-002 +1.3680000000E+002 
4400000000.000 +6.0740000000E-002 -9.3140000000E+000  +9.1010000000E-001 -1.4620000000E+000  +9.1010000000E-001 -1.4620000000E+000  +6.5740000000E-002 +1.5223800000E+002 
4500000000.000 +8.7350000000E-002 -9.8619000000E+001  +9.0824000000E-001 -6.9358000000E+001  +9.0824000000E-001 -6.9358000000E+001  +8.4930000000E-002 +1.3152400000E+002 
4600000000.000 +6.3240000000E-002 -1.2733600000E+002  +9.0649000000E-001 -1.1300800000E+002  +9.0649000000E-001 -1.1300800000E+002  +6.6870000000E-002 +1.1115200000E+002 
4700000000.000 +3.0660000000E-002 +1.4198000000E+001  +9.0908000000E-001 +1.7927500000E+002  +9.0908000000E-001 +1.7927500000E+002  +5.2060000000E-002 +1.3381000000E+002 
4800000000.000 +3.3670000000E-002 -8.5088000000E+001  +9.0386000000E-001 +1.3461700000E+002  +9.0386000000E-001 +1.3461700000E+002  +6.5660000000E-002 +1.3671300000E+002 
4900000000.000 +6.8770000000E-002 -1.5173900000E+002  +9.0574000000E-001 +6.8108000000E+001  +9.0574000000E-001 +6.8108000000E+001  +7.6000000000E-002 +1.0805500000E+002 
5000000000.000 +5.1700000000E-002 +1.7812800000E+002  +9.0813000000E-001 +2.4916000000E+001  +9.0813000000E-001 +2.4916000000E+001  +4.0480000000E-002 +5.0082000000E+001 
5100000000.000 +3.7980000000E-002 -1.2923500000E+002  +9.0524000000E-001 -4.3535000000E+001  +9.0524000000E-001 -4.3535000000E+001  +4.1300000000E-002 +1.6311300000E+002 
5200000000.000 +7.5540000000E-002 -1.7351900000E+002  +9.0259000000E-001 -1.1176100000E+002  +9.0259000000E-001 -1.1176100000E+002  +7.4900000000E-002 +1.1818000000E+002 
5300000000.000 +7.6070000000E-002 +1.6060500000E+002  +9.0353000000E-001 -1.5468700000E+002  +9.0353000000E-001 -1.5468700000E+002  +6.9430000000E-002 +7.1989000000E+001 
5400000000.000 +2.3120000000E-002 -1.1132200000E+002  +9.0365000000E-001 +1.3694000000E+002  +9.0365000000E-001 +1.3694000000E+002  +1.9610000000E-002 +1.5463100000E+002 
5500000000.000 +5.5940000000E-002 +1.5219900000E+002  +9.0516000000E-001 +9.3733000000E+001  +9.0516000000E-001 +9.3733000000E+001  +9.0980000000E-002 +1.2501700000E+002 
5600000000.000 +5.9320000000E-002 +1.5267900000E+002  +9.0079000000E-001 +2.5217000000E+001  +9.0079000000E-001 +2.5217000000E+001  +5.8920000000E-002 +7.4587000000E+001 
5700000000.000 +2.6040000000E-002 +1.5535800000E+002  +9.0133000000E-001 -1.7649000000E+001  +9.0133000000E-001 -1.7649000000E+001  +3.0950000000E-002 -8.1972000000E+001 
5800000000.000 +6.5980000000E-002 +1.5550800000E+002  +9.0041000000E-001 -8.5737000000E+001  +9.0041000000E-001 -8.5737000000E+001  +7.2070000000E-002 +1.6443700000E+002 
5900000000.000 +6.6940000000E-002 +1.2688000000E+002  +8.9748000000E-001 -1.5411000000E+002  +8.9748000000E-001 -1.5411000000E+002  +6.8190000000E-002 +8.7194000000E+001 
6000000000.000 +2.8860000000E-002 +1.0702700000E+002  +8.9942000000E-001 +1.6282800000E+002  +8.9942000000E-001 +1.6282800000E+002  +4.4170000000E-002 -8.7060000000E+000 
6100000000.000 +6.2870000000E-002 +1.4558200000E+002  +8.9670000000E-001 +9.4558000000E+001  +8.9670000000E-001 +9.4558000000E+001  +5.1650000000E-002 -1.3583100000E+002 
6200000000.000 +8.6770000000E-002 +1.2104200000E+002  +8.9469000000E-001 +5.1327000000E+001  +8.9469000000E-001 +5.1327000000E+001  +9.1480000000E-002 +1.1570500000E+002 
6300000000.000 +2.7980000000E-002 +8.7713000000E+001  +8.9667000000E-001 -1.6840000000E+001  +8.9667000000E-001 -1.6840000000E+001  +4.7800000000E-002 +1.1799000000E+001 
6400000000.000 +6.2600000000E-002 +1.1066000000E+002  +8.9420000000E-001 -5.9487000000E+001  +8.9420000000E-001 -5.9487000000E+001  +6.2800000000E-002 -7.9651000000E+001 
6500000000.000 +9.5810000000E-002 +1.1136300000E+002  +8.9188000000E-001 -1.2791600000E+002  +8.9188000000E-001 -1.2791600000E+002  +7.4240000000E-002 +1.6130600000E+002 
6600000000.000 +5.2610000000E-002 +5.4714000000E+001  +8.9371000000E-001 +1.6360700000E+002  +8.9371000000E-001 +1.6360700000E+002  +4.6060000000E-002 +6.2649000000E+001 
6700000000.000 +3.8080000000E-002 +8.3266000000E+001  +8.9391000000E-001 +1.2044900000E+002  +8.9391000000E-001 +1.2044900000E+002  +5.3610000000E-002 -8.3980000000E+001 
6800000000.000 +9.0090000000E-002 +9.4275000000E+001  +8.8919000000E-001 +5.2223000000E+001  +8.8919000000E-001 +5.2223000000E+001  +7.1670000000E-002 -1.6077100000E+002 
6900000000.000 +5.6840000000E-002 +1.0041300000E+002  +8.9307000000E-001 +1.0107000000E+001  +8.9307000000E-001 +1.0107000000E+001  +5.6550000000E-002 +1.3208500000E+002 
7000000000.000 +1.4060000000E-002 +6.6875000000E+001  +8.9333000000E-001 -5.9112000000E+001  +8.9333000000E-001 -5.9112000000E+001  +4.1010000000E-002 -5.0968000000E+001 
7100000000.000 +7.9460000000E-002 +1.4068500000E+002  +8.9139000000E-001 -1.0177700000E+002  +8.9139000000E-001 -1.0177700000E+002  +8.8690000000E-002 -1.6364800000E+002 
7200000000.000 +4.3290000000E-002 +9.3621000000E+001  +8.8915000000E-001 -1.6969700000E+002  +8.8915000000E-001 -1.6969700000E+002  +7.9080000000E-002 +1.4566200000E+002 
7300000000.000 +2.5650000000E-002 -5.1770000000E+000  +8.8981000000E-001 +1.2125300000E+002  +8.8981000000E-001 +1.2125300000E+002  +2.1290000000E-002 -2.1140000000E+000 
7400000000.000 +5.9140000000E-002 +1.5898600000E+002  +8.8933000000E-001 +7.8492000000E+001  +8.8933000000E-001 +7.8492000000E+001  +7.9850000000E-002 -1.1344800000E+002 
7500000000.000 +4.6170000000E-002 +5.2457000000E+001  +8.8410000000E-001 +9.5220000000E+000  +8.8410000000E-001 +9.5220000000E+000  +5.3540000000E-002 +1.6895500000E+002 
7600000000.000 +2.7350000000E-002 -4.1283000000E+001  +8.7999000000E-001 -3.3360000000E+001  +8.7999000000E-001 -3.3360000000E+001  +2.5670000000E-002 +8.5610000000E+001 
7700000000.000 +3.6810000000E-002 +1.4009600000E+002  +8.8766000000E-001 -1.0156800000E+002  +8.8766000000E-001 -1.0156800000E+002  +5.7180000000E-002 -1.1089100000E+002 
7800000000.000 +8.6030000000E-002 +1.3238800000E+002  +8.8599000000E-001 -1.4406900000E+002  +8.8599000000E-001 -1.4406900000E+002  +1.0029000000E-001 -1.5261500000E+002 
7900000000.000 +2.8280000000E-002 -4.1170000000E+001  +8.8325000000E-001 +1.4713900000E+002  +8.8325000000E-001 +1.4713900000E+002  +2.4410000000E-002 -1.3487000000E+002 
8000000000.000 +2.9930000000E-002 +1.1616600000E+002  +8.8404000000E-001 +7.8758000000E+001  +8.8404000000E-001 +7.8758000000E+001  +5.4500000000E-002 -1.2483800000E+002 
8100000000.000 +6.7700000000E-002 +1.1220200000E+002  +8.8399000000E-001 +3.5693000000E+001  +8.8399000000E-001 +3.5693000000E+001  +8.9460000000E-002 -1.6573200000E+002 
8200000000.000 +3.3160000000E-002 -7.0870000000E+000  +8.8252000000E-001 -3.2531000000E+001  +8.8252000000E-001 -3.2531000000E+001  +3.3840000000E-002 +1.6992700000E+002 
8300000000.000 +2.8450000000E-002 +7.1157000000E+001  +8.8312000000E-001 -7.5402000000E+001  +8.8312000000E-001 -7.5402000000E+001  +6.3000000000E-002 -1.2845500000E+002 
8400000000.000 +6.4330000000E-002 +8.9231000000E+001  +8.7979000000E-001 -1.4402000000E+002  +8.7979000000E-001 -1.4402000000E+002  +8.2810000000E-002 -1.6668200000E+002 
8500000000.000 +3.3500000000E-002 +5.8676000000E+001  +8.8010000000E-001 +1.7286100000E+002  +8.8010000000E-001 +1.7286100000E+002  +7.6110000000E-002 +1.7067900000E+002 
8600000000.000 +1.8960000000E-002 +6.1632000000E+001  +8.8043000000E-001 +1.0493200000E+002  +8.8043000000E-001 +1.0493200000E+002  +3.6940000000E-002 -1.3045800000E+002 
8700000000.000 +7.1540000000E-002 +5.9013000000E+001  +8.7739000000E-001 +3.6437000000E+001  +8.7739000000E-001 +3.6437000000E+001  +9.3140000000E-002 -1.6360700000E+002 
8800000000.000 +4.1870000000E-002 +6.3052000000E+001  +8.7719000000E-001 -6.5430000000E+000  +8.7719000000E-001 -6.5430000000E+000  +5.5620000000E-002 +1.5345100000E+002 
8900000000.000 +1.8060000000E-002 +2.8826000000E+001  +8.7828000000E-001 -7.4846000000E+001  +8.7828000000E-001 -7.4846000000E+001  +2.6450000000E-002 -1.7074300000E+002 
9000000000.000 +4.4620000000E-002 +9.7070000000E+001  +8.7775000000E-001 -1.1771300000E+002  +8.7775000000E-001 -1.1771300000E+002  +7.9190000000E-002 -1.5403500000E+002 
9100000000.000 +6.0140000000E-002 +1.1190000000E+001  +8.7564000000E-001 +1.7368200000E+002  +8.7564000000E-001 +1.7368200000E+002  +9.6490000000E-002 +1.6764400000E+002 
9200000000.000 +7.8100000000E-003 -5.8902000000E+001  +8.7716000000E-001 +1.3093700000E+002  +8.7716000000E-001 +1.3093700000E+002  +4.9130000000E-002 -1.6825000000E+002 
9300000000.000 +4.0810000000E-002 +1.0097900000E+002  +8.7455000000E-001 +6.2399000000E+001  +8.7455000000E-001 +6.2399000000E+001  +8.5790000000E-002 -1.4954800000E+002 
9400000000.000 +8.8790000000E-002 +1.4760000000E+000  +8.7228000000E-001 -5.6710000000E+000  +8.7228000000E-001 -5.6710000000E+000  +1.1098000000E-001 +1.6702700000E+002 
9500000000.000 +2.4090000000E-002 -5.5967000000E+001  +8.7531000000E-001 -4.8951000000E+001  +8.7531000000E-001 -4.8951000000E+001  +6.6840000000E-002 +1.3602400000E+002 
9600000000.000 +5.1740000000E-002 +6.9761000000E+001  +8.7249000000E-001 -1.1729100000E+002  +8.7249000000E-001 -1.1729100000E+002  +8.2890000000E-002 -1.5621900000E+002 
9700000000.000 +6.9240000000E-002 +2.5305000000E+001  +8.6443000000E-001 -1.6217300000E+002  +8.6443000000E-001 -1.6217300000E+002  +1.4044000000E-001 -1.7262400000E+002 
9800000000.000 +7.0370000000E-002 -7.0302000000E+001  +8.7429000000E-001 +1.3245600000E+002  +8.7429000000E-001 +1.3245600000E+002  +1.1471000000E-001 +1.4410600000E+002 
9900000000.000 +3.3960000000E-002 -1.7717600000E+002  +8.7345000000E-001 +8.8438000000E+001  +8.7345000000E-001 +8.8438000000E+001  +6.0520000000E-002 +1.3924100000E+002 
10000000000.000 +2.7780000000E-002 +1.4853000000E+001  +8.6727000000E-001 +1.9526000000E+001  +8.6727000000E-001 +1.9526000000E+001  +1.0821000000E-001 +1.7462500000E+002 
10100000000.000 +9.8460000000E-002 -5.8012000000E+001  +8.6855000000E-001 -4.7707000000E+001  +8.6855000000E-001 -4.7707000000E+001  +1.1966000000E-001 +1.3905900000E+002 
10200000000.000 +5.3830000000E-002 -1.4111600000E+002  +8.7546000000E-001 -9.0521000000E+001  +8.7546000000E-001 -9.0521000000E+001  +1.0525000000E-001 +1.1917600000E+002 
10300000000.000 +4.5010000000E-002 +2.4478000000E+001  +8.7163000000E-001 -1.5911400000E+002  +8.7163000000E-001 -1.5911400000E+002  +8.3690000000E-002 +1.6417500000E+002 
10400000000.000 +7.0920000000E-002 -9.2167000000E+001  +8.7054000000E-001 +1.5705900000E+002  +8.7054000000E-001 +1.5705900000E+002  +1.3198000000E-001 +1.4302300000E+002 
10500000000.000 +5.7780000000E-002 -1.4475900000E+002  +8.6952000000E-001 +8.9888000000E+001  +8.6952000000E-001 +8.9888000000E+001  +9.1410000000E-002 +1.2168600000E+002 
10600000000.000 +4.2120000000E-002 +1.3413000000E+002  +8.7101000000E-001 +4.5873000000E+001  +8.7101000000E-001 +4.5873000000E+001  +6.9090000000E-002 +1.1175300000E+002 
10700000000.000 +4.3800000000E-002 -6.1193000000E+001  +8.7146000000E-001 -2.1831000000E+001  +8.7146000000E-001 -2.1831000000E+001  +9.2240000000E-002 +1.4062700000E+002 
10800000000.000 +6.8210000000E-002 -1.3144000000E+002  +8.6812000000E-001 -9.0046000000E+001  +8.6812000000E-001 -9.0046000000E+001  +9.0040000000E-002 +1.2081200000E+002 
10900000000.000 +5.5180000000E-002 +1.4330500000E+002  +8.6996000000E-001 -1.3237900000E+002  +8.6996000000E-001 -1.3237900000E+002  +7.5580000000E-002 +1.1866300000E+002 
11000000000.000 +4.2880000000E-002 -1.2068000000E+001  +8.6847000000E-001 +1.5871800000E+002  +8.6847000000E-001 +1.5871800000E+002  +7.5790000000E-002 +1.2208500000E+002 
11100000000.000 +4.8670000000E-002 -1.4986100000E+002  +8.6957000000E-001 +1.1519500000E+002  +8.6957000000E-001 +1.1519500000E+002  +8.6110000000E-002 +1.1705500000E+002 
11200000000.000 +5.7680000000E-002 +1.5686900000E+002  +8.6834000000E-001 +4.7328000000E+001  +8.6834000000E-001 +4.7328000000E+001  +7.8770000000E-002 +1.0812800000E+002 
11300000000.000 +3.4400000000E-002 +1.3111500000E+002  +8.7011000000E-001 +4.3360000000E+000  +8.7011000000E-001 +4.3360000000E+000  +6.9630000000E-002 +9.8431000000E+001 
11400000000.000 +1.7590000000E-002 -1.0748300000E+002  +8.6978000000E-001 -6.3817000000E+001  +8.6978000000E-001 -6.3817000000E+001  +4.3370000000E-002 +1.0318700000E+002 
11500000000.000 +5.0550000000E-002 +1.1258400000E+002  +8.6758000000E-001 -1.3252600000E+002  +8.6758000000E-001 -1.3252600000E+002  +4.8830000000E-002 +1.2862000000E+002 
11600000000.000 +5.1620000000E-002 +3.9582000000E+001  +8.6774000000E-001 -1.7459100000E+002  +8.6774000000E-001 -1.7459100000E+002  +6.4370000000E-002 +1.1110400000E+002 
11700000000.000 +2.9650000000E-002 -5.8532000000E+001  +8.6794000000E-001 +1.1615300000E+002  +8.6794000000E-001 +1.1615300000E+002  +4.9860000000E-002 +8.3266000000E+001 
11800000000.000 +5.4060000000E-002 -1.4021200000E+002  +8.6672000000E-001 +7.3216000000E+001  +8.6672000000E-001 +7.3216000000E+001  +3.2910000000E-002 +1.2153200000E+002 
11900000000.000 +5.4920000000E-002 +3.4571000000E+001  +8.6427000000E-001 +5.0670000000E+000  +8.6427000000E-001 +5.0670000000E+000  +6.3270000000E-002 +1.1427300000E+002 
12000000000.000 +3.6100000000E-002 -6.3433000000E+001  +8.7125000000E-001 -3.6878000000E+001  +8.7125000000E-001 -3.6878000000E+001  +6.6680000000E-002 +8.1846000000E+001 
12100000000.000 +2.5680000000E-002 -1.1562600000E+002  +8.6906000000E-001 -1.0632200000E+002  +8.6906000000E-001 -1.0632200000E+002  +1.4710000000E-002 +2.1291000000E+001 
12200000000.000 +7.5820000000E-002 +4.5044000000E+001  +8.6409000000E-001 -1.7486400000E+002  +8.6409000000E-001 -1.7486400000E+002  +5.8150000000E-002 +1.2478500000E+002 
12300000000.000 +4.1500000000E-002 -3.5161000000E+001  +8.6231000000E-001 +1.4226500000E+002  +8.6231000000E-001 +1.4226500000E+002  +6.8050000000E-002 +8.0465000000E+001 
12400000000.000 +9.0200000000E-003 +3.0505000000E+001  +8.6602000000E-001 +7.3855000000E+001  +8.6602000000E-001 +7.3855000000E+001  +2.7070000000E-002 +1.3859000000E+001 
