!  2-Port S-parameters saved by WinCal
! VAR NAME=Outputdeem2 2
! VAR DATE=7/8/2025 1:03:38 PM
! VAR FILENAME=Outputdeem2.s2p
!
# Hz S MA R 50
1000000000.000 +5.3730000000E-002 -1.2572300000E+002  +9.0890000000E-001 +9.0248000000E+001  +9.0890000000E-001 +9.0248000000E+001  +4.6080000000E-002 -6.8834000000E+001 
1100000000.000 +8.6300000000E-003 -1.4850900000E+002  +9.0617000000E-001 +1.6174000000E+001  +9.0617000000E-001 +1.6174000000E+001  +2.2950000000E-002 -9.5382000000E+001 
1200000000.000 +4.0660000000E-002 -1.7093800000E+002  +9.0284000000E-001 -1.0126600000E+002  +9.0284000000E-001 -1.0126600000E+002  +6.6440000000E-002 -1.0309300000E+002 
1300000000.000 +1.5140000000E-002 +1.2386200000E+002  +9.0026000000E-001 -1.7534700000E+002  +9.0026000000E-001 -1.7534700000E+002  +7.6000000000E-002 -1.6478100000E+002 
1400000000.000 +4.0520000000E-002 +1.6520700000E+002  +8.9811000000E-001 +6.7477000000E+001  +8.9811000000E-001 +6.7477000000E+001  +7.7960000000E-002 -1.1712200000E+002 
1500000000.000 +1.2110000000E-002 +1.0245700000E+002  +8.9724000000E-001 -6.4400000000E+000  +8.9724000000E-001 -6.4400000000E+000  +1.3780000000E-002 -3.2281000000E+001 
1600000000.000 +2.1300000000E-002 +7.4097000000E+001  +8.9227000000E-001 +5.6055000000E+001  +8.9227000000E-001 +5.6055000000E+001  +8.9250000000E-002 -1.1027900000E+002 
1700000000.000 +4.4290000000E-002 -1.3649600000E+002  +8.9012000000E-001 -6.1137000000E+001  +8.9012000000E-001 -6.1137000000E+001  +5.8240000000E-002 -1.4773600000E+002 
1800000000.000 +5.0350000000E-002 +1.4962400000E+002  +8.8936000000E-001 -1.3524600000E+002  +8.8936000000E-001 -1.3524600000E+002  +5.8150000000E-002 -1.1842300000E+002 
1900000000.000 +2.4360000000E-002 +1.3806500000E+002  +8.8629000000E-001 +1.0750200000E+002  +8.8629000000E-001 +1.0750200000E+002  +5.8700000000E-002 -1.3533300000E+002 
2000000000.000 +4.1720000000E-002 +1.0539300000E+002  +8.8578000000E-001 +3.3973000000E+001  +8.8578000000E-001 +3.3973000000E+001  +1.1279000000E-001 -1.5871700000E+002 
2100000000.000 +1.1230000000E-002 +6.1876000000E+001  +8.8223000000E-001 +9.6171000000E+001  +8.8223000000E-001 +9.6171000000E+001  +3.7790000000E-002 -1.7291800000E+002 
2200000000.000 +1.0130000000E-002 -5.1477000000E+001  +8.7833000000E-001 +2.2128000000E+001  +8.7833000000E-001 +2.2128000000E+001  +1.2573000000E-001 -1.2387100000E+002 
2300000000.000 +5.2050000000E-002 +1.3584600000E+002  +8.7815000000E-001 -9.5096000000E+001  +8.7815000000E-001 -9.5096000000E+001  +9.4240000000E-002 -1.7378900000E+002 
2400000000.000 +1.0580000000E-002 -7.1860000000E+000  +8.7635000000E-001 +1.4766900000E+002  +8.7635000000E-001 +1.4766900000E+002  +6.7690000000E-002 -1.5178900000E+002 
2500000000.000 +5.4690000000E-002 +1.0965400000E+002  +8.7600000000E-001 +7.3521000000E+001  +8.7600000000E-001 +7.3521000000E+001  +4.7160000000E-002 -1.5541500000E+002 
2600000000.000 +1.2340000000E-002 -7.7395000000E+001  +8.7170000000E-001 -4.3589000000E+001  +8.7170000000E-001 -4.3589000000E+001  +9.9840000000E-002 -1.6161300000E+002 
2700000000.000 +5.5970000000E-002 +1.1428500000E+002  +8.7068000000E-001 +6.2239000000E+001  +8.7068000000E-001 +6.2239000000E+001  +8.3640000000E-002 +1.6692800000E+002 
2800000000.000 +8.9800000000E-003 -9.5143000000E+001  +8.6968000000E-001 -5.4872000000E+001  +8.6968000000E-001 -5.4872000000E+001  +8.3430000000E-002 -1.6036100000E+002 
2900000000.000 +6.2250000000E-002 +8.4748000000E+001  +8.7001000000E-001 -1.2957400000E+002  +8.7001000000E-001 -1.2957400000E+002  +8.6310000000E-002 +1.6645300000E+002 
3000000000.000 +3.2850000000E-002 -1.5697100000E+002  +8.6375000000E-001 +1.1359700000E+002  +8.6375000000E-001 +1.1359700000E+002  +7.8020000000E-002 +1.7900600000E+002 
3100000000.000 +7.7100000000E-002 -3.8370000000E+000  +8.6511000000E-001 -3.1860000000E+000  +8.6511000000E-001 -3.1860000000E+000  +8.4770000000E-002 +1.5991000000E+002 
3200000000.000 +1.3970000000E-002 -1.5612100000E+002  +8.6227000000E-001 -7.7159000000E+001  +8.6227000000E-001 -7.7159000000E+001  +1.1065000000E-001 -1.6876100000E+002 
3300000000.000 +7.2230000000E-002 -3.7545000000E+001  +8.6137000000E-001 -1.4383000000E+001  +8.6137000000E-001 -1.4383000000E+001  +1.0235000000E-001 +1.6210400000E+002 
3400000000.000 +4.4950000000E-002 +1.7409700000E+002  +8.5926000000E-001 -8.8498000000E+001  +8.5926000000E-001 -8.8498000000E+001  +1.3996000000E-001 +1.6068700000E+002 
3500000000.000 +7.2180000000E-002 -3.1909000000E+001  +8.6114000000E-001 +1.5485900000E+002  +8.6114000000E-001 +1.5485900000E+002  +8.8900000000E-002 +1.4749100000E+002 
3600000000.000 +3.7960000000E-002 -1.4694600000E+002  +8.5802000000E-001 +8.0160000000E+001  +8.5802000000E-001 +8.0160000000E+001  +9.4570000000E-002 +1.6125400000E+002 
3700000000.000 +7.4080000000E-002 -1.2330100000E+002  +8.5730000000E-001 -3.7265000000E+001  +8.5730000000E-001 -3.7265000000E+001  +7.3580000000E-002 +1.5264800000E+002 
3800000000.000 +7.6890000000E-002 +1.0291800000E+002  +8.5200000000E-001 +2.5956000000E+001  +8.5200000000E-001 +2.5956000000E+001  +1.4088000000E-001 +1.3624200000E+002 
3900000000.000 +3.4490000000E-002 -2.4268000000E+001  +8.5689000000E-001 -4.7717000000E+001  +8.5689000000E-001 -4.7717000000E+001  +6.3540000000E-002 +1.1821000000E+002 
4000000000.000 +1.9110000000E-002 +1.3572000000E+001  +8.5407000000E-001 -1.6528500000E+002  +8.5407000000E-001 -1.6528500000E+002  +9.5080000000E-002 +1.4195100000E+002 
4100000000.000 +8.9040000000E-002 -1.3583000000E+002  +8.5531000000E-001 +1.1986600000E+002  +8.5531000000E-001 +1.1986600000E+002  +1.0768000000E-001 +1.1299600000E+002 
4200000000.000 +7.8320000000E-002 +1.1552400000E+002  +8.4989000000E-001 +3.5230000000E+000  +8.4989000000E-001 +3.5230000000E+000  +1.2199000000E-001 +9.1042000000E+001 
4300000000.000 +3.8520000000E-002 +1.3143100000E+002  +8.5290000000E-001 -7.0752000000E+001  +8.5290000000E-001 -7.0752000000E+001  +6.9070000000E-002 +1.2518000000E+002 
4400000000.000 +5.0540000000E-002 +7.1119000000E+001  +8.4907000000E-001 -7.8820000000E+000  +8.4907000000E-001 -7.8820000000E+000  +1.1545000000E-001 +1.1183900000E+002 
4500000000.000 +5.2260000000E-002 +1.5783100000E+002  +8.5125000000E-001 -1.2497000000E+002  +8.5125000000E-001 -1.2497000000E+002  +7.0270000000E-002 +1.0656000000E+002 
4600000000.000 +4.3240000000E-002 +8.7795000000E+001  +8.4999000000E-001 +1.6106900000E+002  +8.4999000000E-001 +1.6106900000E+002  +7.3950000000E-002 +8.9773000000E+001 
4700000000.000 +4.6660000000E-002 +8.3148000000E+001  +8.4976000000E-001 +4.3732000000E+001  +8.4976000000E-001 +4.3732000000E+001  +5.1160000000E-002 +1.3466900000E+002 
4800000000.000 +1.4120000000E-002 +2.0110000000E+001  +8.4891000000E-001 -3.0286000000E+001  +8.4891000000E-001 -3.0286000000E+001  +8.1160000000E-002 +1.0872800000E+002 
4900000000.000 +6.5310000000E-002 +1.0829400000E+002  +8.4798000000E-001 -1.4726500000E+002  +8.4798000000E-001 -1.4726500000E+002  +7.3280000000E-002 +1.1397000000E+002 
5000000000.000 +6.0910000000E-002 +6.5648000000E+001  +8.4565000000E-001 +1.3801400000E+002  +8.4565000000E-001 +1.3801400000E+002  +7.6130000000E-002 +5.5411000000E+001 
5100000000.000 +5.9670000000E-002 +3.0361000000E+001  +8.4764000000E-001 -1.5877600000E+002  +8.4764000000E-001 -1.5877600000E+002  +2.6140000000E-002 +1.1338300000E+002 
5200000000.000 +2.1870000000E-002 -1.1319000000E+002  +8.4647000000E-001 +8.3996000000E+001  +8.4647000000E-001 +8.3996000000E+001  +6.7330000000E-002 +8.0451000000E+001 
5300000000.000 +1.9900000000E-002 +1.2747400000E+002  +8.4875000000E-001 +9.8900000000E+000  +8.4875000000E-001 +9.8900000000E+000  +4.6400000000E-002 +4.7924000000E+001 
5400000000.000 +4.9120000000E-002 +7.4407000000E+001  +8.4464000000E-001 -1.0746500000E+002  +8.4464000000E-001 -1.0746500000E+002  +6.2800000000E-003 +1.0494500000E+002 
5500000000.000 +6.5500000000E-002 +1.9571000000E+001  +8.4325000000E-001 +1.7892300000E+002  +8.4325000000E-001 +1.7892300000E+002  +8.5660000000E-002 +1.3269800000E+002 
5600000000.000 +2.8760000000E-002 -1.2736500000E+002  +8.4329000000E-001 -1.1850400000E+002  +8.4329000000E-001 -1.1850400000E+002  +8.8320000000E-002 +6.2362000000E+001 
5700000000.000 +3.8530000000E-002 +1.2691300000E+002  +8.4860000000E-001 +1.6781200000E+002  +8.4860000000E-001 +1.6781200000E+002  +9.9570000000E-002 -4.3913000000E+001 
5800000000.000 +8.6620000000E-002 +7.9988000000E+001  +8.3964000000E-001 +5.0281000000E+001  +8.3964000000E-001 +5.0281000000E+001  +1.1290000000E-002 +1.5824200000E+002 
5900000000.000 +6.7210000000E-002 -5.3488000000E+001  +8.4028000000E-001 -6.7155000000E+001  +8.4028000000E-001 -6.7155000000E+001  +6.6490000000E-002 +6.5113000000E+001 
6000000000.000 +2.9390000000E-002 -1.0179800000E+002  +8.4142000000E-001 -1.4090200000E+002  +8.4142000000E-001 -1.4090200000E+002  +8.9160000000E-002 +4.0602000000E+001 
6100000000.000 +9.4210000000E-002 +1.5030700000E+002  +8.3259000000E-001 -7.8809000000E+001  +8.3259000000E-001 -7.8809000000E+001  +7.8560000000E-002 -1.2149000000E+002 
6200000000.000 +1.3236000000E-001 +8.8228000000E+001  +8.2758000000E-001 -1.5444700000E+002  +8.2758000000E-001 -1.5444700000E+002  +8.4850000000E-002 +1.3649800000E+002 
6300000000.000 +7.0280000000E-002 -1.7174000000E+001  +8.3666000000E-001 +9.0877000000E+001  +8.3666000000E-001 +9.0877000000E+001  +1.0514000000E-001 -4.6650000000E+000 
6400000000.000 +9.8510000000E-002 -5.6246000000E+001  +8.3258000000E-001 +1.4359000000E+001  +8.3258000000E-001 +1.4359000000E+001  +1.1760000000E-002 -1.0917200000E+002 
6500000000.000 +1.0114000000E-001 +1.6609500000E+002  +8.2915000000E-001 -1.0080800000E+002  +8.2915000000E-001 -1.0080800000E+002  +7.9080000000E-002 +1.7051300000E+002 
6600000000.000 +6.0060000000E-002 +1.7120000000E+001  +8.2940000000E-001 +1.4190700000E+002  +8.2940000000E-001 +1.4190700000E+002  +7.0930000000E-002 +3.8279000000E+001 
6700000000.000 +7.5510000000E-002 +2.9980000000E+001  +8.2812000000E-001 -1.1254300000E+002  +8.2812000000E-001 -1.1254300000E+002  +6.3180000000E-002 -9.6266000000E+001 
6800000000.000 +1.3185000000E-001 -7.6038000000E+001  +8.2119000000E-001 +1.3033500000E+002  +8.2119000000E-001 +1.3033500000E+002  +6.1570000000E-002 +1.5825500000E+002 
6900000000.000 +7.7380000000E-002 -1.5208800000E+002  +8.2504000000E-001 +5.7053000000E+001  +8.2504000000E-001 +5.7053000000E+001  +1.5670000000E-002 +1.5096300000E+002 
7000000000.000 +1.4570000000E-002 -1.0943800000E+002  +8.2513000000E-001 -6.0420000000E+001  +8.2513000000E-001 -6.0420000000E+001  +5.0880000000E-002 -1.6350000000E+001 
7100000000.000 +6.4270000000E-002 +7.9476000000E+001  +8.1956000000E-001 -1.3436600000E+002  +8.1956000000E-001 -1.3436600000E+002  +1.0018000000E-001 -1.5881700000E+002 
7200000000.000 +9.5440000000E-002 -8.7145000000E+001  +8.1798000000E-001 +1.0831500000E+002  +8.1798000000E-001 +1.0831500000E+002  +4.5090000000E-002 +8.9342000000E+001 
7300000000.000 +3.0960000000E-002 +6.6555000000E+001  +8.1992000000E-001 +1.7127500000E+002  +8.1992000000E-001 +1.7127500000E+002  +5.8100000000E-003 -1.2339300000E+002 
7400000000.000 +4.8470000000E-002 -1.7266400000E+002  +8.1953000000E-001 +9.6979000000E+001  +8.1953000000E-001 +9.6979000000E+001  +1.1180000000E-002 -7.4476000000E+001 
7500000000.000 +9.0580000000E-002 +2.1406000000E+001  +8.1304000000E-001 -1.9939000000E+001  +8.1304000000E-001 -1.9939000000E+001  +7.5010000000E-002 +1.5336200000E+002 
7600000000.000 +5.0640000000E-002 -8.0046000000E+001  +8.1687000000E-001 -9.3775000000E+001  +8.1687000000E-001 -9.3775000000E+001  +4.1270000000E-002 -3.9528000000E+001 
7700000000.000 +2.8410000000E-002 -5.6029000000E+001  +8.1835000000E-001 +1.4904300000E+002  +8.1835000000E-001 +1.4904300000E+002  +6.8580000000E-002 -1.3063100000E+002 
7800000000.000 +8.0310000000E-002 +1.6146700000E+002  +8.1165000000E-001 +7.3726000000E+001  +8.1165000000E-001 +7.3726000000E+001  +2.5660000000E-002 +1.7192400000E+002 
7900000000.000 +7.7760000000E-002 +4.0859000000E+001  +8.1532000000E-001 +1.3807500000E+002  +8.1532000000E-001 +1.3807500000E+002  +3.9720000000E-002 +1.3818700000E+002 
8000000000.000 +4.1650000000E-002 +1.6073000000E+001  +8.1716000000E-001 +2.0569000000E+001  +8.1716000000E-001 +2.0569000000E+001  +7.9010000000E-002 -1.2221900000E+002 
8100000000.000 +5.6980000000E-002 -6.1173000000E+001  +8.1447000000E-001 -5.3538000000E+001  +8.1447000000E-001 -5.3538000000E+001  +5.6930000000E-002 +1.6733600000E+002 
8200000000.000 +2.5000000000E-002 +6.9166000000E+001  +8.1629000000E-001 -1.7059100000E+002  +8.1629000000E-001 -1.7059100000E+002  +5.2520000000E-002 -1.4916300000E+002 
8300000000.000 +3.7900000000E-002 -2.0003000000E+001  +8.1665000000E-001 +1.1545200000E+002  +8.1665000000E-001 +1.1545200000E+002  +5.9280000000E-002 -1.7357200000E+002 
8400000000.000 +5.2510000000E-002 -2.1350000000E+000  +8.1419000000E-001 +1.7838900000E+002  +8.1419000000E-001 +1.7838900000E+002  +8.8540000000E-002 -1.5782400000E+002 
8500000000.000 +5.8890000000E-002 -4.3576000000E+001  +8.1334000000E-001 +1.0427500000E+002  +8.1334000000E-001 +1.0427500000E+002  +3.8940000000E-002 +1.2878400000E+002 
8600000000.000 +4.4930000000E-002 -1.7700000000E+000  +8.1275000000E-001 -1.3591000000E+001  +8.1275000000E-001 -1.3591000000E+001  +5.9890000000E-002 -1.6876800000E+002 
8700000000.000 +4.2800000000E-002 -1.0402800000E+002  +8.1248000000E-001 -1.3020800000E+002  +8.1248000000E-001 -1.3020800000E+002  +3.1050000000E-002 +1.6621300000E+002 
8800000000.000 +4.6100000000E-002 -6.4624000000E+001  +8.1147000000E-001 +1.5607200000E+002  +8.1147000000E-001 +1.5607200000E+002  +7.0580000000E-002 -1.5793900000E+002 
8900000000.000 +4.1630000000E-002 -1.4150600000E+002  +8.1177000000E-001 +3.8608000000E+001  +8.1177000000E-001 +3.8608000000E+001  +4.8170000000E-002 +1.5304500000E+002 
9000000000.000 +2.3620000000E-002 -7.0621000000E+001  +8.1005000000E-001 -3.5551000000E+001  +8.1005000000E-001 -3.5551000000E+001  +5.9520000000E-002 +1.6503100000E+002 
9100000000.000 +1.1670000000E-002 -8.7378000000E+001  +8.1142000000E-001 +2.7318000000E+001  +8.1142000000E-001 +2.7318000000E+001  +5.2180000000E-002 -1.7588100000E+002 
9200000000.000 +3.7130000000E-002 -1.0715100000E+002  +8.1124000000E-001 -4.6532000000E+001  +8.1124000000E-001 -4.6532000000E+001  +9.4650000000E-002 -1.5796200000E+002 
9300000000.000 +1.2150000000E-002 -1.2166800000E+002  +8.0956000000E-001 -1.6391700000E+002  +8.0956000000E-001 -1.6391700000E+002  +6.0850000000E-002 +1.5777700000E+002 
9400000000.000 +2.4610000000E-002 -1.6581500000E+002  +8.0947000000E-001 +7.8889000000E+001  +8.0947000000E-001 +7.8889000000E+001  +8.7090000000E-002 +1.6285000000E+002 
9500000000.000 +2.0990000000E-002 -4.8822000000E+001  +8.1171000000E-001 +5.2620000000E+000  +8.1171000000E-001 +5.2620000000E+000  +8.8310000000E-002 -1.7978300000E+002 
9600000000.000 +4.0490000000E-002 -1.4050800000E+002  +8.0775000000E-001 +6.7653000000E+001  +8.0775000000E-001 +6.7653000000E+001  +8.6390000000E-002 +1.4558000000E+002 
9700000000.000 +7.7200000000E-003 -1.0335800000E+002  +8.0960000000E-001 -6.2470000000E+000  +8.0960000000E-001 -6.2470000000E+000  +1.0216000000E-001 +1.4267300000E+002 
9800000000.000 +1.8090000000E-002 -1.5425100000E+002  +8.0761000000E-001 -1.2358400000E+002  +8.0761000000E-001 -1.2358400000E+002  +8.8110000000E-002 +1.4290000000E+002 
9900000000.000 +1.6420000000E-002 -7.5304000000E+001  +8.1163000000E-001 +1.6266900000E+002  +8.1163000000E-001 +1.6266900000E+002  +7.5960000000E-002 +1.5834600000E+002 
10000000000.000 +1.7610000000E-002 -3.1431000000E+001  +8.0430000000E-001 +4.4921000000E+001  +8.0430000000E-001 +4.4921000000E+001  +6.5630000000E-002 +1.5051700000E+002 
10100000000.000 +7.2680000000E-002 -1.2345300000E+002  +8.0461000000E-001 +1.0800700000E+002  +8.0461000000E-001 +1.0800700000E+002  +1.2481000000E-001 +1.3975700000E+002 
10200000000.000 +4.1810000000E-002 +1.4463700000E+002  +8.0760000000E-001 +3.4788000000E+001  +8.0760000000E-001 +3.4788000000E+001  +1.6675000000E-001 +1.1891100000E+002 
10300000000.000 +2.6280000000E-002 +1.6751100000E+002  +8.0598000000E-001 -8.3204000000E+001  +8.0598000000E-001 -8.3204000000E+001  +7.4370000000E-002 +1.4652800000E+002 
10400000000.000 +4.6820000000E-002 +7.7702000000E+001  +8.0289000000E-001 -1.5871900000E+002  +8.0289000000E-001 -1.5871900000E+002  +8.0380000000E-002 +1.5640800000E+002 
10500000000.000 +7.5150000000E-002 -1.1582000000E+002  +8.0640000000E-001 +8.6009000000E+001  +8.0640000000E-001 +8.6009000000E+001  +1.4531000000E-001 +9.1619000000E+001 
10600000000.000 +3.5310000000E-002 -1.4145900000E+002  +7.9802000000E-001 +1.0117000000E+001  +7.9802000000E-001 +1.0117000000E+001  +8.9770000000E-002 +1.1471700000E+002 
10700000000.000 +8.2120000000E-002 +1.7008000000E+002  +8.0329000000E-001 -1.0527400000E+002  +8.0329000000E-001 -1.0527400000E+002  +1.2347000000E-001 +1.1817000000E+002 
10800000000.000 +3.1770000000E-002 +3.3842000000E+001  +8.0511000000E-001 -4.2700000000E+001  +8.0511000000E-001 -4.2700000000E+001  +8.0960000000E-002 +7.9541000000E+001 
10900000000.000 +9.8900000000E-003 +1.2930100000E+002  +8.0477000000E-001 -1.1696900000E+002  +8.0477000000E-001 -1.1696900000E+002  +9.0630000000E-002 +1.0010200000E+002 
11000000000.000 +5.0740000000E-002 -1.0059100000E+002  +8.0299000000E-001 +1.2586000000E+002  +8.0299000000E-001 +1.2586000000E+002  +8.8100000000E-002 +1.1472700000E+002 
11100000000.000 +5.3290000000E-002 -1.7625400000E+002  +8.0545000000E-001 +5.1683000000E+001  +8.0545000000E-001 +5.1683000000E+001  +1.0143000000E-001 +5.0688000000E+001 
11200000000.000 +4.5150000000E-002 +1.6007500000E+002  +8.0312000000E-001 -6.4887000000E+001  +8.0312000000E-001 -6.4887000000E+001  +1.2560000000E-002 +7.8744000000E+001 
11300000000.000 +7.1120000000E-002 +1.2188800000E+002  +8.0474000000E-001 -1.3894300000E+002  +8.0474000000E-001 -1.3894300000E+002  +9.1780000000E-002 +1.1425500000E+002 
11400000000.000 +1.8120000000E-002 -1.9623000000E+001  +8.0383000000E-001 -7.6509000000E+001  +8.0383000000E-001 -7.6509000000E+001  +5.7690000000E-002 +8.7939000000E+001 
11500000000.000 +2.3940000000E-002 -2.8137000000E+001  +8.0463000000E-001 +1.6620800000E+002  +8.0463000000E-001 +1.6620800000E+002  +5.3600000000E-002 +7.7301000000E+001 
11600000000.000 +5.8900000000E-002 -1.5186900000E+002  +8.0186000000E-001 +9.1304000000E+001  +8.0186000000E-001 +9.1304000000E+001  +4.0730000000E-002 +8.4407000000E+001 
11700000000.000 +2.7680000000E-002 +8.9622000000E+001  +8.0393000000E-001 -2.4931000000E+001  +8.0393000000E-001 -2.4931000000E+001  +6.3890000000E-002 +5.4970000000E+001 
11800000000.000 +3.4310000000E-002 +1.6507900000E+002  +8.0083000000E-001 -9.8686000000E+001  +8.0083000000E-001 -9.8686000000E+001  +2.0670000000E-002 +9.4418000000E+001 
11900000000.000 +7.9040000000E-002 -2.7393000000E+001  +8.0242000000E-001 -3.6590000000E+001  +8.0242000000E-001 -3.6590000000E+001  +7.2740000000E-002 +9.2930000000E+001 
12000000000.000 +6.6520000000E-002 -1.0433600000E+002  +7.9960000000E-001 -1.1020700000E+002  +7.9960000000E-001 -1.1020700000E+002  +1.1189000000E-001 +7.4696000000E+001 
12100000000.000 +4.6310000000E-002 -1.5668100000E+002  +8.0455000000E-001 +1.3200400000E+002  +8.0455000000E-001 +1.3200400000E+002  +3.1110000000E-002 +6.7700000000E-001 
12200000000.000 +9.5790000000E-002 +7.0490000000E+001  +7.9790000000E-001 +1.5159000000E+001  +7.9790000000E-001 +1.5159000000E+001  +7.4010000000E-002 +1.1799700000E+002 
12300000000.000 +5.8080000000E-002 -4.5886000000E+001  +8.0459000000E-001 -5.8826000000E+001  +8.0459000000E-001 -5.8826000000E+001  +1.1265000000E-001 +4.9499000000E+001 
12400000000.000 +2.6900000000E-002 -1.2378200000E+002  +8.0357000000E-001 -1.7607700000E+002  +8.0357000000E-001 -1.7607700000E+002  +4.8760000000E-002 +2.1520000000E+000 
