!  1-Port S-parameters saved by WinCal
! VAR NAME=2-Port SOLT labuser 2
! VAR Error Term Name=ETrt phys rcv port 2 phys src port 1
!
# Hz S RI R 50
8000000000.000 -3.4137563791E+000 +3.4380733962E-001 
8100000000.000 +1.9343634294E+000 +3.2827431944E+000 
8200000000.000 +4.7699804854E+000 +1.1228815422E+000 
8300000000.000 -1.8046574109E-001 -3.1639169603E+000 
8400000000.000 -5.8813814390E+000 -7.3450663824E-001 
8500000000.000 -1.3608019452E+000 +2.7451037185E+000 
8600000000.000 +3.9867144231E+000 +1.1845577865E-001 
8700000000.000 +3.0694453831E+000 -3.0059614631E+000 
8800000000.000 -2.8029513539E+000 -1.5543832637E+000 
8900000000.000 -4.3310778718E+000 +3.6576454634E+000 
9000000000.000 +1.5573856732E+000 +2.6512847615E+000 
9100000000.000 +2.7195190596E+000 -2.9016039552E+000 
9200000000.000 -1.1199514154E+000 -4.1109420706E+000 
9300000000.000 -3.4640352078E+000 +1.3012007160E+000 
9400000000.000 +1.6475797071E-001 +4.3587011000E+000 
9500000000.000 +3.4019225287E+000 -1.4915129888E-001 
9600000000.000 -5.5794771314E-001 -4.4031753113E+000 
9700000000.000 -4.4870916076E+000 -1.2387858572E+000 
9800000000.000 -1.4176817447E+000 +3.8678796654E+000 
9900000000.000 +3.8047118064E+000 +1.4146555757E+000 
10000000000.000 +1.7992124804E+000 -4.3623280715E+000 
10100000000.000 -3.9189036550E+000 -2.9701147839E+000 
10200000000.000 -3.5024268699E+000 +3.2318433862E+000 
10300000000.000 +2.2878825281E+000 +3.4046264944E+000 
10400000000.000 +2.8613564831E+000 -2.9225772111E+000 
10500000000.000 -2.9779474417E+000 -5.1919112065E+000 
10600000000.000 -3.8135506151E+000 +1.1377868612E+000 
10700000000.000 +1.7398455358E+000 +4.0134622589E+000 
10800000000.000 +3.9790343107E+000 -7.2255582963E-001 
10900000000.000 -1.5080331799E+000 -4.0593896602E+000 
11000000000.000 -5.3072393979E+000 -8.9994512194E-001 
11100000000.000 -5.3355754736E-001 +3.4678518318E+000 
11200000000.000 +4.8276095991E+000 +3.8898889159E-001 
11300000000.000 +1.8939862273E+000 -4.0282224231E+000 
11400000000.000 -4.4031365897E+000 -1.9228606283E+000 
11500000000.000 -2.8952101119E+000 +2.5822881123E+000 
11600000000.000 +2.9700219042E+000 +1.9995501759E+000 
11700000000.000 +4.3041899076E+000 -3.6175099129E+000 
11800000000.000 -1.6794289020E+000 -3.3363579202E+000 
11900000000.000 -3.8696399924E+000 +1.8054220135E+000 
12000000000.000 +7.5885603674E-001 +3.4331663143E+000 
