!  1-Port S-parameters saved by WinCal
! VAR NAME=2-Port SOLT labuser 2
! VAR Error Term Name=ELdm phys rcv port 2 phys src port 1
!
# Hz S RI R 50
8000000000.000 -5.0010806304E-002 -3.4606575430E-002 
8100000000.000 -4.2053393426E-002 +1.1338129131E-002 
8200000000.000 -1.9047907212E-002 -1.6369483458E-002 
8300000000.000 -1.0206363170E-001 -5.4075971020E-002 
8400000000.000 -6.7870949340E-002 -1.9422522711E-002 
8500000000.000 -2.6082124895E-002 +2.4881767590E-002 
8600000000.000 -1.0982677324E-001 -3.6639493579E-003 
8700000000.000 -9.7623473197E-002 -4.4592814126E-002 
8800000000.000 -4.8905531920E-002 +5.7288703187E-003 
8900000000.000 -5.4149384135E-002 +4.2450661235E-002 
9000000000.000 -1.2749365494E-001 -1.4697505630E-002 
9100000000.000 -1.0398449653E-001 -1.3050325471E-002 
9200000000.000 -6.6410111617E-002 +4.5449632219E-002 
9300000000.000 -4.9924128481E-002 +2.1273094710E-002 
9400000000.000 -1.4675132888E-001 +8.3792757060E-004 
9500000000.000 -1.0982135735E-001 +6.0176691128E-002 
9600000000.000 -4.6682832136E-002 +1.4018716101E-001 
9700000000.000 -3.3508629454E-002 +2.2984063374E-002 
9800000000.000 -1.1392076535E-001 +2.8518674631E-002 
9900000000.000 -9.5118561227E-002 +6.2806963570E-002 
10000000000.000 +3.1373948507E-002 +1.0231530413E-001 
10100000000.000 -7.2357709958E-002 +1.0293796843E-001 
10200000000.000 -1.1213585985E-001 +3.1169702438E-002 
10300000000.000 -7.4255194151E-002 +6.3879642381E-002 
10400000000.000 -3.2461685424E-002 +2.2054644766E-001 
10500000000.000 -1.5018701077E-002 +1.1012662827E-001 
10600000000.000 -6.1113176745E-002 -7.5007889826E-002 
10700000000.000 -6.0363685225E-002 +1.3463196100E-001 
10800000000.000 +6.6132395858E-002 +1.9366700305E-001 
10900000000.000 +1.1126914664E-002 +4.7668234790E-002 
11000000000.000 -4.9597974157E-002 -7.2498534952E-003 
11100000000.000 +1.5017125239E-002 +1.3553595747E-001 
11200000000.000 +1.6097317591E-002 +1.0127142065E-001 
11300000000.000 +7.0126435564E-002 +5.8735467357E-002 
11400000000.000 +4.0645231634E-004 -1.6334968989E-002 
11500000000.000 -5.8613972896E-004 +7.5401951375E-002 
11600000000.000 +6.6404922273E-003 +1.5127624540E-001 
11700000000.000 +5.4213228188E-002 -5.0955098620E-002 
11800000000.000 -1.4802361661E-003 -4.8072763473E-002 
11900000000.000 -1.2291949363E-002 +1.3561474999E-001 
12000000000.000 +5.1475286719E-002 +1.3525078581E-001 
