!  1-Port S-parameters saved by WinCal
! VAR NAME=Unknown labuser
! VAR Error Term Name=ELdm phys rcv port 2 phys src port 1
!
# Hz S RI R 50
1000000000.000 -1.0148838907E-001 +5.8541376144E-002 
1021875000.000 +1.2200906128E-001 -1.5460504591E-001 
1043750000.000 -1.2486004084E-001 +6.6534280777E-002 
1065625000.000 +1.1878077686E-001 -1.3901501894E-001 
1087500000.000 -1.2404339015E-001 +6.4193107188E-002 
1109375000.000 +1.1764891446E-001 -1.2664018571E-001 
1131250000.000 -1.0018729419E-001 +5.1762461662E-002 
1153125000.000 +1.0588675737E-001 -1.5048505366E-001 
1175000000.000 -1.0300073773E-001 +5.0777319819E-002 
1196875000.000 +9.0933032334E-002 -1.9018600881E-001 
1218750000.000 -1.6310971975E-001 +8.2190364599E-002 
1240625000.000 +1.2226827443E-001 -1.7070415616E-001 
1262500000.000 -2.1657057106E-001 +9.0266078711E-002 
1284375000.000 +1.8664944172E-001 -9.4674035907E-002 
1306250000.000 -2.1088257432E-001 +2.8080033138E-002 
1328125000.000 +2.1608825028E-001 -3.9717100561E-002 
1350000000.000 -1.7111524940E-001 -6.2840163708E-002 
1371875000.000 +1.6007009149E-001 -4.8156894743E-002 
1393750000.000 -1.6045106947E-001 -7.3501087725E-002 
1415625000.000 +1.0103799403E-001 -7.5676105917E-002 
1437500000.000 -1.8897746503E-001 -1.3153098524E-002 
1459375000.000 +1.2835621834E-001 -4.9196664244E-002 
1481250000.000 -1.8052166700E-001 -1.6362374648E-002 
1503125000.000 +1.4675132930E-001 -2.3271387443E-002 
1525000000.000 -1.2646824121E-001 -4.3794069439E-002 
1546875000.000 +1.4636392891E-001 -8.0064393580E-002 
1568750000.000 -1.5817280114E-001 -7.6835066080E-002 
1590625000.000 +1.2498178333E-001 -9.4455659389E-002 
1612500000.000 -2.1563643217E-001 -9.1722451150E-002 
1634375000.000 +9.1964967549E-002 -4.3798446655E-002 
1656250000.000 -2.1338656545E-001 -7.1788243949E-002 
1678125000.000 +8.6607322097E-002 -1.3754566200E-002 
1700000000.000 -1.9633479416E-001 -5.4918948561E-002 
1721875000.000 +1.1483405530E-001 +9.0091960737E-004 
1743750000.000 -1.8697090447E-001 -8.4067098796E-002 
1765625000.000 +1.1367700994E-001 +6.1558922753E-003 
1787500000.000 -1.9410118461E-001 -1.0817638040E-001 
1809375000.000 +9.3800552189E-002 +1.9323991612E-002 
1831250000.000 -1.9669698179E-001 -1.1224169284E-001 
1853125000.000 +8.2932740450E-002 +4.5522391796E-002 
1875000000.000 -1.6201832891E-001 -1.1944506317E-001 
1896875000.000 +6.4403392375E-002 +3.2230496407E-002 
1918750000.000 -1.4826603234E-001 -1.0358279198E-001 
1940625000.000 +6.9974809885E-002 -6.7094783299E-003 
1962500000.000 -2.0171251893E-001 -9.8720207810E-002 
1984375000.000 +8.1732563674E-002 +3.1990427524E-002 
2006250000.000 -2.2061817348E-001 -1.1358910054E-001 
2028125000.000 +7.8637503088E-002 +9.6717201173E-002 
2050000000.000 -1.7149114609E-001 -1.3458773494E-001 
2071875000.000 +7.3860675097E-002 +1.2544225156E-001 
2093750000.000 -9.4031184912E-002 -1.7092445493E-001 
2115625000.000 +3.7149243057E-002 +9.7589790821E-002 
2137500000.000 -5.3073503077E-002 -1.8653385341E-001 
2159375000.000 -3.8255050313E-003 +2.7200210840E-002 
2181250000.000 -9.6397042274E-002 -1.6534323990E-001 
2203125000.000 -6.7117149010E-003 +2.8164118994E-003 
2225000000.000 -1.5891569853E-001 -1.6364441812E-001 
2246875000.000 -3.0195850879E-002 +5.1816251129E-002 
2268750000.000 -1.5179982781E-001 -1.4280532300E-001 
2290625000.000 -3.8757197559E-002 +7.5173355639E-002 
2312500000.000 -1.4302992821E-001 -1.1217656732E-001 
2334375000.000 -9.3549507437E-004 +9.1210521758E-002 
2356250000.000 -1.3909251988E-001 -1.4349202812E-001 
2378125000.000 -6.2145036645E-003 +1.2824641168E-001 
2400000000.000 -7.5527019799E-002 -1.8336270750E-001 
2421875000.000 -6.1074316502E-002 +9.5070347190E-002 
2443750000.000 -6.7124553025E-002 -1.4836537838E-001 
2465625000.000 -5.3410310298E-002 +6.3256494701E-002 
2487500000.000 -1.0411889106E-001 -1.4730836451E-001 
2509375000.000 -4.6509101987E-002 +1.0322783142E-001 
2531250000.000 -6.6639937460E-002 -1.9440254569E-001 
2553125000.000 -1.2018544972E-001 +9.1926530004E-002 
2575000000.000 -4.3625693768E-002 -1.6008478403E-001 
2596875000.000 -1.4225950837E-001 +6.3249759376E-002 
2618750000.000 -6.6188775003E-002 -1.1996358633E-001 
2640625000.000 -1.3749361038E-001 +7.2668567300E-002 
2662500000.000 -6.9557845592E-002 -9.9699974060E-002 
2684375000.000 -1.4291150868E-001 +9.1281585395E-002 
2706250000.000 -3.5678047687E-002 -5.7933043689E-002 
2728125000.000 -8.8184610009E-002 +6.5875567496E-002 
2750000000.000 -4.6222001314E-002 -8.8805876672E-002 
2771875000.000 -7.2860673070E-002 +6.3870906830E-002 
2793750000.000 -5.0903216004E-002 -1.3810515404E-001 
2815625000.000 -1.2305332720E-001 +6.4173534513E-002 
2837500000.000 -5.3765427321E-002 -1.2147504091E-001 
2859375000.000 -1.3397549093E-001 +6.5964981914E-002 
2881250000.000 -6.8410620093E-002 -1.2713836133E-001 
2903125000.000 -1.6171874106E-001 +1.0918050259E-001 
2925000000.000 -4.9004256725E-003 -1.3385836780E-001 
2946875000.000 -2.2734920681E-001 +7.9606302083E-002 
2968750000.000 +3.8662698120E-002 -6.3874363899E-002 
2990625000.000 -2.3909349740E-001 -6.4843348227E-003 
3012500000.000 -3.5599682480E-002 +1.0050127283E-002 
3034375000.000 -1.8127694726E-001 +1.7991425470E-002 
3056250000.000 -6.5855436027E-002 +1.3244802132E-002 
3078125000.000 -1.3900287449E-001 +7.2601951659E-002 
3100000000.000 -2.7676604688E-002 -1.8632017076E-002 
3121875000.000 -1.3196244836E-001 +7.7478259802E-002 
3143750000.000 +1.2944858521E-002 -6.2554538250E-002 
3165625000.000 -1.8873630464E-001 +4.0733370930E-002 
3187500000.000 +1.8464427441E-002 -3.0698770657E-002 
3209375000.000 -2.1476389468E-001 -1.2406502850E-002 
3231250000.000 -4.4426620007E-002 +2.8161723167E-002 
3253125000.000 -1.6985125840E-001 +2.6830095798E-002 
3275000000.000 -4.6840626746E-002 +6.1314059421E-003 
3296875000.000 -1.8284025788E-001 +7.0311181247E-002 
3318750000.000 +2.1021122113E-002 +9.3482192606E-003 
3340625000.000 -2.1064566076E-001 +1.1371354572E-002 
3362500000.000 -4.3430696242E-003 +6.0826264322E-002 
3384375000.000 -1.7573425174E-001 -5.3140330128E-003 
3406250000.000 -5.3389728069E-002 +4.7122795135E-002 
3428125000.000 -1.8577830493E-001 +6.6124193370E-002 
3450000000.000 +2.1373355761E-002 +5.9841711074E-002 
3471875000.000 -2.0508027077E-001 +1.9219240174E-002 
3493750000.000 +3.3411502838E-002 +1.3555330038E-001 
3515625000.000 -1.2761725485E-001 -5.9772443026E-002 
3537500000.000 -5.9314902872E-002 +1.0247199982E-001 
3559375000.000 -9.6995092928E-002 +1.3786564814E-003 
3581250000.000 -5.8702874929E-002 +3.1359698623E-002 
3603125000.000 -1.6567519307E-001 +5.6874491274E-002 
3625000000.000 +9.5576932654E-003 +6.6185392439E-002 
3646875000.000 -1.7240662873E-001 +1.7647527158E-002 
3668750000.000 +2.5249479339E-002 +9.5699392259E-002 
3690625000.000 -1.6084592044E-001 -3.5213708878E-002 
3712500000.000 -9.6991024911E-003 +1.0314264894E-001 
3734375000.000 -1.7421825230E-001 -6.3457675278E-002 
3756250000.000 -9.3070417643E-002 +1.4384143054E-001 
3778125000.000 -1.4226210117E-001 +1.0164203122E-002 
3800000000.000 -8.1851117313E-002 +1.5193274617E-001 
3821875000.000 -1.1639438570E-001 +7.8639313579E-002 
3843750000.000 +1.8524603918E-002 +1.4432172477E-001 
3865625000.000 -1.1264026165E-001 +1.6244633123E-002 
3887500000.000 +3.3788386732E-002 +1.6182066500E-001 
3909375000.000 -7.1027770638E-002 -6.5375611186E-002 
3931250000.000 -5.2485182881E-002 +1.3129644096E-001 
3953125000.000 -6.7481257021E-002 -2.2056061774E-002 
3975000000.000 -6.0909062624E-002 +9.3459956348E-002 
3996875000.000 -1.1677879095E-001 +2.2829918191E-002 
4018750000.000 -1.2039967813E-002 +1.1628690362E-001 
4040625000.000 -1.3994644582E-001 -4.8554628156E-003 
4062500000.000 -1.1180580594E-002 +1.6993002594E-001 
4084375000.000 -1.1013570428E-001 -4.0526792407E-002 
4106250000.000 -5.6250151247E-002 +1.8768852949E-001 
4128125000.000 -8.5253171623E-002 -2.7827700600E-002 
4150000000.000 -9.1043516994E-002 +2.0832547545E-001 
4171875000.000 -3.0241046101E-002 +3.8741640747E-002 
4193750000.000 -3.8785189390E-002 +1.9540883601E-001 
4215625000.000 +2.0534072071E-002 +3.7523120642E-002 
4237500000.000 +9.7181005403E-003 +1.3274988532E-001 
4259375000.000 +5.6669292971E-003 -2.8136694804E-002 
4281250000.000 -3.2115668058E-002 +8.9829437435E-002 
4303125000.000 -5.0398882478E-002 -2.6483254507E-002 
4325000000.000 -6.1029244214E-002 +1.0016964376E-001 
4346875000.000 -1.0147518665E-001 +1.5792487189E-002 
4368750000.000 -3.0607771128E-002 +1.7275692523E-001 
4390625000.000 -6.7631006241E-002 +9.1859465465E-003 
4412500000.000 -1.3702942058E-002 +2.1218548715E-001 
4434375000.000 +1.0369109921E-002 -2.0116627216E-002 
4456250000.000 -3.1905863434E-002 +1.6924065351E-001 
4478125000.000 +1.5414366499E-002 -3.4147955477E-002 
4500000000.000 -6.9213606417E-002 +1.5114314854E-001 
4521875000.000 +1.3240583241E-002 +3.6492727231E-003 
4543750000.000 -5.7965625077E-002 +1.4917607605E-001 
4565625000.000 +2.2283913568E-002 +3.8100920618E-002 
4587500000.000 +1.0943393223E-002 +1.3185904920E-001 
4609375000.000 +4.7838394530E-003 -2.2059742361E-002 
4631250000.000 +8.7475152686E-003 +1.4946661890E-001 
4653125000.000 +2.4794274941E-002 -8.7390631437E-002 
4675000000.000 -8.2898095250E-002 +1.3737519085E-001 
4696875000.000 +3.2770246267E-002 -4.6703901142E-002 
4718750000.000 -1.1428298801E-001 +1.2324252725E-001 
4740625000.000 +1.7956059426E-002 +2.3963235319E-002 
4762500000.000 -5.6824717671E-002 +1.4759640396E-001 
4784375000.000 +4.6202905476E-002 -4.0120747872E-003 
4806250000.000 -7.0703893900E-002 +1.3375845551E-001 
4828125000.000 +5.9583339840E-002 +1.8012658693E-003 
4850000000.000 -7.6224558055E-002 +1.0654980689E-001 
4871875000.000 +2.6219194755E-002 +1.7317539081E-002 
4893750000.000 -5.5247198790E-002 +1.4064876735E-001 
4915625000.000 +3.4567240626E-002 +9.0250568464E-003 
4937500000.000 -4.5383714139E-002 +1.8230874836E-001 
4959375000.000 +1.1680566519E-001 -2.1741734818E-003 
4981250000.000 -5.6215930730E-002 +1.3259857893E-001 
5003125000.000 +1.5145635605E-001 -1.5832383186E-002 
5025000000.000 -9.1145485640E-002 +5.3292207420E-002 
5046875000.000 +1.2288990617E-001 +2.6717414585E-005 
5068750000.000 -1.1337756366E-001 +1.4156794176E-002 
5090625000.000 +5.7848043740E-002 +4.5942306519E-002 
5112500000.000 -7.8876130283E-002 +5.3300637752E-002 
5134375000.000 +4.8863787204E-002 +3.2641824335E-002 
5156250000.000 -7.9460762441E-002 +9.3749970198E-002 
5178125000.000 +9.4014540315E-002 +2.8837522492E-002 
5200000000.000 -1.0318516195E-001 +6.8286307156E-002 
5221875000.000 +1.0152550787E-001 +8.1515312195E-002 
5243750000.000 -4.6521421522E-002 +4.7802209854E-002 
5265625000.000 +8.4368482232E-002 +4.6192232519E-002 
5287500000.000 -3.9634272456E-002 +7.8673131764E-002 
5309375000.000 +1.3794861734E-001 +8.7353903800E-003 
5331250000.000 -8.2911267877E-002 +2.4183643982E-002 
5353125000.000 +1.3898953795E-001 +3.5491306335E-002 
5375000000.000 -8.4166206419E-002 -4.2111057788E-002 
5396875000.000 +7.2782933712E-002 +5.0495997071E-002 
5418750000.000 -8.7561078370E-002 -2.3055840284E-002 
5440625000.000 +4.8065181822E-002 +6.0895722359E-002 
5462500000.000 -9.6875704825E-002 +1.1078954674E-002 
5484375000.000 +5.7556696236E-002 +8.5071600974E-002 
5506250000.000 -8.7734594941E-002 +3.0924953520E-002 
5528125000.000 +8.3881139755E-002 +1.0358649492E-001 
5550000000.000 -7.7677123249E-002 +2.7853325009E-002 
5571875000.000 +1.2214647979E-001 +1.3578042388E-001 
5593750000.000 -4.0902227163E-002 -2.8774740174E-002 
5615625000.000 +1.0168823600E-001 +1.6565315425E-001 
5637500000.000 +5.5371098220E-002 -5.0067342818E-002 
5659375000.000 +8.6581043899E-002 +7.6970651746E-002 
5681250000.000 +4.4323701411E-002 -4.5488826931E-002 
5703125000.000 +1.1545326561E-001 -1.3491607970E-003 
5725000000.000 -5.2939731628E-002 -1.1426251382E-001 
5746875000.000 +5.5384967476E-002 +5.6315276772E-002 
5768750000.000 -5.8081891388E-002 -1.3987109065E-001 
5790625000.000 -5.5692527443E-002 +1.0035443306E-001 
5812500000.000 -2.6003830135E-002 -4.6295192093E-002 
5834375000.000 -3.5321902484E-002 +1.0494143516E-001 
5856250000.000 -1.4338177629E-002 +5.3349006921E-003 
5878125000.000 +2.7297716588E-002 +1.1357245594E-001 
5900000000.000 +5.1370691508E-003 -1.2120734900E-002 
5921875000.000 +5.3120743483E-002 +1.1420173198E-001 
5943750000.000 +2.7867244557E-002 -3.3188246191E-002 
5965625000.000 +8.2057401538E-002 +1.0977961123E-001 
5987500000.000 +5.7715285569E-002 -9.9329903722E-002 
6009375000.000 +4.4807758182E-002 +9.7659021616E-002 
6031250000.000 +1.1371477693E-001 -1.3841503859E-001 
6053125000.000 -2.9466325417E-002 -5.0403932109E-003 
6075000000.000 +4.7018252313E-002 -1.1437773705E-001 
6096875000.000 -5.4937627167E-002 -3.2756898552E-002 
6118750000.000 -6.0917694122E-002 -1.0974912345E-001 
6140625000.000 -1.1949557811E-001 +7.2384975851E-002 
6162500000.000 -2.6188701391E-002 -3.7354514003E-002 
6184375000.000 -1.3647259772E-001 +1.2450581044E-001 
6206250000.000 +5.9735659510E-002 +8.8113024831E-002 
6228125000.000 -9.2833656818E-003 +8.8455237448E-002 
6250000000.000 +8.1938780844E-002 +6.2532842159E-002 
6271875000.000 +9.2292532325E-002 +5.6427557021E-002 
6293750000.000 +8.3485469222E-002 -6.5444692969E-002 
6315625000.000 +5.8127861470E-002 +3.2271184027E-002 
6337500000.000 +7.6694875956E-002 -1.4213043451E-001 
6359375000.000 -4.2490817606E-002 +1.7529608682E-002 
6381250000.000 +8.3566576242E-002 -1.2739630044E-001 
6403125000.000 -1.1268839240E-001 -2.1834993735E-002 
6425000000.000 +6.1646316200E-002 -6.3876673579E-002 
6446875000.000 -1.2393746525E-001 -5.1021762192E-002 
6468750000.000 -1.2210575864E-002 -6.0100103728E-003 
6490625000.000 -9.0820543468E-002 +1.0548952559E-004 
6512500000.000 -4.5359928161E-002 -1.5480921138E-003 
6534375000.000 -8.1865198910E-002 +1.0841351748E-001 
6556250000.000 +5.8642264456E-002 +1.6877209768E-002 
6578125000.000 -5.4321795702E-002 +1.0148561001E-001 
6600000000.000 +1.5450321138E-001 +1.6347603872E-002 
6621875000.000 -2.2886680439E-002 -3.8481710944E-003 
6643750000.000 +1.4569498599E-001 -2.4209329858E-002 
6665625000.000 -2.4799395353E-002 -8.9162066579E-002 
6687500000.000 +6.2893219292E-002 -8.1989891827E-002 
6709375000.000 -1.0048078746E-001 -8.1716537476E-002 
6731250000.000 +1.0380413383E-002 -6.2379285693E-002 
6753125000.000 -1.6422615945E-001 -3.3663798124E-002 
6775000000.000 +2.8778502718E-002 +3.0098911375E-002 
6796875000.000 -1.4700892568E-001 -4.2242888361E-002 
6818750000.000 +1.3680493459E-002 +1.0676608980E-001 
6840625000.000 -5.3011272103E-002 -4.7842290252E-002 
6862500000.000 -1.9589802250E-002 +6.6819258034E-002 
6884375000.000 -2.9273577034E-002 +1.5161586925E-002 
6906250000.000 +2.9164642096E-002 +1.8465559930E-002 
6928125000.000 -7.1541182697E-002 +2.7596725151E-002 
6950000000.000 +1.0093188286E-001 +5.7585105300E-002 
6971875000.000 -3.6107372493E-002 -5.4073579609E-002 
6993750000.000 +7.8075677156E-002 +4.9431923777E-002 
7015625000.000 +8.8349397993E-004 -9.6655100584E-002 
7037500000.000 +3.0747307464E-002 -2.5077542290E-002 
7059375000.000 -6.4387001097E-002 -9.6878856421E-002 
7081250000.000 -9.0653318912E-003 -2.0448911935E-002 
7103125000.000 -1.2467657775E-001 -7.0761986077E-002 
7125000000.000 -2.9911980033E-002 +5.5694628507E-002 
7146875000.000 -9.7492791712E-002 -3.0202584341E-002 
7168750000.000 -7.3081832379E-003 +8.8254407048E-002 
7190625000.000 -5.7211942971E-002 -1.3273753226E-002 
7212500000.000 +3.8585048169E-002 +8.1539794803E-002 
7234375000.000 -4.1722502559E-002 -4.9647640437E-002 
7256250000.000 +4.1511744261E-002 +7.9738177359E-002 
7278125000.000 -2.5684598833E-002 -8.7600968778E-002 
7300000000.000 +1.3109213673E-002 +8.6002260447E-002 
7321875000.000 +1.2793874368E-002 -1.0133994371E-001 
7343750000.000 -1.8711676821E-002 +6.2041036785E-002 
7365625000.000 +3.8871355355E-002 -1.0026991367E-001 
7387500000.000 -4.6766947955E-002 -3.0003222637E-003 
7409375000.000 -1.4193031937E-002 -7.8391425312E-002 
7431250000.000 -4.9478095025E-002 -9.3124043196E-003 
7453125000.000 -7.8138113022E-002 -7.1769364178E-002 
7475000000.000 -6.9961205125E-002 +6.3070513308E-002 
7496875000.000 -4.6779602766E-002 -3.3879313618E-002 
7518750000.000 -5.3255461156E-002 +9.3896761537E-002 
7540625000.000 +1.3332523406E-002 -6.3380817883E-003 
7562500000.000 +1.5313307522E-003 +6.3043050468E-002 
7584375000.000 +3.1711809337E-002 -4.4135514647E-002 
7606250000.000 +1.9852915779E-002 +2.2636516020E-002 
7628125000.000 +1.2316396460E-002 -1.0483972728E-001 
7650000000.000 -2.4349341169E-002 +5.7317418978E-003 
7671875000.000 -2.0646292716E-002 -1.2215927988E-001 
7693750000.000 -7.9646274447E-002 +3.2854944468E-002 
7715625000.000 -1.8391690683E-003 -1.0403314233E-001 
7737500000.000 -1.3475526869E-001 +2.8956573457E-002 
7759375000.000 +2.1191747859E-002 -2.9825165868E-002 
7781250000.000 -1.1644392461E-001 -1.6625806689E-002 
7803125000.000 -4.0469747037E-002 +1.5689248219E-002 
7825000000.000 -5.4226472974E-002 +3.2867543399E-002 
7846875000.000 -3.6359764636E-002 -1.7966622487E-002 
7868750000.000 -5.8257572353E-002 +8.8371522725E-002 
7890625000.000 +5.7115789503E-002 -1.3962177560E-002 
7912500000.000 -5.3040321916E-002 +2.0450113341E-002 
7934375000.000 +6.4838685095E-002 -7.8053525649E-003 
7956250000.000 -1.6221784055E-002 -4.7387603670E-002 
7978125000.000 +3.3772876486E-003 -6.5803572536E-002 
8000000000.000 -5.4134726524E-002 -4.3570175767E-002 
8021875000.000 -3.9912719280E-002 -7.8561961651E-002 
8043750000.000 -1.0665253550E-001 -4.9906051718E-003 
8065625000.000 -4.0486931801E-002 -3.0830660835E-002 
8087500000.000 -9.6102394164E-002 +2.9391575605E-002 
8109375000.000 -1.1419126531E-004 -1.6591884196E-002 
8131250000.000 -9.4086989760E-002 +1.4383787289E-002 
8153125000.000 +2.7929479256E-002 +6.0526262969E-003 
8175000000.000 -6.7331291735E-002 -4.8305042088E-002 
8196875000.000 -3.4266103059E-002 +3.1106025563E-004 
8218750000.000 -4.2104177177E-002 -2.2421926260E-002 
8240625000.000 -5.6930061430E-002 -4.3970178813E-002 
8262500000.000 -8.0851010978E-002 +3.3430047333E-002 
8284375000.000 +6.5469546244E-003 -2.9958507046E-002 
8306250000.000 -9.8070219159E-002 -1.2972921133E-002 
8328125000.000 +1.0028334509E-004 +4.4437730685E-003 
8350000000.000 -6.3315905631E-002 -5.2501838654E-002 
8371875000.000 -6.2957540154E-002 -2.1011587232E-002 
8393750000.000 -6.8831577897E-002 -8.3645731211E-003 
8415625000.000 -6.7026242614E-002 -4.6389870346E-002 
8437500000.000 -1.2080577016E-001 +3.5457547754E-002 
8459375000.000 -1.6413701698E-002 +4.7173420899E-003 
8481250000.000 -1.0546335578E-001 +1.0758657008E-002 
8503125000.000 -7.0344627602E-004 +2.9416905716E-002 
8525000000.000 -6.7029327154E-002 -3.6137849092E-002 
8546875000.000 -4.7364078462E-002 +6.2215812504E-003 
8568750000.000 -5.9240724891E-002 -2.3009704426E-002 
8590625000.000 -8.4449194372E-002 -2.9665447772E-002 
8612500000.000 -1.0347963870E-001 +4.4634561986E-002 
8634375000.000 -2.7632286772E-002 -7.4939620681E-003 
8656250000.000 -1.2857982516E-001 +3.5320952535E-002 
8678125000.000 +1.5656594187E-002 +5.9728812426E-002 
8700000000.000 -5.9534881264E-002 -3.5844139755E-002 
8721875000.000 -3.5152178258E-002 +3.1984668225E-002 
8743750000.000 -2.8174232692E-002 -3.1527109444E-002 
8765625000.000 -7.2599455714E-002 -4.2311824858E-002 
8787500000.000 -9.9683433771E-002 +1.3901622966E-002 
8809375000.000 -4.8743989319E-002 -1.7749764025E-002 
8831250000.000 -1.3582013547E-001 +1.4466943219E-002 
8853125000.000 -4.1152007878E-002 +5.1694814116E-002 
8875000000.000 -7.9828090966E-002 +1.2145955116E-002 
8896875000.000 -3.7374611944E-002 +3.8449373096E-002 
8918750000.000 -5.2376780659E-002 +8.8948104531E-003 
8940625000.000 -3.9907209575E-002 -5.5335904472E-003 
8962500000.000 -8.0532230437E-002 +1.2967750430E-002 
8984375000.000 -4.0520723909E-002 -1.3862049207E-002 
9006250000.000 -1.1912752688E-001 +2.7725016698E-002 
