!  1-Port S-parameters saved by WinCal
! VAR NAME=Unknown labuser
! VAR Error Term Name=EDir phys rcv port 1 phys src port 1
!
# Hz S RI R 50
1000000000.000 -3.4217093140E-002 -1.2605114840E-002 
1021875000.000 +2.6290742680E-003 +1.8353469670E-002 
1043750000.000 -2.4464146700E-003 -1.0164993815E-002 
1065625000.000 -8.5423337296E-003 +1.2808447704E-002 
1087500000.000 +6.6632595845E-003 +2.9845268000E-003 
1109375000.000 +7.0225348463E-004 +8.9646391571E-003 
1131250000.000 +1.9535114989E-002 -5.2539440803E-003 
1153125000.000 -1.4166368172E-002 -1.3902714476E-002 
1175000000.000 +7.0411353372E-003 +2.0666103810E-002 
1196875000.000 +1.8548216671E-002 -3.1121211126E-002 
1218750000.000 -4.1978519410E-002 -6.0791727155E-003 
1240625000.000 +1.2760790996E-002 +3.2165188342E-002 
1262500000.000 +5.6417579763E-003 -2.9868911952E-002 
1284375000.000 -3.6459069699E-002 +2.0937794819E-002 
1306250000.000 +3.2781485468E-002 +2.9916331172E-002 
1328125000.000 +1.3327430002E-002 -2.4806328118E-002 
1350000000.000 -6.5045626834E-003 +4.2640580796E-003 
1371875000.000 +1.4451225288E-002 -6.2003945932E-003 
1393750000.000 -2.8095527086E-003 -1.4190657996E-002 
1415625000.000 -7.9973451793E-003 -1.3319224119E-002 
1437500000.000 -2.6504103094E-002 +4.1220057756E-003 
1459375000.000 +8.1573938951E-003 +2.1183952689E-002 
1481250000.000 -5.1966193132E-003 -1.8189666793E-002 
1503125000.000 -2.5210835040E-002 +3.8274101913E-002 
1525000000.000 +5.7323489338E-002 +2.0402237773E-002 
1546875000.000 +5.7382258819E-004 -4.9220763147E-002 
1568750000.000 -1.7438614741E-002 +2.6217404753E-002 
1590625000.000 +4.3863821775E-002 -1.7360629514E-002 
1612500000.000 -3.3878084272E-002 -4.0284600109E-002 
1634375000.000 -1.4368472621E-002 +2.4378884584E-002 
1656250000.000 -7.4472482083E-004 -1.9118743017E-002 
1678125000.000 -3.9477627724E-002 +2.0592173561E-002 
1700000000.000 +2.0470051095E-002 +3.2603085041E-002 
1721875000.000 +3.0262819491E-003 -1.2069684453E-003 
1743750000.000 +2.2348841652E-002 +2.7493568137E-002 
1765625000.000 +3.4390352666E-002 -3.2688379288E-002 
1787500000.000 -2.1681103855E-002 -8.6999274790E-003 
1809375000.000 +3.3137854189E-002 -3.1820838340E-003 
1831250000.000 -2.5756735355E-002 -6.0531470925E-002 
1853125000.000 -4.9671184272E-002 +3.1901858747E-002 
1875000000.000 +2.0550124347E-002 +4.7874995507E-003 
1896875000.000 -4.5307375491E-002 -1.7775658052E-003 
1918750000.000 +1.0994851589E-002 +6.5525531769E-002 
1940625000.000 +4.1580647230E-002 -1.2052679434E-002 
1962500000.000 -5.9669483453E-003 +9.2553962022E-003 
1984375000.000 +4.9148648977E-002 +2.2517860998E-005 
2006250000.000 -9.9226087332E-004 -4.7924742103E-002 
2028125000.000 -5.5423956364E-003 -1.7917208606E-003 
2050000000.000 -5.3992713802E-003 -4.5809835196E-002 
2071875000.000 -6.5833866596E-002 +8.1304293126E-003 
2093750000.000 +1.0918246582E-002 +3.5670164973E-002 
2115625000.000 -2.5955410674E-002 -1.5110208653E-002 
2137500000.000 -1.6302334145E-002 +7.6533921063E-002 
2159375000.000 +7.9513028264E-002 +9.0263476595E-003 
2181250000.000 -8.9130448177E-003 -3.1536124647E-002 
2203125000.000 +3.4673411399E-002 +2.8411395848E-002 
2225000000.000 +3.4245312214E-002 -7.2973258793E-002 
2246875000.000 -5.8111555874E-002 -1.8194884062E-002 
2268750000.000 +1.4210288413E-002 +4.5897169039E-003 
2290625000.000 -4.7544587404E-002 -4.1005998850E-002 
2312500000.000 -4.0433447808E-002 +5.9911914170E-002 
2334375000.000 +2.6938352734E-002 +9.0390779078E-003 
2356250000.000 -3.4645050764E-002 +2.4158220738E-002 
2378125000.000 +5.3279958665E-002 +5.8201156557E-002 
2400000000.000 +4.2690463364E-002 -4.1241250932E-002 
2421875000.000 +6.4099620795E-004 +6.4384168945E-003 
2443750000.000 +5.3005672991E-002 -3.9698500186E-002 
2465625000.000 -4.7945398837E-002 -6.0662899166E-002 
2487500000.000 -1.9701847807E-002 +2.2010948509E-002 
2509375000.000 -1.5746468678E-002 -4.2813051492E-002 
2531250000.000 -8.0422542989E-002 +3.7642043084E-002 
2553125000.000 +3.2504606992E-002 +6.3522540033E-002 
2575000000.000 -1.4960232656E-003 -9.6900742501E-003 
2596875000.000 +1.2537568808E-002 +6.8063318729E-002 
2618750000.000 +8.6257159710E-002 -2.0072886720E-002 
2640625000.000 -1.3536173850E-002 -4.0972918272E-002 
2662500000.000 +3.7336420268E-002 +3.1216347124E-003 
2684375000.000 -3.2216932159E-003 -9.0662382543E-002 
2706250000.000 -7.9716615379E-002 +5.2790506743E-003 
2728125000.000 +8.1803472713E-003 +1.0738439858E-002 
2750000000.000 -6.5518870950E-002 -1.1803334579E-002 
2771875000.000 -1.1419783346E-002 +9.1575480998E-002 
2793750000.000 +5.0289586186E-002 -8.2250899868E-004 
2815625000.000 -2.1459396929E-002 +2.8332684189E-002 
2837500000.000 +8.4509156644E-002 +3.7061225623E-002 
2859375000.000 +3.1520616263E-002 -7.8022427857E-002 
2881250000.000 -1.4005121775E-002 -2.4658620823E-003 
2903125000.000 +3.2359398901E-002 -5.9644129127E-002 
2925000000.000 -8.9972227812E-002 -4.6784043312E-002 
2946875000.000 -2.2809369490E-002 +5.8674182743E-002 
2968750000.000 -1.1306681670E-002 -2.7032023296E-002 
2990625000.000 -6.7833818495E-002 +7.0350587368E-002 
3012500000.000 +8.0703832209E-002 +6.3884586096E-002 
3034375000.000 +1.0022213683E-002 -4.2483750731E-002 
3056250000.000 +1.3991116546E-002 +6.0149963945E-002 
3078125000.000 +9.8249375820E-002 -4.9340289086E-002 
3100000000.000 -4.8351086676E-002 -7.1458548307E-002 
3121875000.000 +2.5880031753E-003 +1.8791578710E-002 
3143750000.000 -1.2372210622E-002 -7.4388280511E-002 
3165625000.000 -9.0847186744E-002 +2.4205455557E-002 
3187500000.000 +1.3222256675E-002 +4.3706808239E-002 
3209375000.000 -3.1796932220E-002 +8.5101360455E-003 
3231250000.000 +2.4272069335E-002 +7.5200237334E-002 
3253125000.000 +5.2153196186E-002 -2.4760551751E-002 
3275000000.000 -1.1114759371E-002 +2.1835481748E-002 
3296875000.000 +9.0701870620E-002 -8.8058263063E-003 
3318750000.000 -2.7645628899E-002 -1.0258290917E-001 
3340625000.000 -4.2050447315E-002 +3.9704646915E-002 
3362500000.000 +4.1596431285E-002 -4.9174346030E-002 
3384375000.000 -1.1310320348E-001 -2.9042301700E-002 
3406250000.000 -2.1069741342E-003 +1.0483928770E-001 
3428125000.000 +3.8815747947E-002 -3.3360231668E-002 
3450000000.000 -6.0699049383E-002 +4.3053042144E-002 
3471875000.000 +8.3630330861E-002 +6.0836844146E-002 
3493750000.000 +2.9456006363E-002 -6.2946557999E-002 
3515625000.000 -1.8499275902E-003 +1.6246883199E-002 
3537500000.000 +4.6027563512E-002 -5.2116911858E-002 
3559375000.000 -6.0690548271E-002 -3.8742095232E-002 
3581250000.000 -7.7252916526E-004 +2.1562416106E-002 
3603125000.000 -3.6094542593E-002 -3.8080800325E-002 
3625000000.000 -4.2888376862E-002 +7.0385940373E-002 
3646875000.000 +5.9869859368E-002 +7.1915541776E-003 
3668750000.000 -4.9776967615E-002 -1.2492911890E-002 
3690625000.000 +4.0151707828E-002 +8.2552641630E-002 
3712500000.000 +7.1072816849E-002 -6.8667821586E-002 
3734375000.000 -6.3289247453E-002 -9.6489712596E-003 
3756250000.000 +5.9123449028E-002 +2.8169497848E-002 
3778125000.000 -1.2158490717E-002 -9.6329599619E-002 
3800000000.000 -7.5383082032E-002 +3.9252378047E-002 
3821875000.000 +4.0370430797E-002 +1.5897387639E-002 
3843750000.000 -4.2858302593E-002 -2.3013394326E-002 
3865625000.000 +1.8422759604E-003 +6.3159681857E-002 
3887500000.000 +3.6883555353E-002 -1.8412655219E-002 
3909375000.000 -1.8698360771E-002 +1.2456167489E-002 
3931250000.000 +4.6906281263E-002 +1.9626887515E-003 
3953125000.000 -1.9250763580E-002 -4.2238779366E-002 
3975000000.000 -1.3393487316E-003 +3.0737901106E-002 
3996875000.000 +2.1052589640E-002 -4.6264287084E-002 
4018750000.000 -6.8336278200E-002 +6.4651793800E-003 
4040625000.000 +3.6701086909E-002 +4.6923048794E-002 
4062500000.000 -6.2590818852E-003 -4.6143207699E-002 
4084375000.000 -2.6844479144E-002 +5.8055296540E-002 
4106250000.000 +8.0564506352E-002 -1.0022085160E-002 
4128125000.000 -4.2050570250E-002 -6.0682862997E-002 
4150000000.000 -1.5554498881E-002 +4.9177151173E-002 
4171875000.000 +3.0760332942E-002 -3.0140858144E-002 
4193750000.000 -5.0007577986E-002 +1.8148127710E-003 
4215625000.000 +2.3866996169E-002 +3.5604231060E-002 
4237500000.000 +6.0641684104E-004 -2.2938448936E-002 
4259375000.000 -2.8142260853E-003 +2.9378354549E-002 
4281250000.000 +3.2488681376E-002 -1.7972519621E-002 
4303125000.000 -2.3897439241E-002 -6.1162761413E-003 
4325000000.000 +3.2636016607E-002 +9.1528734192E-003 
4346875000.000 -1.5054957010E-002 -5.5934872478E-002 
4368750000.000 -4.4468771666E-002 +3.4265823662E-002 
4390625000.000 +3.5047419369E-002 +1.4423864195E-003 
4412500000.000 -4.5485619456E-002 -1.8970420584E-002 
4434375000.000 +4.9702990800E-003 +6.4374305308E-002 
4456250000.000 +4.0524981916E-002 -2.3652894422E-002 
4478125000.000 -3.0413568020E-002 +1.0984292254E-002 
4500000000.000 +5.5066742003E-002 +2.3047147319E-002 
4521875000.000 +7.4654766358E-003 -5.9536471963E-002 
4543750000.000 -2.1646026522E-002 +1.1857518926E-002 
4565625000.000 +2.6547016576E-002 -3.2509647310E-002 
4587500000.000 -6.2584340572E-002 -2.9948880896E-002 
4609375000.000 -1.8116964027E-002 +4.7835946083E-002 
4631250000.000 -2.0780588966E-003 -5.5584465154E-003 
4653125000.000 -2.7160014957E-002 +4.9560099840E-002 
4675000000.000 +5.9509634972E-002 +3.2941006124E-002 
4696875000.000 +1.4193411916E-002 -2.6844441891E-002 
4718750000.000 +2.2000623867E-002 +1.8036574125E-002 
4740625000.000 +4.1885688901E-002 -4.8818796873E-002 
4762500000.000 -3.5180870444E-002 -3.6996077746E-002 
4784375000.000 -3.4070529509E-003 -7.4708769098E-003 
4806250000.000 -4.4859524816E-002 -3.5446867347E-002 
4828125000.000 -4.8778213561E-002 +4.9717519432E-002 
4850000000.000 +1.9125470892E-002 +2.1251101047E-002 
4871875000.000 -3.1400047243E-002 +2.1357361227E-002 
4893750000.000 +4.3305531144E-002 +7.2688668966E-002 
4915625000.000 +6.9070227444E-002 -3.4267157316E-002 
4937500000.000 -8.7667480111E-003 -2.0033184439E-002 
4959375000.000 +4.2254265398E-002 -6.8142013624E-003 
4981250000.000 +1.9561194349E-003 -7.3308445513E-002 
5003125000.000 -5.1596950740E-002 -2.5665730238E-002 
5025000000.000 -3.8535248488E-002 -3.5578908864E-003 
5046875000.000 -4.7338023782E-002 +2.4923393503E-002 
5068750000.000 -8.3306105807E-003 +4.3368890882E-002 
5090625000.000 -6.1442460865E-003 +3.8118742406E-002 
5112500000.000 +4.4498816133E-002 +6.0787979513E-002 
5134375000.000 +7.2398066521E-002 -2.7093254030E-002 
5156250000.000 -4.4864201918E-003 -2.6354055852E-002 
5178125000.000 +4.8713546246E-002 -2.1590902470E-003 
5200000000.000 +9.2757204548E-003 -9.8955743015E-002 
5221875000.000 -8.8955059648E-002 -2.2063383833E-002 
5243750000.000 -1.5355309471E-002 +2.5806600228E-002 
5265625000.000 -4.4819302857E-002 -1.2898618355E-002 
5287500000.000 -4.4388309121E-002 +7.4372649193E-002 
5309375000.000 +4.7808375210E-002 +5.3040582687E-002 
5331250000.000 +2.7020072564E-002 +5.4951910861E-003 
5353125000.000 +3.8945931941E-002 +1.8141899258E-002 
5375000000.000 +4.9988593906E-002 -2.4208867922E-002 
5396875000.000 +2.4652080610E-002 -4.5897386968E-002 
5418750000.000 -1.2498825788E-002 -6.5015114844E-002 
5440625000.000 -6.1361670494E-002 -1.9323887303E-002 
5462500000.000 -1.8333029002E-002 +1.4416210353E-002 
5484375000.000 -4.1953481734E-002 -1.7257170752E-002 
5506250000.000 -5.6941643357E-002 +6.8058282137E-002 
5528125000.000 +5.0652302802E-002 +6.3128851354E-002 
5550000000.000 +2.2417895496E-002 -1.0613328777E-002 
5571875000.000 +1.7771663144E-002 +4.0502812713E-002 
5593750000.000 +8.2534044981E-002 -1.3785506599E-002 
5615625000.000 +9.8819276318E-003 -7.6127804816E-002 
5637500000.000 -2.7333628386E-002 -2.4445040151E-002 
5659375000.000 -9.7965979949E-003 -2.4941256270E-002 
5681250000.000 -4.2006082833E-002 -2.8969924897E-002 
5703125000.000 -6.4624503255E-002 +1.6474407166E-002 
5725000000.000 -2.1803617477E-002 +6.9878846407E-002 
5746875000.000 +3.9482377470E-002 +3.3081267029E-002 
5768750000.000 +5.9873546707E-004 +6.0701449402E-003 
5790625000.000 +3.7727635354E-002 +5.5567175150E-002 
5812500000.000 +9.1381907463E-002 -4.0934782475E-002 
5834375000.000 -2.6613697410E-002 -7.5217887759E-002 
5856250000.000 -1.1526752263E-002 +1.8449416384E-002 
5878125000.000 +2.7032325044E-002 -5.8006923646E-002 
5900000000.000 -9.0913921595E-002 -4.4288303703E-002 
5921875000.000 -4.7042675316E-002 +7.2581090033E-002 
5943750000.000 +2.4676386267E-002 +2.1831907332E-002 
5965625000.000 -2.2800924256E-002 +1.1625154875E-002 
5987500000.000 +1.1665141210E-002 +6.1276458204E-002 
6009375000.000 +7.1355305612E-002 +1.4247700572E-002 
6031250000.000 +3.3609766513E-002 -5.2701741457E-002 
6053125000.000 -2.2431528196E-002 -2.0729981363E-002 
6075000000.000 +2.2292662412E-002 +1.7911422765E-003 
6096875000.000 -1.1937001254E-003 -6.9326050580E-002 
6118750000.000 -8.7432906032E-002 -5.6078343187E-004 
6140625000.000 +9.2621240765E-003 +6.4916670322E-002 
6162500000.000 +1.7070002854E-002 -3.6605644971E-002 
6184375000.000 -6.6248081625E-002 +2.7686368674E-002 
6206250000.000 +4.7164600343E-002 +7.6583757997E-002 
6228125000.000 +5.7309109718E-002 -4.0991771966E-002 
6250000000.000 -2.6901926845E-002 -1.5603077598E-002 
6271875000.000 +2.4178303778E-002 +2.1055936813E-002 
6293750000.000 +2.7252448723E-002 -4.1731871665E-002 
6315625000.000 -3.7073392421E-002 -3.5642750561E-002 
6337500000.000 -3.2238226384E-002 +2.7687449008E-002 
6359375000.000 +2.9588837177E-002 +1.2310310267E-002 
6381250000.000 -1.7079139128E-002 -4.3896187097E-002 
6403125000.000 -5.5490836501E-002 +4.5315872878E-002 
6425000000.000 +6.3777379692E-002 +4.2983815074E-002 
6446875000.000 +4.6293400228E-003 -6.7739188671E-002 
6468750000.000 -5.8619346470E-002 +4.4691354036E-002 
6490625000.000 +7.8977398574E-002 +3.6410540342E-002 
6512500000.000 +3.7090051919E-003 -8.1800602376E-002 
6534375000.000 -5.7148694992E-002 +3.0871076509E-002 
6556250000.000 +5.7093460113E-002 +2.4878185242E-002 
6578125000.000 +9.6624869911E-005 -6.3114494085E-002 
6600000000.000 -4.6824932098E-002 +7.5146043673E-003 
6621875000.000 +8.3599658683E-003 +2.1704392508E-002 
6643750000.000 +3.4841024317E-003 -1.5438938513E-002 
6665625000.000 -3.0529018492E-002 -1.2358869426E-003 
6687500000.000 -8.1858094782E-003 +4.5843165368E-002 
6709375000.000 +5.0579711795E-002 +6.1196489260E-003 
6731250000.000 -1.7464354634E-002 -3.9568834007E-002 
6753125000.000 -1.6411282122E-002 +5.5834941566E-002 
6775000000.000 +8.2914493978E-002 -8.2947351038E-003 
6796875000.000 -2.7854343876E-002 -7.8525304794E-002 
6818750000.000 -3.6416754127E-002 +4.4543869793E-002 
6840625000.000 +5.3388204426E-002 -2.0786574110E-002 
6862500000.000 -5.9181082994E-002 -5.4449468851E-002 
6884375000.000 -3.9862290025E-002 +6.1804439873E-002 
6906250000.000 +3.3408224583E-002 +1.0231751017E-002 
6928125000.000 -2.2045413032E-002 -4.1329846717E-003 
6950000000.000 +7.3321606033E-004 +4.3038211763E-002 
6971875000.000 +4.1250921786E-002 +1.9512064755E-002 
6993750000.000 +4.2888298631E-002 -2.1996626630E-002 
7015625000.000 -5.6432825513E-003 -4.2339172214E-002 
7037500000.000 -9.3009760603E-003 +1.0414295830E-002 
7059375000.000 +3.3279657364E-002 -3.8936801255E-002 
7081250000.000 -7.1224473417E-002 -5.2696056664E-002 
7103125000.000 -4.2039006948E-002 +6.9080196321E-002 
7125000000.000 +3.9280854166E-002 -4.1035688482E-003 
7146875000.000 -6.6020779312E-002 -6.2240217812E-003 
7168750000.000 +1.0810459964E-002 +1.0098089278E-001 
7190625000.000 +8.7152466178E-002 -8.7525155395E-003 
7212500000.000 -6.8339137360E-003 -3.0169066042E-002 
7234375000.000 +3.2308276743E-002 +1.6549235210E-002 
7256250000.000 +3.8304302841E-002 -5.8852825314E-002 
7278125000.000 -3.6945778877E-002 -5.3163122386E-002 
7300000000.000 -4.4967591763E-002 -8.5441600531E-003 
7321875000.000 -3.2244093716E-002 +1.5216152184E-002 
7343750000.000 -1.7702322453E-002 +9.7654247656E-003 
7365625000.000 -4.3388843536E-002 +3.2062735409E-002 
7387500000.000 +2.1874876693E-002 +8.3474658430E-002 
7409375000.000 +7.2812087834E-002 -3.6276725587E-003 
7431250000.000 -8.3957542665E-004 -1.2997332960E-002 
7453125000.000 +5.7808876038E-002 +2.2976346314E-002 
7475000000.000 +4.9774140120E-002 -9.1980427504E-002 
7496875000.000 -6.8140022457E-002 -5.3943928331E-002 
7518750000.000 -2.2489909083E-002 +1.2104972266E-002 
7540625000.000 -2.8034467250E-002 -3.2708767802E-002 
7562500000.000 -7.2886653244E-002 +2.5012603030E-002 
7584375000.000 -1.3071374036E-002 +6.9592170417E-002 
7606250000.000 +2.6126746088E-002 +4.6353723854E-002 
7628125000.000 +4.0419954807E-002 +2.2091289982E-002 
7650000000.000 +3.6648292094E-002 +6.6916756332E-003 
7671875000.000 +6.0678523034E-002 -8.0054337159E-003 
7693750000.000 +3.4871567041E-002 -7.9727485776E-002 
7715625000.000 -5.1979329437E-002 -4.8629838973E-002 
7737500000.000 -1.2241520919E-002 -7.8495719936E-004 
7759375000.000 -3.7574846298E-002 -5.2060123533E-002 
7781250000.000 -9.6708506346E-002 +3.6420300603E-002 
7803125000.000 +8.0009056255E-003 +8.2174018025E-002 
7825000000.000 +1.8109843135E-002 +1.4552148990E-002 
7846875000.000 +4.7694984823E-003 +5.0225488842E-002 
7868750000.000 +7.4340619147E-002 +2.8908317909E-002 
7890625000.000 +5.8451231569E-002 -3.9876252413E-002 
7912500000.000 +1.9883353263E-002 -5.4524220526E-002 
7934375000.000 -1.6475232318E-002 -5.0637789071E-002 
7956250000.000 -2.4025689811E-002 -2.9346030205E-002 
7978125000.000 -4.9958534539E-002 -4.0069151670E-002 
8000000000.000 -8.9151181281E-002 +3.5091087222E-002 
8021875000.000 +4.5963074081E-003 +8.3753839135E-002 
8043750000.000 +2.1446039900E-002 +8.9720198885E-003 
8065625000.000 -7.4314284138E-003 +5.4770011455E-002 
8087500000.000 +9.1223806143E-002 +3.8601707667E-002 
8109375000.000 +5.1939547062E-002 -6.9027893245E-002 
8131250000.000 -1.1506090872E-002 -2.8136584908E-002 
8153125000.000 +2.0448228344E-002 -3.2692670822E-002 
8175000000.000 -3.3206544816E-002 -6.0231786221E-002 
8196875000.000 -6.2769606709E-002 -3.8845941890E-003 
8218750000.000 -4.0906034410E-002 +2.9101287946E-002 
8240625000.000 -1.0026606731E-002 +4.0407907218E-002 
8262500000.000 -8.4836926544E-004 +2.2638464347E-002 
8284375000.000 +9.8644860554E-004 +5.1806438714E-002 
8306250000.000 +7.4627161026E-002 +3.0475005507E-002 
8328125000.000 +3.6925345659E-002 -5.5030837655E-002 
8350000000.000 -9.4305444509E-003 -3.5875979811E-003 
8371875000.000 +5.0488088280E-002 -2.8863677755E-002 
8393750000.000 -3.7553183734E-002 -8.3778105676E-002 
8415625000.000 -6.9454997778E-002 +2.0770141855E-002 
8437500000.000 +2.2413481493E-003 +1.5878651291E-002 
8459375000.000 -3.9782244712E-002 -1.2700498337E-003 
8481250000.000 -1.5597934835E-002 +5.9443946928E-002 
8503125000.000 +3.4783955663E-002 +2.8913890943E-002 
8525000000.000 +2.4080129340E-002 +7.3839835823E-003 
8546875000.000 +2.7766970918E-002 -6.0560135171E-004 
8568750000.000 +2.5894336402E-002 -9.1337338090E-003 
8590625000.000 +3.1821496785E-002 -3.6945238709E-002 
8612500000.000 -2.9506128281E-002 -5.8257687837E-002 
8634375000.000 -4.4404812157E-002 +1.5922829509E-002 
8656250000.000 +1.0304818861E-002 -4.0766587481E-003 
8678125000.000 -5.5038131773E-002 -1.5427940525E-002 
8700000000.000 -1.9286848605E-002 +7.3541849852E-002 
8721875000.000 +5.1026456058E-002 +1.0640637018E-002 
8743750000.000 -1.5544801019E-002 -9.4455815852E-003 
8765625000.000 +2.2866338491E-002 +4.3477065861E-002 
8787500000.000 +5.2257999778E-002 -2.7163967490E-002 
8809375000.000 -1.0558913462E-002 -3.5074334592E-002 
8831250000.000 -4.9531175755E-003 -4.5939926058E-003 
8853125000.000 -8.3678617375E-004 -1.5769630671E-002 
8875000000.000 -1.4390553348E-002 -1.9709696993E-002 
8896875000.000 -3.8858439773E-002 -2.4490421638E-003 
8918750000.000 -1.3455320150E-002 +4.0375221521E-002 
8940625000.000 +2.2086801007E-002 +2.1483523306E-003 
8962500000.000 -2.6293270290E-002 +4.4364249334E-003 
8984375000.000 +2.3747727275E-002 +4.8530705273E-002 
9006250000.000 +4.3327767402E-002 -2.8763459995E-002 
