!  1-Port S-parameters saved by WinCal
! VAR NAME=Unknown labuser
! VAR Error Term Name=ETrt phys rcv port 1 phys src port 2
!
# Hz S RI R 50
1000000000.000 +5.1994806528E-001 -4.7239983082E-001 
1021875000.000 -6.9717103243E-001 -1.3080683351E-001 
1043750000.000 +3.1159386039E-001 +6.3152128458E-001 
1065625000.000 +3.1913587451E-001 -6.2856906652E-001 
1087500000.000 -6.9070518017E-001 +1.1772174388E-001 
1109375000.000 +5.0696223974E-001 +4.8152631521E-001 
1131250000.000 +8.3262264729E-002 -6.9177991152E-001 
1153125000.000 -6.0110753775E-001 +3.5431215167E-001 
1175000000.000 +6.3442450762E-001 +2.7049979568E-001 
1196875000.000 -1.6671326756E-001 -6.7488217354E-001 
1218750000.000 -4.3151882291E-001 +5.2399760485E-001 
1240625000.000 +6.8595010042E-001 +4.6626958996E-002 
1262500000.000 -3.8116762042E-001 -5.6636404991E-001 
1284375000.000 -2.3785312474E-001 +6.3343632221E-001 
1306250000.000 +6.5860283375E-001 -1.9635395706E-001 
1328125000.000 -5.4408872128E-001 -4.0382850170E-001 
1350000000.000 -6.4037472475E-004 +6.8076491356E-001 
1371875000.000 +5.4307711124E-001 -4.0948182344E-001 
1393750000.000 -6.5487611294E-001 -1.8833518028E-001 
1415625000.000 +2.4255667627E-001 +6.3553947210E-001 
1437500000.000 +3.5918843746E-001 -5.7664048672E-001 
1459375000.000 -6.6757643223E-001 +5.5157821625E-002 
1481250000.000 +4.4739374518E-001 +5.0333374739E-001 
1503125000.000 +1.2836453319E-001 -6.4584141970E-001 
1525000000.000 -6.0632228851E-001 +2.7532368898E-001 
1546875000.000 +5.9480488300E-001 +3.1074410677E-001 
1568750000.000 -9.8702095449E-002 -6.5647470951E-001 
1590625000.000 -4.6556264162E-001 +4.8131522536E-001 
1612500000.000 +6.5176123381E-001 +8.7085232139E-002 
1634375000.000 -3.2579532266E-001 -5.8113110065E-001 
1656250000.000 -2.6525372267E-001 +5.9898829460E-001 
1678125000.000 +6.4662766457E-001 -1.4103685319E-001 
1700000000.000 -4.9814951420E-001 -4.2622345686E-001 
1721875000.000 -5.0779327750E-002 +6.5639764071E-001 
1743750000.000 +5.5106920004E-001 -3.5487329960E-001 
1765625000.000 -6.2064146996E-001 -2.3753270507E-001 
1787500000.000 +1.9824708998E-001 +6.3627892733E-001 
1809375000.000 +3.9514690638E-001 -5.3312408924E-001 
1831250000.000 -6.6969668865E-001 +1.9617348909E-002 
1853125000.000 +4.0193912387E-001 +5.1141762733E-001 
1875000000.000 +1.7501503229E-001 -6.3778811693E-001 
1896875000.000 -6.0555404425E-001 +2.4137504399E-001 
1918750000.000 +5.6022244692E-001 +3.5144183040E-001 
1940625000.000 -6.3098117709E-002 -6.5113669634E-001 
1962500000.000 -4.8737967014E-001 +4.3112164736E-001 
1984375000.000 +6.3365459442E-001 +1.2501864135E-001 
2006250000.000 -2.6568335295E-001 -5.8184754848E-001 
2028125000.000 -3.0691927671E-001 +5.6480807066E-001 
2050000000.000 +6.3644659519E-001 -8.5326746106E-002 
2071875000.000 -4.6019926667E-001 -4.5291227102E-001 
2093750000.000 -9.1086313128E-002 +6.2092822790E-001 
2115625000.000 +5.5946493149E-001 -3.0084648728E-001 
2137500000.000 -5.6030809879E-001 -2.6203337312E-001 
2159375000.000 +1.1148925871E-001 +6.2134015560E-001 
2181250000.000 +4.2270308733E-001 -4.6825844049E-001 
2203125000.000 -6.3110899925E-001 -6.5494120121E-002 
2225000000.000 +3.3715739846E-001 +5.3261601925E-001 
2246875000.000 +2.3312710226E-001 -5.7307249308E-001 
2268750000.000 -6.0303401947E-001 +1.6227297485E-001 
2290625000.000 +4.8112651706E-001 +3.8446629047E-001 
2312500000.000 +1.9491476938E-002 -6.2350618839E-001 
2334375000.000 -5.0575721264E-001 +3.5337954760E-001 
2356250000.000 +5.9204125404E-001 +1.8949353695E-001 
2378125000.000 -1.9512012601E-001 -5.7090830803E-001 
2400000000.000 -3.5948368907E-001 +4.9754571915E-001 
2421875000.000 +6.1248183250E-001 -2.1822882816E-002 
2443750000.000 -3.7816014886E-001 -4.8248708248E-001 
2465625000.000 -1.4681817591E-001 +5.9523159266E-001 
2487500000.000 +5.5698031187E-001 -2.2571907938E-001 
2509375000.000 -5.1853269339E-001 -3.0769154429E-001 
2531250000.000 +5.3738009185E-002 +5.8367335796E-001 
2553125000.000 +4.5193001628E-001 -3.9558079839E-001 
2575000000.000 -5.8484953642E-001 -1.1674257368E-001 
2596875000.000 +2.6052060723E-001 +5.4303705692E-001 
2618750000.000 +2.6516771317E-001 -5.2532988787E-001 
2640625000.000 -5.8231049776E-001 +8.8079310954E-002 
2662500000.000 +4.2256340384E-001 +4.0685376525E-001 
2684375000.000 +8.7755292654E-002 -5.7773441076E-001 
2706250000.000 -5.2116799355E-001 +2.8708168864E-001 
2728125000.000 +5.3573244810E-001 +2.4500666559E-001 
2750000000.000 -1.3070325553E-001 -5.7491481304E-001 
2771875000.000 -3.8050112128E-001 +4.3047550321E-001 
2793750000.000 +5.8583968878E-001 +5.2824210376E-002 
2815625000.000 -3.0799049139E-001 -4.8963919282E-001 
2837500000.000 -2.1688595414E-001 +5.4452598095E-001 
2859375000.000 +5.5725854635E-001 -1.6382217407E-001 
2881250000.000 -4.5535573363E-001 -3.4857702255E-001 
2903125000.000 -6.4188269898E-003 +5.6713473797E-001 
2925000000.000 +4.6597474813E-001 -3.2436969876E-001 
2946875000.000 -5.4827606678E-001 -1.7572379112E-001 
2968750000.000 +1.8196661770E-001 +5.4138660431E-001 
2990625000.000 +3.2356807590E-001 -4.7716465592E-001 
3012500000.000 -5.6175637245E-001 +1.8823532388E-002 
3034375000.000 +3.5098403692E-001 +4.5170149207E-001 
3056250000.000 +1.5118421614E-001 -5.4419046640E-001 
3078125000.000 -5.4904735088E-001 +2.0085322857E-001 
3100000000.000 +5.0350046158E-001 +2.9770782590E-001 
3121875000.000 -5.3153108805E-002 -5.7324528694E-001 
3143750000.000 -4.1774138808E-001 +4.0055575967E-001 
3165625000.000 +5.4617333412E-001 +9.9672228098E-002 
3187500000.000 -2.4466599524E-001 -5.1250290871E-001 
3209375000.000 -2.5936940312E-001 +5.0084847212E-001 
3231250000.000 +5.6569081545E-001 -9.3331396580E-002 
3253125000.000 -4.1466769576E-001 -3.8625711203E-001 
3275000000.000 -5.9664234519E-002 +5.6370580196E-001 
3296875000.000 +4.7600740194E-001 -2.8375419974E-001 
3318750000.000 -5.1900357008E-001 -2.2633993626E-001 
3340625000.000 +1.4219386876E-001 +5.4295378923E-001 
3362500000.000 +3.6540675163E-001 -4.2492967844E-001 
3384375000.000 -5.7153362036E-001 -2.1328475326E-002 
3406250000.000 +3.0250832438E-001 +4.5617726445E-001 
3428125000.000 +2.0131166279E-001 -5.3050279617E-001 
3450000000.000 -5.3414434195E-001 +1.6600580513E-001 
3471875000.000 +4.4729310274E-001 +3.3810469508E-001 
3493750000.000 -2.7170791291E-003 -5.5935359001E-001 
3515625000.000 -4.4781884551E-001 +3.3142274618E-001 
3537500000.000 +5.2792066336E-001 +1.5317499638E-001 
3559375000.000 -1.8045149744E-001 -5.1885229349E-001 
3581250000.000 -3.0811470747E-001 +4.6658948064E-001 
3603125000.000 +5.5703711510E-001 -3.2942656428E-002 
3625000000.000 -3.6871507764E-001 -4.1543358564E-001 
3646875000.000 -1.1936671287E-001 +5.2955234051E-001 
3668750000.000 +5.0250506401E-001 -2.3615977168E-001 
3690625000.000 -4.6617892385E-001 -2.4848903716E-001 
3712500000.000 +6.1255633831E-002 +5.4743850231E-001 
3734375000.000 +3.8049182296E-001 -3.9664369822E-001 
3756250000.000 -5.2737778425E-001 -8.6236655712E-002 
3778125000.000 +2.6237890124E-001 +4.8223966360E-001 
3800000000.000 +2.2209942341E-001 -4.8016539216E-001 
3821875000.000 -5.2756947279E-001 +9.9300079048E-002 
3843750000.000 +3.9322721958E-001 +3.6627224088E-001 
3865625000.000 +5.7563539594E-002 -5.4085606337E-001 
3887500000.000 -4.6248355508E-001 +2.7348232269E-001 
3909375000.000 +5.0345921516E-001 +2.0909503102E-001 
3931250000.000 -1.3932812214E-001 -5.1434832811E-001 
3953125000.000 -3.3859363198E-001 +4.1677862406E-001 
3975000000.000 +5.3429144621E-001 +1.0110609233E-002 
3996875000.000 -2.9707437754E-001 -4.3407642841E-001 
4018750000.000 -1.6452023387E-001 +5.0561064482E-001 
4040625000.000 +4.9698537588E-001 -1.6430220008E-001 
4062500000.000 -4.4244030118E-001 -3.0032742023E-001 
4084375000.000 +2.5328142568E-002 +5.2183955908E-001 
4106250000.000 +4.1586092114E-001 -3.4134060144E-001 
4128125000.000 -5.1033294201E-001 -1.1073499173E-001 
4150000000.000 +1.9458740950E-001 +4.7696146369E-001 
4171875000.000 +2.6790738106E-001 -4.5028194785E-001 
4193750000.000 -5.1952219009E-001 +5.3445022553E-002 
4215625000.000 +3.5696128011E-001 +3.8476079702E-001 
4237500000.000 +9.8824590445E-002 -5.1624095440E-001 
4259375000.000 -4.6951931715E-001 +2.3655322194E-001 
4281250000.000 +4.5915472507E-001 +2.3472945392E-001 
4303125000.000 -8.7285764515E-002 -5.1399642229E-001 
4325000000.000 -3.4923478961E-001 +3.7440532446E-001 
4346875000.000 +5.0994950533E-001 +6.3804760575E-002 
4368750000.000 -2.5511783361E-001 -4.4415590167E-001 
4390625000.000 -2.0689611137E-001 +4.6794977784E-001 
4412500000.000 +4.9653151631E-001 -1.1340259016E-001 
4434375000.000 -3.8655760884E-001 -3.3651894331E-001 
4456250000.000 -3.2221373171E-002 +5.1217538118E-001 
4478125000.000 +4.3032333255E-001 -2.7725455165E-001 
4500000000.000 -4.8377144337E-001 -1.7305696011E-001 
4521875000.000 +1.4002816379E-001 +4.8563522100E-001 
4543750000.000 +3.1178373098E-001 -4.1312855482E-001 
4565625000.000 -5.0918114185E-001 +4.1776616126E-003 
4587500000.000 +3.0594426394E-001 +4.1166990995E-001 
4609375000.000 +1.3861875236E-001 -4.9489691854E-001 
4631250000.000 -4.7646483779E-001 +1.8386165798E-001 
4653125000.000 +4.2572161555E-001 +2.6744601130E-001 
4675000000.000 -2.2847540677E-002 -5.0481134653E-001 
4696875000.000 -3.9021542668E-001 +3.3053874969E-001 
4718750000.000 +4.8896887898E-001 +1.1575331539E-001 
4740625000.000 -2.0133322477E-001 -4.6498286724E-001 
4762500000.000 -2.5015789270E-001 +4.3324050307E-001 
4784375000.000 +4.9917966127E-001 -5.6538414210E-002 
4806250000.000 -3.3929008245E-001 -3.6681297421E-001 
4828125000.000 -9.0654112399E-002 +5.0322389603E-001 
4850000000.000 +4.4834995270E-001 -2.3429584503E-001 
4871875000.000 -4.5759361982E-001 -2.2040632367E-001 
4893750000.000 +1.0431752354E-001 +4.9397355318E-001 
4915625000.000 +3.3267092705E-001 -3.6913514137E-001 
4937500000.000 -4.9363690615E-001 -5.0949115306E-002 
4959375000.000 +2.4810557067E-001 +4.3174707890E-001 
4981250000.000 +1.9696043432E-001 -4.6511799097E-001 
5003125000.000 -4.8567464948E-001 +1.1616621166E-001 
5025000000.000 +3.8338047266E-001 +3.2463073730E-001 
5046875000.000 +2.8197437525E-002 -5.0007182360E-001 
5068750000.000 -4.2090857029E-001 +2.7414402366E-001 
5090625000.000 +4.7476691008E-001 +1.7202042043E-001 
5112500000.000 -1.4968855679E-001 -4.8630914092E-001 
5134375000.000 -2.8872841597E-001 +4.1012549400E-001 
5156250000.000 +4.9887904525E-001 -5.6132399477E-003 
5178125000.000 -3.0863139033E-001 -3.9587703347E-001 
5200000000.000 -1.3630490005E-001 +4.7656971216E-001 
5221875000.000 +4.7425499558E-001 -1.8200378120E-001 
5243750000.000 -4.3021553755E-001 -2.5877928734E-001 
5265625000.000 +5.0681464374E-002 +4.9998641014E-001 
5287500000.000 +3.5691481829E-001 -3.3770161867E-001 
5309375000.000 -4.7675070167E-001 -9.3747727573E-002 
5331250000.000 +2.1185454726E-001 +4.4155561924E-001 
5353125000.000 +2.2726802528E-001 -4.3124380708E-001 
5375000000.000 -4.8354607821E-001 +7.2607591748E-002 
5396875000.000 +3.4957587719E-001 +3.4203976393E-001 
5418750000.000 +6.5336219966E-002 -4.7714921832E-001 
5440625000.000 -4.2731288075E-001 +2.2579574585E-001 
5462500000.000 +4.4082498550E-001 +2.0586124063E-001 
5484375000.000 -9.8311893642E-002 -4.7440296412E-001 
5506250000.000 -3.1815841794E-001 +3.6505413055E-001 
5528125000.000 +4.7497594357E-001 +3.7223979831E-002 
5550000000.000 -2.5010663271E-001 -4.0510901809E-001 
5571875000.000 -1.7244745791E-001 +4.3854653835E-001 
5593750000.000 +4.5686671138E-001 -1.1344735324E-001 
5615625000.000 -3.7266972661E-001 -3.0556637049E-001 
5637500000.000 -1.5416074544E-002 +4.8528993130E-001 
5659375000.000 +3.9411959052E-001 -2.8439828753E-001 
5681250000.000 -4.6234121919E-001 -1.3835509121E-001 
5703125000.000 +1.6218923032E-001 +4.4610676169E-001 
5725000000.000 +2.6460939646E-001 -3.9285570383E-001 
5746875000.000 -4.7739440203E-001 +3.0440794304E-002 
5768750000.000 +3.0228954554E-001 +3.5682487488E-001 
5790625000.000 +1.1325173080E-001 -4.6250969172E-001 
5812500000.000 -4.3247839808E-001 +1.8960838020E-001 
5834375000.000 +4.0677839518E-001 +2.4529971182E-001 
5856250000.000 -5.4818339646E-002 -4.8139813542E-001 
5878125000.000 -3.4989944100E-001 +3.2775151730E-001 
5900000000.000 +4.8250216246E-001 +8.0220282078E-002 
5921875000.000 -2.2802773118E-001 -4.2432409525E-001 
5943750000.000 -2.0684263110E-001 +4.3138223886E-001 
5965625000.000 +4.6577844024E-001 -9.0487606823E-002 
5987500000.000 -3.4266009927E-001 -3.2259351015E-001 
6009375000.000 -5.4834678769E-002 +4.7179886699E-001 
6031250000.000 +4.0466403961E-001 -2.3757897317E-001 
6053125000.000 -4.2853274941E-001 -1.8569876254E-001 
6075000000.000 +1.0703010857E-001 +4.5873582363E-001 
6096875000.000 +3.0337947607E-001 -3.5539346933E-001 
6118750000.000 -4.6433827281E-001 -3.1264185905E-002 
6140625000.000 +2.5207343698E-001 +3.9017933607E-001 
6162500000.000 +1.5863277018E-001 -4.3711277843E-001 
6184375000.000 -4.3956056237E-001 +1.3422611356E-001 
6206250000.000 +3.6830079556E-001 +2.7428919077E-001 
6228125000.000 +2.9325040523E-003 -4.6661132574E-001 
6250000000.000 -3.7479129434E-001 +2.7970200777E-001 
6271875000.000 +4.4732597470E-001 +1.3106605411E-001 
6293750000.000 -1.6879497468E-001 -4.3964138627E-001 
6315625000.000 -2.4230550230E-001 +3.9760378003E-001 
6337500000.000 +4.5680230856E-001 -3.9652235806E-002 
6359375000.000 -3.0756801367E-001 -3.4672135115E-001 
6381250000.000 -9.0007625520E-002 +4.4867268205E-001 
6403125000.000 +4.1984435916E-001 -1.8417052925E-001 
6425000000.000 -4.1070261598E-001 -2.1509717405E-001 
6446875000.000 +6.7533865571E-002 +4.4474002719E-001 
6468750000.000 +3.3092632890E-001 -3.2290902734E-001 
6490625000.000 -4.5442375541E-001 -6.1902053654E-002 
6512500000.000 +2.1691912413E-001 +4.0074285865E-001 
6534375000.000 +1.9123893976E-001 -4.1157990694E-001 
6556250000.000 -4.4681975245E-001 +8.8510215282E-002 
6578125000.000 +3.4654825926E-001 +2.9814660549E-001 
6600000000.000 +3.1999766827E-002 -4.5112505555E-001 
6621875000.000 -3.8544300199E-001 +2.3996230960E-001 
6643750000.000 +4.2472204566E-001 +1.6222050786E-001 
6665625000.000 -1.2467167526E-001 -4.3295580149E-001 
6687500000.000 -2.7426144481E-001 +3.5946297646E-001 
6709375000.000 +4.5202982426E-001 +2.4910271168E-003 
6731250000.000 -2.6774337888E-001 -3.6014822125E-001 
6753125000.000 -1.3008075953E-001 +4.2754530907E-001 
6775000000.000 +4.1666358709E-001 -1.4672228694E-001 
6796875000.000 -3.5719886422E-001 -2.4920834601E-001 
6818750000.000 +1.2754190713E-002 +4.4505262375E-001 
6840625000.000 +3.4394893050E-001 -2.7723520994E-001 
6862500000.000 -4.2727017403E-001 -1.2021622807E-001 
6884375000.000 +1.6539521515E-001 +4.1804251075E-001 
6906250000.000 +2.3421412706E-001 -3.8286751509E-001 
6928125000.000 -4.4420781732E-001 +3.8260973990E-002 
6950000000.000 +2.9377105832E-001 +3.3713734150E-001 
6971875000.000 +9.0212404728E-002 -4.4334697723E-001 
6993750000.000 -4.0871232748E-001 +1.9671373069E-001 
7015625000.000 +3.9848351479E-001 +2.0409113169E-001 
7037500000.000 -7.2788208723E-002 -4.3956989050E-001 
7059375000.000 -3.0175417662E-001 +3.2278928161E-001 
7081250000.000 +4.3345937133E-001 +5.7105157524E-002 
7103125000.000 -2.1931080520E-001 -3.8035416603E-001 
7125000000.000 -1.7412663996E-001 +3.9509242773E-001 
7146875000.000 +4.2887762189E-001 -9.7884468734E-002 
7168750000.000 -3.2769909501E-001 -2.7221173048E-001 
7190625000.000 -3.4611180425E-002 +4.2491337657E-001 
7212500000.000 +3.6692342162E-001 -2.3648975790E-001 
7234375000.000 -4.0336632729E-001 -1.4825473726E-001 
7256250000.000 +1.1828828603E-001 +4.1525408626E-001 
7278125000.000 +2.5775548816E-001 -3.4749171138E-001 
7300000000.000 -4.2565667629E-001 -3.3543545287E-003 
7321875000.000 +2.5019198656E-001 +3.4619683027E-001 
7343750000.000 +1.2641669810E-001 -4.0882405639E-001 
7365625000.000 -4.0822482109E-001 +1.3912196457E-001 
7387500000.000 +3.6206248403E-001 +2.4679683149E-001 
7409375000.000 -2.5489203632E-002 -4.3465894461E-001 
7431250000.000 -3.3330547810E-001 +2.7609121799E-001 
7453125000.000 +4.2268687487E-001 +9.9075183272E-002 
7475000000.000 -1.7180867493E-001 -3.9605396986E-001 
7496875000.000 -2.1233075857E-001 +3.8139495254E-001 
7518750000.000 +4.2576041818E-001 -5.3313601762E-002 
7540625000.000 -2.9829263687E-001 -3.1562173367E-001 
7562500000.000 -6.4292006195E-002 +4.2233845592E-001 
7584375000.000 +3.7674745917E-001 -1.9085451961E-001 
7606250000.000 -3.8305231929E-001 -1.9287423790E-001 
7628125000.000 +7.8530229628E-002 +4.2579528689E-001 
7650000000.000 +2.9169574380E-001 -3.1965255737E-001 
7671875000.000 -4.2738690972E-001 -4.2574368417E-002 
7693750000.000 +2.1275404096E-001 +3.6190146208E-001 
7715625000.000 +1.6832222044E-001 -3.8733163476E-001 
7737500000.000 -4.0654546022E-001 +9.8296217620E-002 
7759375000.000 +3.1237775087E-001 +2.7976971865E-001 
7781250000.000 +3.2767742872E-002 -4.2950510979E-001 
7803125000.000 -3.5681775212E-001 +2.2623741627E-001 
7825000000.000 +3.9553868771E-001 +1.5832783282E-001 
7846875000.000 -1.1589907855E-001 -4.0924474597E-001 
7868750000.000 -2.5544741750E-001 +3.3482432365E-001 
7890625000.000 +4.2340198159E-001 +9.7974650562E-003 
7912500000.000 -2.4705028534E-001 -3.4685054421E-001 
7934375000.000 -1.2739686668E-001 +4.0088057518E-001 
7956250000.000 +3.9932093024E-001 -1.3397789001E-001 
7978125000.000 -3.4423661232E-001 -2.3993994296E-001 
8000000000.000 +1.0112556629E-002 +4.1769200563E-001 
8021875000.000 +3.3492627740E-001 -2.6275405288E-001 
8043750000.000 -4.1174900532E-001 -1.0827369243E-001 
8065625000.000 +1.5839928389E-001 +3.9202165604E-001 
8087500000.000 +2.1745325625E-001 -3.5643199086E-001 
8109375000.000 -4.1994711757E-001 +3.4399241209E-002 
8131250000.000 +2.8488007188E-001 +3.1398397684E-001 
8153125000.000 +8.0731041729E-002 -4.1215589643E-001 
8175000000.000 -3.8213172555E-001 +1.8813303113E-001 
8196875000.000 +3.7496179342E-001 +1.8861389160E-001 
8218750000.000 -6.6344052553E-002 -4.1392934322E-001 
8240625000.000 -2.9219856858E-001 +3.0077108741E-001 
8262500000.000 +4.1762426496E-001 +5.4632984102E-002 
8284375000.000 -2.0757140219E-001 -3.6877420545E-001 
8306250000.000 -1.6601677239E-001 +3.9160025120E-001 
8328125000.000 +4.0298977494E-001 -1.0315428674E-001 
8350000000.000 -3.1910997629E-001 -2.6636123657E-001 
8371875000.000 -2.3977825418E-002 +4.1038241982E-001 
8393750000.000 +3.4813413024E-001 -2.2040002048E-001 
8415625000.000 -3.9103317261E-001 -1.4301368594E-001 
8437500000.000 +1.1658139527E-001 +3.9659237862E-001 
8459375000.000 +2.4940542877E-001 -3.3402782679E-001 
8481250000.000 -4.1197752953E-001 +3.4836851992E-003 
8503125000.000 +2.4418391287E-001 +3.3069542050E-001 
8525000000.000 +1.2093273550E-001 -3.9448052645E-001 
8546875000.000 -3.8723510504E-001 +1.4150857925E-001 
8568750000.000 +3.4584373236E-001 +2.2512434423E-001 
8590625000.000 -2.7378229424E-002 -4.1196238995E-001 
8612500000.000 -3.1115415692E-001 +2.6680785418E-001 
8634375000.000 +4.0238627791E-001 +8.9802302420E-002 
8656250000.000 -1.6879713535E-001 -3.7449073792E-001 
8678125000.000 -2.0015056431E-001 +3.5941675305E-001 
8700000000.000 +4.0733540058E-001 -6.3623920083E-002 
8721875000.000 -2.8690955043E-001 -2.8291982412E-001 
8743750000.000 -6.1629585922E-002 +4.0207418799E-001 
8765625000.000 +3.5426238179E-001 -1.9352233410E-001 
8787500000.000 -3.6447867751E-001 -1.7620964348E-001 
8809375000.000 +7.8958936036E-002 +4.0335327387E-001 
8831250000.000 +2.7407646179E-001 -3.0385577679E-001 
8853125000.000 -4.0910714865E-001 -3.5422477871E-002 
8875000000.000 +2.1596862376E-001 +3.4674394131E-001 
8896875000.000 +1.4758510888E-001 -3.7842351198E-001 
8918750000.000 -3.9035004377E-001 +1.0622114688E-001 
8940625000.000 +3.2059627771E-001 +2.4972164631E-001 
8962500000.000 +1.1462213472E-002 -4.0196952224E-001 
8984375000.000 -3.3150649071E-001 +2.3212613165E-001 
9006250000.000 +3.8179719448E-001 +1.2371353805E-001 
