!  1-Port S-parameters saved by WinCal
! VAR NAME=Unknown labuser
! VAR Error Term Name=ESrm phys rcv port 1 phys src port 1
!
# Hz S RI R 50
1000000000.000 -4.3640587479E-002 -3.1360816211E-002 
1021875000.000 +5.2672759630E-003 +2.9724135995E-002 
1043750000.000 +2.1197643131E-002 -4.7714352608E-002 
1065625000.000 -2.8655005619E-002 -1.7569685355E-002 
1087500000.000 +2.6712842286E-002 -2.5598580018E-002 
1109375000.000 -2.8369855136E-002 -6.2365077436E-002 
1131250000.000 -3.7027057260E-003 -1.0056749918E-002 
1153125000.000 -1.0392324999E-002 -8.7190024555E-002 
1175000000.000 -6.6413804889E-002 -1.0582040995E-002 
1196875000.000 +2.2983727977E-002 -4.9472104758E-002 
1218750000.000 -1.0050459951E-001 -6.7847192287E-002 
1240625000.000 -1.8240854144E-002 +4.2554121464E-002 
1262500000.000 -1.5723446384E-002 -8.4758415818E-002 
1284375000.000 -9.3871645629E-002 +1.7554124817E-002 
1306250000.000 +2.0629851148E-002 +5.3818295710E-003 
1328125000.000 -4.6696528792E-002 -3.3097047359E-002 
1350000000.000 -2.1619996987E-003 +2.4059752002E-002 
1371875000.000 +1.2836136855E-002 -4.4145483524E-002 
1393750000.000 -2.7645595372E-002 -2.1806020290E-002 
1415625000.000 +2.0534275100E-002 -1.2824379839E-002 
1437500000.000 +1.4381461777E-002 -7.8737176955E-002 
1459375000.000 -4.9518711865E-002 -5.4841846228E-002 
1481250000.000 +7.6141012833E-003 -2.2346809506E-002 
1503125000.000 -2.9778927565E-003 -1.0777761787E-001 
1525000000.000 -8.7357901037E-002 -7.2055242956E-002 
1546875000.000 -4.4767785817E-002 -1.2618182227E-002 
1568750000.000 -1.6576264054E-002 -6.9441080093E-002 
1590625000.000 -1.0027170181E-001 -6.3460744917E-002 
1612500000.000 -5.1690723747E-002 +2.9460150748E-002 
1634375000.000 +3.2856364851E-004 -5.5167648941E-002 
1656250000.000 -7.7025435865E-002 -3.6174271256E-002 
1678125000.000 -2.1604582667E-002 -9.6291964874E-003 
1700000000.000 -3.7975888699E-002 -3.2947711647E-002 
1721875000.000 -4.4423164800E-003 -3.0814930797E-002 
1743750000.000 -5.1630396396E-002 -6.7177623510E-002 
1765625000.000 -2.0541211590E-002 -6.8054217845E-003 
1787500000.000 -1.4810280874E-002 -1.0051767528E-001 
1809375000.000 -8.7301380932E-002 -3.7811178714E-002 
1831250000.000 -1.3062284328E-002 -5.1941189915E-002 
1853125000.000 -8.8142707944E-002 -7.6013468206E-002 
1875000000.000 -6.3620649278E-002 -1.7762485892E-002 
1896875000.000 -5.3365752101E-002 -4.7624886036E-002 
1918750000.000 -7.2043746710E-002 -4.5420285314E-002 
1940625000.000 -8.7447308004E-002 -8.6837010458E-003 
1962500000.000 -1.6093771905E-002 -8.0220969394E-003 
1984375000.000 -7.7205829322E-002 -6.5826818347E-002 
2006250000.000 -5.4300583899E-002 +3.6651097238E-002 
2028125000.000 +5.4154065438E-003 -6.4200483263E-002 
2050000000.000 -8.3262182772E-002 -2.8338534757E-002 
2071875000.000 +4.0336376987E-003 -3.0566338450E-002 
2093750000.000 -6.9445893168E-002 -7.7814526856E-002 
2115625000.000 -3.8555990905E-002 -2.1150203422E-002 
2137500000.000 -4.6090897173E-002 -8.5542388260E-002 
2159375000.000 -8.1538468599E-002 -5.1182676107E-002 
2181250000.000 -7.6930172741E-002 -5.0172258168E-002 
2203125000.000 -6.6746346653E-002 -2.7591848746E-002 
2225000000.000 -6.4854986966E-002 -7.1572147310E-002 
2246875000.000 -1.1834821850E-001 -3.2883256674E-002 
2268750000.000 -6.8258404732E-002 -9.0390176047E-004 
2290625000.000 -5.2714936435E-002 -4.0325175971E-002 
2312500000.000 -1.0696006566E-001 -5.4847568274E-002 
2334375000.000 -9.7219012678E-002 +4.4108144939E-002 
2356250000.000 +1.2992473319E-002 -3.9007160813E-002 
2378125000.000 -1.3927733898E-001 -7.1863777936E-002 
2400000000.000 -5.6496251374E-002 +6.9830968976E-002 
2421875000.000 -6.2218671665E-003 -6.8575195968E-002 
2443750000.000 -8.9891664684E-002 -3.2867234200E-002 
2465625000.000 -5.3133647889E-002 -3.6312643439E-002 
2487500000.000 -7.1542032063E-002 -1.8024861813E-002 
2509375000.000 -2.7905479074E-002 -6.3387237489E-002 
2531250000.000 -1.2339097261E-001 -6.8465881050E-002 
2553125000.000 -7.9464346170E-002 -7.5349048711E-004 
2575000000.000 -7.5414903462E-002 -4.7753777355E-002 
2596875000.000 -8.7870351970E-002 -3.5118561238E-002 
2618750000.000 -1.1760254204E-001 -3.6460582167E-002 
2640625000.000 -9.0366870165E-002 +2.5460096076E-002 
2662500000.000 -5.1932733506E-002 -3.5699266940E-002 
2684375000.000 -1.1341214925E-001 -2.9381705448E-002 
2706250000.000 -9.7633652389E-002 +1.7327278852E-002 
2728125000.000 -4.0505014360E-002 +1.7578965053E-002 
2750000000.000 -5.3895950317E-002 -6.7736245692E-002 
2771875000.000 -1.3024774194E-001 +2.6790855918E-003 
2793750000.000 -1.4539082535E-002 +1.3330651447E-002 
2815625000.000 -7.3829151690E-002 -8.2597017288E-002 
2837500000.000 -1.0848830640E-001 -1.7314521596E-002 
2859375000.000 -8.5006654263E-002 -1.1623779312E-002 
2881250000.000 -5.2148420364E-002 -2.1923001856E-002 
2903125000.000 -1.0610012710E-001 -8.1524387002E-002 
2925000000.000 -1.3523985445E-001 +1.2038401328E-002 
2946875000.000 -6.6701792181E-002 -2.3951839656E-002 
2968750000.000 -1.2612432241E-001 -2.8175717220E-002 
2990625000.000 -1.1022228003E-001 -9.5930080861E-003 
3012500000.000 -1.2779818475E-001 +1.7545189708E-002 
3034375000.000 -6.8510212004E-002 +3.2270392403E-003 
3056250000.000 -1.4427651465E-001 -9.3029215932E-003 
3078125000.000 -7.0569835603E-002 +6.2384761870E-002 
3100000000.000 -9.0049371123E-002 -3.6008428782E-002 
3121875000.000 -1.0843641311E-001 +6.7677885294E-002 
3143750000.000 -2.1256040782E-002 -2.1449843422E-002 
3165625000.000 -1.4043623209E-001 -5.3252615035E-003 
3187500000.000 -4.1233643889E-002 +5.0890479237E-002 
3209375000.000 -6.0983955860E-002 -4.9955405295E-002 
3231250000.000 -1.1174746603E-001 -7.2705196217E-003 
3253125000.000 -7.8043036163E-002 +6.6011352465E-003 
3275000000.000 -7.9119928181E-002 -4.0500778705E-002 
3296875000.000 -1.4871473610E-001 -1.4388266020E-002 
3318750000.000 -8.7502323091E-002 +2.5613002479E-002 
3340625000.000 -1.3658919930E-001 -3.5489000380E-002 
3362500000.000 -1.3348497450E-001 +7.3468036950E-002 
3384375000.000 -7.0924527943E-002 -1.3161058538E-002 
3406250000.000 -1.7786668241E-001 +4.0806047618E-002 
3428125000.000 -5.7253185660E-002 +8.6614295840E-002 
3450000000.000 -9.4241365790E-002 +1.4098904794E-003 
3471875000.000 -9.9042102695E-002 +6.3519276679E-002 
3493750000.000 -7.0471450686E-002 +4.0622223169E-002 
3515625000.000 -5.5883537978E-002 +4.3580684811E-002 
3537500000.000 -6.0974184424E-002 -1.2671671808E-002 
3559375000.000 -1.1786025763E-001 +1.8053045496E-002 
3581250000.000 -6.9629438221E-002 +5.6689560413E-002 
3603125000.000 -3.8184441626E-002 -1.9944487140E-002 
3625000000.000 -1.6571800411E-001 -3.2370060682E-002 
3646875000.000 -1.0951337963E-001 +1.2136059999E-001 
3668750000.000 -1.9245771691E-002 -4.2388200760E-002 
3690625000.000 -2.3019498587E-001 +1.8202561885E-002 
3712500000.000 -4.9779258668E-002 +1.5478156507E-001 
3734375000.000 -7.5132809579E-002 -3.7592522800E-002 
3756250000.000 -1.5790298581E-001 +1.1048556119E-001 
3778125000.000 -1.9203465432E-002 +7.5811706483E-002 
3800000000.000 -1.0440472513E-001 +3.6968711764E-002 
3821875000.000 -5.7200308889E-002 +1.0477712750E-001 
3843750000.000 -1.8604883924E-002 +3.1769406050E-002 
3865625000.000 -9.4148486853E-002 +1.9277518615E-002 
3887500000.000 -5.7520095259E-002 +1.0249857605E-001 
3909375000.000 +7.8976061195E-003 -1.0620679706E-002 
3931250000.000 -1.4958910644E-001 +4.2396001518E-003 
3953125000.000 -3.4764405340E-002 +1.1548131704E-001 
3975000000.000 -3.7336926907E-002 -4.2716320604E-002 
3996875000.000 -1.4713475108E-001 +4.9882717431E-002 
4018750000.000 -5.2102517337E-002 +8.1181980669E-002 
4040625000.000 -5.9145800769E-002 +3.0041076243E-002 
4062500000.000 -9.9348209798E-002 +2.9492555186E-002 
4084375000.000 -9.6538811922E-002 +1.0493929684E-001 
4106250000.000 -7.2393720038E-003 +5.2411563694E-002 
4128125000.000 -1.2322644889E-001 +2.6661014184E-002 
4150000000.000 -4.9091715366E-002 +1.5408349037E-001 
4171875000.000 +2.9218787327E-002 +1.9910387695E-002 
4193750000.000 -9.8559603095E-002 +1.8205968663E-002 
4215625000.000 -4.7865152359E-002 +1.1078848690E-001 
4237500000.000 +2.7803868055E-002 +3.1972862780E-002 
4259375000.000 -7.9663306475E-002 -2.8228040785E-002 
4281250000.000 -8.7012693286E-002 +1.0237845033E-001 
4303125000.000 +3.0419178307E-002 +2.3065302521E-002 
4325000000.000 -1.1464707553E-001 -2.6850361377E-002 
4346875000.000 -7.8403912485E-002 +1.0774125904E-001 
4368750000.000 -2.0055763423E-002 +1.8699025735E-002 
4390625000.000 -1.0227902234E-001 +4.6501662582E-002 
4412500000.000 -3.4518282861E-002 +7.9160451889E-002 
4434375000.000 -6.1228822917E-002 +2.5356763974E-002 
4456250000.000 -6.9889716804E-002 +9.2035062611E-002 
4478125000.000 +6.9436331978E-004 +4.8220597208E-002 
4500000000.000 -8.7231330574E-002 +1.7832105979E-002 
4521875000.000 -5.1898583770E-002 +1.1887614429E-001 
4543750000.000 +2.2394109517E-002 +2.6381472126E-002 
4565625000.000 -9.2557057738E-002 +8.2733044401E-003 
4587500000.000 -6.2042079866E-002 +1.1052029580E-001 
4609375000.000 +1.8759263679E-002 +5.5673953146E-002 
4631250000.000 -4.9607515335E-002 -7.5829066336E-003 
4653125000.000 -9.3864761293E-002 +7.7775463462E-002 
4675000000.000 +4.2265285738E-003 +9.1782420874E-002 
4696875000.000 -2.0411515608E-002 -1.1242642067E-003 
4718750000.000 -9.1256119311E-002 +5.5595383048E-002 
4740625000.000 -1.6312632710E-002 +1.0821207613E-001 
4762500000.000 +2.0409960300E-002 +1.3731915504E-002 
4784375000.000 -9.4136811793E-002 +1.5663752332E-002 
4806250000.000 -2.6105070487E-002 +1.2380748242E-001 
4828125000.000 +2.2989435121E-002 -5.0998837687E-003 
4850000000.000 -1.0886030644E-001 +4.0476679802E-002 
4871875000.000 -9.2682603281E-004 +1.0672399402E-001 
4893750000.000 -2.2849177942E-002 +1.0092547163E-002 
4915625000.000 -5.9803929180E-002 +8.1118509173E-002 
4937500000.000 +2.8475811705E-003 +7.6991297305E-002 
4959375000.000 -1.8286445411E-003 +4.5482974499E-002 
4981250000.000 -1.8376754597E-002 +4.7252714634E-002 
5003125000.000 +1.0565005243E-002 +6.1979096383E-002 
5025000000.000 +1.2057120912E-002 +1.0976222111E-003 
5046875000.000 -3.8876838982E-002 +2.7506520972E-002 
5068750000.000 -3.4262650297E-004 +2.6578761637E-002 
5090625000.000 -3.6237530410E-002 +9.3943765387E-003 
5112500000.000 -2.3692294955E-002 +2.1279543638E-002 
5134375000.000 -6.6650360823E-002 +8.3206687123E-003 
5156250000.000 -4.9705658108E-002 +6.8856395781E-002 
5178125000.000 -3.0654743314E-002 +2.7374597266E-002 
5200000000.000 -6.7430086434E-002 +6.2136575580E-002 
5221875000.000 -2.5093067437E-002 +7.9054884613E-002 
5243750000.000 -1.5347306617E-002 +7.2533249855E-002 
5265625000.000 +5.7321265340E-003 +5.3037710488E-002 
5287500000.000 -2.6657074690E-002 +4.4915571809E-002 
5309375000.000 -2.5210999884E-003 +8.5254825652E-002 
5331250000.000 +4.7640651464E-002 +4.2636610568E-002 
5353125000.000 -5.2001033910E-003 -1.3040736318E-002 
5375000000.000 -3.7514109164E-002 +6.4525850117E-002 
5396875000.000 +7.1042038500E-002 +3.1223656610E-002 
5418750000.000 -3.9215363562E-002 -7.0913083851E-002 
5440625000.000 -8.1757150590E-002 +7.0237860084E-002 
5462500000.000 +2.4798471481E-002 +3.6452174187E-002 
5484375000.000 -4.7972258180E-002 -9.4997044653E-003 
5506250000.000 -7.2883643210E-002 +5.5192086846E-002 
5528125000.000 -1.9447334111E-002 +1.0315704346E-001 
5550000000.000 +3.4524403512E-002 +3.1546089798E-002 
5571875000.000 -6.5852671862E-002 +3.6676660180E-002 
5593750000.000 +2.3032935336E-002 +1.3064096868E-001 
5615625000.000 +6.7987218499E-002 +1.1572401039E-002 
5637500000.000 -6.8517029285E-003 +2.9056714848E-002 
5659375000.000 +4.2240675539E-002 +4.2827095836E-002 
5681250000.000 +4.5395813882E-002 -1.7789032427E-004 
5703125000.000 +1.9953522831E-002 -3.1093079597E-002 
5725000000.000 -1.4232275076E-002 -1.5449316241E-002 
5746875000.000 -7.3582548648E-003 -2.1768826991E-002 
5768750000.000 -4.4802691787E-002 -1.3786282390E-002 
5790625000.000 -3.0261192471E-002 -5.8972560801E-003 
5812500000.000 -8.7022133172E-002 +7.3121686000E-004 
5834375000.000 -4.3279346079E-002 +7.7486760914E-002 
5856250000.000 -2.7633847669E-002 +1.3505668379E-002 
5878125000.000 -7.4510805309E-002 +8.7695822120E-002 
5900000000.000 +2.8799733147E-002 +9.7357392311E-002 
5921875000.000 +9.8365033045E-003 +4.5484133065E-002 
5943750000.000 +2.8061738238E-002 +7.6219752431E-002 
5965625000.000 +6.2473930418E-002 +4.1981659830E-002 
5987500000.000 +6.2898747623E-002 +6.0789566487E-003 
6009375000.000 +3.6321602762E-002 -1.3627637178E-002 
6031250000.000 +5.0361827016E-002 -9.2891436070E-003 
6053125000.000 +3.1061781570E-002 -7.7324695885E-002 
6075000000.000 -4.8118215054E-002 -4.3441224843E-002 
6096875000.000 -4.8744259402E-003 -1.2621019967E-002 
6118750000.000 -4.1497901082E-002 -6.6906534135E-002 
6140625000.000 -9.9911369383E-002 +2.6998710819E-003 
6162500000.000 -4.5330118388E-002 +4.1867837310E-002 
6184375000.000 -5.2363578230E-002 +2.3807669058E-002 
6206250000.000 -4.7651823610E-002 +7.2674199939E-002 
6228125000.000 +2.5875493884E-003 +7.3483347893E-002 
6250000000.000 +1.9198181108E-002 +6.3463248312E-002 
6271875000.000 +5.0437089056E-002 +4.6698350459E-002 
6293750000.000 +5.2171476185E-002 +1.2444024906E-002 
6315625000.000 +4.8739444464E-002 +3.3758971840E-003 
6337500000.000 +6.8750873208E-002 -1.8280854449E-002 
6359375000.000 +4.8085369170E-002 -8.5255324841E-002 
6381250000.000 -2.9864039272E-002 -7.0316344500E-002 
6403125000.000 +1.3252369827E-003 -4.2435772717E-002 
6425000000.000 -4.3009668589E-002 -1.0059306026E-001 
6446875000.000 -1.0416731983E-001 -3.2784044743E-002 
6468750000.000 -7.6558552682E-002 +8.4207736654E-004 
6490625000.000 -7.4221462011E-002 +1.7160112038E-002 
6512500000.000 -7.6074093580E-002 +2.2132361308E-002 
6534375000.000 -7.3026940227E-002 +9.3369610608E-002 
6556250000.000 +3.1929567456E-002 +7.4219346046E-002 
6578125000.000 -2.0908761770E-002 +3.0388852581E-002 
6600000000.000 +4.6422872692E-002 +9.2995814979E-002 
6621875000.000 +7.2477094829E-002 -2.1897977218E-002 
6643750000.000 +1.6482304782E-002 +7.9384408891E-003 
6665625000.000 +7.2051592171E-002 -2.6579568163E-002 
6687500000.000 +2.2304562852E-002 -6.4270034432E-002 
6709375000.000 +7.8240260482E-003 -7.6846681535E-002 
6731250000.000 -4.4266879559E-002 -5.7307213545E-002 
6753125000.000 -4.4305147603E-003 -6.2117043883E-002 
6775000000.000 -1.1268983036E-001 -9.2225641012E-002 
6796875000.000 -9.4099171460E-002 +5.4152574390E-002 
6818750000.000 -1.1969402432E-002 -2.9744593427E-002 
6840625000.000 -1.3195653260E-001 -1.9697546959E-003 
6862500000.000 -4.5215018094E-002 +1.1014176905E-001 
6884375000.000 +2.8699239716E-002 +2.1681910381E-002 
6906250000.000 -5.0252750516E-002 +1.1799587868E-002 
6928125000.000 +1.3213736936E-002 +9.5730833709E-002 
6950000000.000 +8.7111160159E-002 -1.7824813724E-002 
6971875000.000 -1.5728952363E-002 -3.2436411828E-002 
6993750000.000 +4.8279434443E-002 +1.7374400049E-003 
7015625000.000 +1.6569877043E-002 -8.9590609074E-002 
7037500000.000 -3.2428365201E-002 -5.4657496512E-002 
7059375000.000 -3.6612994969E-002 -5.9234507382E-002 
7081250000.000 -4.7652512789E-002 -4.7798823565E-002 
7103125000.000 -9.3791440129E-002 -5.9119801968E-002 
7125000000.000 -9.0826295316E-002 +4.0528248996E-002 
7146875000.000 -2.7969958261E-002 -2.8566449881E-002 
7168750000.000 -1.4737422764E-001 +3.4136500210E-002 
7190625000.000 +1.5322687104E-002 +1.1822333932E-001 
7212500000.000 -7.2741573676E-003 -3.7382781506E-002 
7234375000.000 -6.0474626720E-002 +8.3246171474E-002 
7256250000.000 +7.2633184493E-002 +4.8743631691E-002 
7278125000.000 +2.7371644974E-002 -3.4235984087E-002 
7300000000.000 -3.9355629124E-003 -1.0004326701E-002 
7321875000.000 +3.8296375424E-002 -9.2958944151E-004 
7343750000.000 +2.9344605282E-002 -9.5801979303E-002 
7365625000.000 -7.5458675623E-002 -5.1111079752E-002 
7387500000.000 +3.4303527791E-003 -1.4164772816E-002 
7409375000.000 -5.1251213998E-002 -9.5189779997E-002 
7431250000.000 -1.0267103463E-001 -6.9528529420E-003 
7453125000.000 -3.9735749364E-002 +1.4903889038E-002 
7475000000.000 -4.3988257647E-002 -2.9918976128E-002 
7496875000.000 -1.1163835973E-001 +1.9987784326E-002 
7518750000.000 +6.6462084651E-003 +1.0326384008E-001 
7540625000.000 +3.1079033390E-002 -6.1427082866E-002 
7562500000.000 -1.0349662602E-001 +4.0451392531E-002 
7584375000.000 +9.3590453267E-002 +7.5980164111E-002 
7606250000.000 +3.1912572682E-002 -1.1450441927E-001 
7628125000.000 -6.8739727139E-002 -3.4354429226E-003 
7650000000.000 +5.0072107464E-002 +5.0959573127E-003 
7671875000.000 +1.6056567430E-002 -1.1713519692E-001 
7693750000.000 -1.0504529625E-001 -6.0152683407E-002 
7715625000.000 -6.3343262300E-003 +1.3507793657E-002 
7737500000.000 -3.8491997868E-002 -1.1950815469E-001 
7759375000.000 -1.3569380343E-001 +9.6180308610E-003 
7781250000.000 +1.6520839417E-003 +2.7719137724E-003 
7803125000.000 -1.0555022210E-001 -4.4039513916E-002 
7825000000.000 -4.1630551219E-002 +7.4465520680E-002 
7846875000.000 +3.4595646430E-003 -3.1561370939E-002 
7868750000.000 -6.5791852772E-002 +1.0820874013E-002 
7890625000.000 +1.4020217583E-002 +2.8220374137E-002 
7912500000.000 +2.0293520764E-002 -4.2765051126E-002 
7934375000.000 -3.8499720395E-002 -6.0980830342E-002 
7956250000.000 -3.6455418915E-002 +3.2638148405E-003 
7978125000.000 +3.3723589033E-002 -6.5375424922E-002 
8000000000.000 -9.7476072609E-002 -1.1355769634E-001 
8021875000.000 -9.4007782638E-002 +2.5097597390E-002 
8043750000.000 -8.5105356993E-004 -4.6169016510E-002 
8065625000.000 -1.2320717424E-001 -7.1049921215E-002 
8087500000.000 -9.3597561121E-002 +5.7426512241E-002 
8109375000.000 -6.9854622707E-003 -1.0029133409E-002 
8131250000.000 -9.4170972705E-002 -1.9083661959E-002 
8153125000.000 -3.5659804940E-002 +5.7537175715E-002 
8175000000.000 +1.8851833884E-003 -2.1109426394E-002 
8196875000.000 -4.6456579119E-002 -1.0078241117E-002 
8218750000.000 -6.3915415667E-003 -2.1327754948E-003 
8240625000.000 -9.3572381884E-003 -4.5319493860E-002 
8262500000.000 -4.1206955910E-002 -5.5557779968E-002 
8284375000.000 -5.0070095807E-002 -3.4703895450E-002 
8306250000.000 -3.9912752807E-002 -5.7682465762E-002 
8328125000.000 -9.1536983848E-002 -5.5586986244E-002 
8350000000.000 -7.8733310103E-002 -1.4731382020E-002 
8371875000.000 -7.8495055437E-002 -3.1114785001E-002 
8393750000.000 -9.4516821206E-002 -8.4505407140E-003 
8415625000.000 -8.5937045515E-002 +1.3542975299E-002 
8437500000.000 -5.2896812558E-002 +2.4003634229E-002 
8459375000.000 -5.6812699884E-002 -6.6673341207E-003 
8481250000.000 -5.7841669768E-002 +3.3089749515E-002 
8503125000.000 -8.8830720633E-003 -5.8085415512E-003 
8525000000.000 -6.1887592077E-002 -1.2015856802E-002 
8546875000.000 -7.5914072804E-003 +1.3678804040E-002 
8568750000.000 -2.4353308603E-002 -6.4242511988E-002 
8590625000.000 -7.1174927056E-002 -2.2515553981E-002 
8612500000.000 -2.6142748073E-002 -3.0513266101E-002 
8634375000.000 -7.3490768671E-002 -7.6499529183E-002 
8656250000.000 -1.1697100848E-001 -1.2957320549E-002 
8678125000.000 -4.8816032708E-002 +8.7072944734E-004 
8700000000.000 -9.9509157240E-002 -6.1313588172E-002 
8721875000.000 -1.3022968173E-001 +4.3428644538E-002 
8743750000.000 -3.2123729587E-002 +2.3203596473E-002 
8765625000.000 -9.4888649881E-002 -8.6647775024E-003 
8787500000.000 -6.1546061188E-002 +5.4746795446E-002 
8809375000.000 -2.8891852126E-002 +1.4367358759E-002 
8831250000.000 -3.2469145954E-002 +8.3238044754E-003 
8853125000.000 -3.4977622330E-002 -9.3826251104E-003 
8875000000.000 -2.6080137119E-002 -2.1662085783E-003 
8896875000.000 -2.7731122449E-002 -4.9322552979E-002 
8918750000.000 -7.3063954711E-002 -2.8967965394E-002 
8940625000.000 -4.2857207358E-002 -2.8714150190E-002 
8962500000.000 -8.2635626197E-002 -5.1248386502E-002 
8984375000.000 -9.2415556312E-002 -1.1301462539E-002 
9006250000.000 -7.3208011687E-002 -1.2771536596E-002 
