!  1-Port S-parameters saved by WinCal
! VAR NAME=Unknown labuser
! VAR Error Term Name=ERft phys rcv port 1 phys src port 1
!
# Hz S RI R 50
1000000000.000 -7.1534955502E-001 +3.1341311336E-001 
1021875000.000 +7.4507629871E-001 +2.3988844454E-001 
1043750000.000 -4.0442702174E-001 -6.7140167952E-001 
1065625000.000 -1.3889583945E-001 +7.6633638144E-001 
1087500000.000 +6.0888254642E-001 -4.7840443254E-001 
1109375000.000 -7.6548963785E-001 -4.5889526606E-002 
1131250000.000 +5.3817290068E-001 +5.3924894333E-001 
1153125000.000 -4.4665329158E-002 -7.5367945433E-001 
1175000000.000 -4.7223082185E-001 +5.8558171988E-001 
1196875000.000 +7.4134248495E-001 -1.2323892862E-001 
1218750000.000 -6.2230098248E-001 -4.0469706059E-001 
1240625000.000 +1.8695853651E-001 +7.2747689486E-001 
1262500000.000 +3.3856242895E-001 -6.6792035103E-001 
1284375000.000 -6.9608724117E-001 +2.6176315546E-001 
1306250000.000 +7.0074439049E-001 +2.7358794212E-001 
1328125000.000 -3.4269663692E-001 -6.6814005375E-001 
1350000000.000 -1.9030790031E-001 +7.2784280777E-001 
1371875000.000 +6.2575411797E-001 -4.2307186127E-001 
1393750000.000 -7.4955701828E-001 -9.5452889800E-002 
1415625000.000 +4.9981972575E-001 +5.6649369001E-001 
1437500000.000 -4.4788196101E-004 -7.5179243088E-001 
1459375000.000 -4.9590459466E-001 +5.6112241745E-001 
1481250000.000 +7.3935216665E-001 -9.6765600145E-002 
1503125000.000 -6.0983920097E-001 -4.0804642439E-001 
1525000000.000 +1.8228340149E-001 +7.0913302898E-001 
1546875000.000 +3.3543679118E-001 -6.5632545948E-001 
1568750000.000 -6.8085402250E-001 +2.7284049988E-001 
1590625000.000 +6.8074709177E-001 +2.4806489050E-001 
1612500000.000 -3.4140786529E-001 -6.4225876331E-001 
1634375000.000 -1.6538326442E-001 +7.0717394352E-001 
1656250000.000 +5.9237009287E-001 -4.1000738740E-001 
1678125000.000 -7.1716326475E-001 -9.2193834484E-002 
1700000000.000 +4.7109746933E-001 +5.4723477364E-001 
1721875000.000 +1.5263468027E-002 -7.2515732050E-001 
1743750000.000 -4.9454796314E-001 +5.3155881166E-001 
1765625000.000 +7.3146617413E-001 -7.0479840040E-002 
1787500000.000 -5.9861093760E-001 -4.2716467381E-001 
1809375000.000 +1.6194285452E-001 +7.2084414959E-001 
1831250000.000 +3.5073262453E-001 -6.5497338772E-001 
1853125000.000 -6.8917417526E-001 +2.5745844841E-001 
1875000000.000 +6.8903380632E-001 +2.6398819685E-001 
1896875000.000 -3.4403672814E-001 -6.4922988415E-001 
1918750000.000 -1.7152483761E-001 +7.0952636003E-001 
1940625000.000 +5.9787803888E-001 -4.1121527553E-001 
1962500000.000 -7.1987628937E-001 -8.7829917669E-002 
1984375000.000 +4.7474378347E-001 +5.3553807735E-001 
2006250000.000 +6.1235399917E-003 -7.1595323086E-001 
2028125000.000 -4.7356551886E-001 +5.3356319666E-001 
2050000000.000 +7.0461326838E-001 -7.8580833972E-002 
2071875000.000 -5.8126509190E-001 -4.0695065260E-001 
2093750000.000 +1.5782308578E-001 +6.8171125650E-001 
2115625000.000 +3.3984044194E-001 -6.1579775810E-001 
2137500000.000 -6.5859723091E-001 +2.3422834277E-001 
2159375000.000 +6.4672547579E-001 +2.6945152879E-001 
2181250000.000 -3.0580917001E-001 -6.3286048174E-001 
2203125000.000 -1.9157598913E-001 +6.7843723297E-001 
2225000000.000 +5.8781719208E-001 -3.8334193826E-001 
2246875000.000 -6.8840974569E-001 -1.0789559782E-001 
2268750000.000 +4.4709929824E-001 +5.3951096535E-001 
2290625000.000 +1.6377743334E-002 -6.9834315777E-001 
2312500000.000 -4.6922281384E-001 +5.0650405884E-001 
2334375000.000 +6.8729549646E-001 -6.0935128480E-002 
2356250000.000 -5.6131798029E-001 -4.0205478668E-001 
2378125000.000 +1.4302320778E-001 +6.5760433674E-001 
2400000000.000 +3.4585532546E-001 -5.8845031261E-001 
2421875000.000 -6.4466887712E-001 +2.2009536624E-001 
2443750000.000 +6.1994898319E-001 +2.6541939378E-001 
2465625000.000 -2.8760886192E-001 -6.0833609104E-001 
2487500000.000 -1.9252991676E-001 +6.3832759857E-001 
2509375000.000 +5.6462502480E-001 -3.4764808416E-001 
2531250000.000 -6.4032709599E-001 -1.2183281034E-001 
2553125000.000 +3.9367672801E-001 +5.2859610319E-001 
2575000000.000 +5.4712135345E-002 -6.5671247244E-001 
2596875000.000 -4.7787073255E-001 +4.5281112194E-001 
2618750000.000 +6.5438473225E-001 -1.8042759970E-002 
2640625000.000 -4.9858886003E-001 -4.2935609818E-001 
2662500000.000 +9.1169342399E-002 +6.5272367001E-001 
2684375000.000 +3.6700052023E-001 -5.4169452190E-001 
2706250000.000 -6.3895738125E-001 +1.5736453235E-001 
2728125000.000 +5.8656352758E-001 +3.0860376358E-001 
2750000000.000 -2.3673199117E-001 -6.1254817247E-001 
2771875000.000 -2.3731240630E-001 +6.0254740715E-001 
2793750000.000 +5.8519673347E-001 -2.9686522484E-001 
2815625000.000 -6.2494134903E-001 -1.5718564391E-001 
2837500000.000 +3.5352179408E-001 +5.3308582306E-001 
2859375000.000 +9.0413577855E-002 -6.3084053993E-001 
2881250000.000 -4.8546785116E-001 +4.0805253386E-001 
2903125000.000 +6.2172770500E-001 +1.9758697599E-002 
2925000000.000 -4.3937337399E-001 -4.3865701556E-001 
2946875000.000 +3.8214918226E-002 +6.2596303225E-001 
2968750000.000 +3.8862121105E-001 -4.8488372564E-001 
2990625000.000 -6.1637264490E-001 +9.8460234702E-002 
3012500000.000 +5.1769858599E-001 +3.4203064442E-001 
3034375000.000 -1.5825396776E-001 -6.0703963041E-001 
3056250000.000 -2.8586935997E-001 +5.4774039984E-001 
3078125000.000 +5.9442538023E-001 -2.1023902297E-001 
3100000000.000 -5.8808964491E-001 -2.2733020782E-001 
3121875000.000 +2.7515292168E-001 +5.6334960461E-001 
3143750000.000 +1.6188228130E-001 -6.1705052853E-001 
3165625000.000 -5.1926392317E-001 +3.4644818306E-001 
3187500000.000 +6.2738353014E-001 +9.3419954181E-002 
3209375000.000 -4.1646927595E-001 -4.7853654623E-001 
3231250000.000 -6.8901181221E-003 +6.3008356094E-001 
3253125000.000 +4.2225492001E-001 -4.6927505732E-001 
3275000000.000 -6.2212508917E-001 +7.7850855887E-002 
3296875000.000 +5.0760638714E-001 +3.5193091631E-001 
3318750000.000 -1.4737632871E-001 -6.0819143057E-001 
3340625000.000 -2.8145417571E-001 +5.4712253809E-001 
3362500000.000 +5.7908433676E-001 -2.0505072176E-001 
3384375000.000 -5.7887893915E-001 -2.2346061468E-001 
3406250000.000 +2.6422157884E-001 +5.3699851036E-001 
3428125000.000 +1.8070843816E-001 -5.8675897121E-001 
3450000000.000 -5.1938205957E-001 +3.2577094436E-001 
3471875000.000 +5.9953975677E-001 +1.1387567967E-001 
3493750000.000 -3.7382742763E-001 -4.9018543959E-001 
3515625000.000 -5.1331955940E-002 +6.1533802748E-001 
3537500000.000 +4.4525733590E-001 -4.2995086312E-001 
3559375000.000 -6.1270606518E-001 +2.3685637861E-002 
3581250000.000 +4.7279626131E-001 +3.9607173204E-001 
3603125000.000 -9.7843311727E-002 -6.1070454121E-001 
3625000000.000 -3.2046213746E-001 +5.0790363550E-001 
3646875000.000 +5.8301448822E-001 -1.4948143065E-001 
3668750000.000 -5.5075716972E-001 -2.6120015979E-001 
3690625000.000 +2.1853809059E-001 +5.3326892853E-001 
3712500000.000 +2.2635288537E-001 -5.5418199301E-001 
3734375000.000 -5.3299987316E-001 +2.8888922930E-001 
3756250000.000 +5.6670999527E-001 +1.5098834038E-001 
3778125000.000 -3.2898342609E-001 -5.0951200724E-001 
3800000000.000 -8.1084199250E-002 +5.9159857035E-001 
3821875000.000 +4.5999076962E-001 -3.7323459983E-001 
3843750000.000 -5.9769797325E-001 -3.1935591251E-002 
3865625000.000 +4.2063510418E-001 +4.1560503840E-001 
3887500000.000 -2.4112880230E-002 -5.8574694395E-001 
3909375000.000 -3.7563484907E-001 +4.5861423016E-001 
3931250000.000 +5.7355624437E-001 -9.2255771160E-002 
3953125000.000 -4.8727753758E-001 -3.2656389475E-001 
3975000000.000 +1.5676344931E-001 +5.7084399462E-001 
3996875000.000 +2.6245296001E-001 -5.2009105682E-001 
4018750000.000 -5.5186361074E-001 +2.1701197326E-001 
4040625000.000 +5.6311589479E-001 +1.9171726704E-001 
4062500000.000 -2.9952105880E-001 -5.0748342276E-001 
4084375000.000 -1.1393803358E-001 +5.7193475962E-001 
4106250000.000 +4.7288730741E-001 -3.6124297976E-001 
4128125000.000 -5.8205389977E-001 -3.2195743173E-002 
4150000000.000 +3.9623522758E-001 +4.1795080900E-001 
4171875000.000 -2.0839247853E-002 -5.9066146612E-001 
4193750000.000 -3.6483222246E-001 +4.5679363608E-001 
4215625000.000 +5.7341152430E-001 -9.0182453394E-002 
4237500000.000 -4.9147865176E-001 -3.1919589639E-001 
4259375000.000 +1.5709589422E-001 +5.5837017298E-001 
4281250000.000 +2.5912484527E-001 -5.0924456120E-001 
4303125000.000 -5.3832995892E-001 +2.0786862075E-001 
4325000000.000 +5.3297907114E-001 +1.9353467226E-001 
4346875000.000 -2.5540399551E-001 -5.0583022833E-001 
4368750000.000 -1.4353786409E-001 +5.5713063478E-001 
4390625000.000 +4.7100970149E-001 -3.1672582030E-001 
4412500000.000 -5.6619161367E-001 -8.2493998110E-002 
4434375000.000 +3.7220305204E-001 +4.3357500434E-001 
4456250000.000 +1.4564706944E-002 -5.6541806459E-001 
4478125000.000 -3.9054763317E-001 +4.1790166497E-001 
4500000000.000 +5.6351870298E-001 -5.8052167296E-002 
4521875000.000 -4.4923594594E-001 -3.3779469132E-001 
4543750000.000 +1.1408825964E-001 +5.6029850245E-001 
4565625000.000 +2.7871277928E-001 -4.9270245433E-001 
4587500000.000 -5.3357601166E-001 +1.7513695359E-001 
4609375000.000 +5.2215844393E-001 +2.2985808551E-001 
4631250000.000 -2.4331526458E-001 -5.1592904329E-001 
4653125000.000 -1.6270849109E-001 +5.3884983063E-001 
4675000000.000 +4.8770502210E-001 -2.8587427735E-001 
4696875000.000 -5.5634105206E-001 -1.0740896314E-001 
4718750000.000 +3.3903875947E-001 +4.4332197309E-001 
4740625000.000 +4.9772035331E-002 -5.5448591709E-001 
4762500000.000 -4.0827432275E-001 +3.8448461890E-001 
4784375000.000 +5.5405449867E-001 -1.7223678529E-002 
4806250000.000 -4.1914865375E-001 -3.6135739088E-001 
4828125000.000 +7.8754574060E-002 +5.5606651306E-001 
4850000000.000 +3.0358427763E-001 -4.6320563555E-001 
4871875000.000 -5.4056781530E-001 +1.4136765897E-001 
4893750000.000 +5.0591230392E-001 +2.4877952039E-001 
4915625000.000 -2.1079663932E-001 -5.1561969519E-001 
4937500000.000 -1.9173038006E-001 +5.2492362261E-001 
4959375000.000 +4.9382305145E-001 -2.6528790593E-001 
4981250000.000 -5.4382270575E-001 -1.2996548414E-001 
5003125000.000 +3.1302857399E-001 +4.5969873667E-001 
5025000000.000 +7.3620744050E-002 -5.5169481039E-001 
5046875000.000 -4.2185518146E-001 +3.6109736562E-001 
5068750000.000 +5.5630260706E-001 +1.3169260696E-002 
5090625000.000 -4.0626940131E-001 -3.7873107195E-001 
5112500000.000 +4.9423802644E-002 +5.5357873440E-001 
5134375000.000 +3.2670614123E-001 -4.4371026754E-001 
5156250000.000 -5.3902566433E-001 +1.0827557743E-001 
5178125000.000 +4.7675758600E-001 +2.7623137832E-001 
5200000000.000 -1.6962625086E-001 -5.1720899343E-001 
5221875000.000 -2.2140029073E-001 +4.9949690700E-001 
5243750000.000 +4.9690663815E-001 -2.2922815382E-001 
5265625000.000 -5.2570933104E-001 -1.6000477970E-001 
5287500000.000 +2.9069450498E-001 +4.6572083235E-001 
5309375000.000 +9.2301756144E-002 -5.3823238611E-001 
5331250000.000 -4.2750969529E-001 +3.4251841903E-001 
5353125000.000 +5.4738289118E-001 +2.5242855772E-002 
5375000000.000 -3.8788011670E-001 -3.8056722283E-001 
5396875000.000 +3.3038061112E-002 +5.3823757172E-001 
5418750000.000 +3.3493527770E-001 -4.1556626558E-001 
5440625000.000 -5.2844488621E-001 +7.4397981167E-002 
5462500000.000 +4.4844901562E-001 +3.0218565464E-001 
5484375000.000 -1.3532213867E-001 -5.2037680149E-001 
5506250000.000 -2.4548563361E-001 +4.7334551811E-001 
5528125000.000 +4.9859386683E-001 -1.8436646461E-001 
5550000000.000 -4.9733090401E-001 -1.9691677392E-001 
5571875000.000 +2.4216449261E-001 +4.6938550472E-001 
5593750000.000 +1.4112643898E-001 -5.0315749645E-001 
5615625000.000 -4.4983509183E-001 +2.8564310074E-001 
5637500000.000 +5.2961027622E-001 +7.9771913588E-002 
5659375000.000 -3.4549430013E-001 -4.0840324759E-001 
5681250000.000 -1.1421105824E-002 +5.3568834066E-001 
5703125000.000 +3.6465898156E-001 -3.9204451442E-001 
5725000000.000 -5.3393727541E-001 +5.2896570414E-002 
5746875000.000 +4.3672534823E-001 +3.1145161390E-001 
5768750000.000 -1.2045493722E-001 -5.2128016949E-001 
5790625000.000 -2.5489342213E-001 +4.7125032544E-001 
5812500000.000 +4.9828431010E-001 -1.7722524703E-001 
5834375000.000 -4.8804238439E-001 -2.1037505567E-001 
5856250000.000 +2.2768050432E-001 +4.8498764634E-001 
5878125000.000 +1.5209710598E-001 -5.0509834290E-001 
5900000000.000 -4.5775970817E-001 +2.7397331595E-001 
5921875000.000 +5.2919989824E-001 +9.5855586231E-002 
5943750000.000 -3.2817599177E-001 -4.1969051957E-001 
5965625000.000 -3.8804933429E-002 +5.2930086851E-001 
5987500000.000 +3.8081586361E-001 -3.6649197340E-001 
6009375000.000 -5.2349656820E-001 +2.0622465760E-002 
6031250000.000 +4.0369790792E-001 +3.2890480757E-001 
6053125000.000 -8.4476113319E-002 -5.0726956129E-001 
6075000000.000 -2.8149312735E-001 +4.2987897992E-001 
6096875000.000 +4.9969595671E-001 -1.3288964331E-001 
6118750000.000 -4.5695590973E-001 -2.2772718966E-001 
6140625000.000 +1.8203811347E-001 +4.7384843230E-001 
6162500000.000 +1.8393711746E-001 -4.8054191470E-001 
6184375000.000 -4.5542228222E-001 +2.4142587185E-001 
6206250000.000 +4.9909675121E-001 +1.2330293655E-001 
6228125000.000 -2.8719311953E-001 -4.3195697665E-001 
6250000000.000 -7.5771324337E-002 +5.1545840502E-001 
6271875000.000 +3.9926433563E-001 -3.3632317185E-001 
6293750000.000 -5.2363997698E-001 -1.3134268112E-002 
6315625000.000 +3.8241699338E-001 +3.5743936896E-001 
6337500000.000 -5.0135273486E-002 -5.1928174496E-001 
6359375000.000 -3.0436646938E-001 +4.1764125228E-001 
6381250000.000 +5.0567030907E-001 -1.0325489193E-001 
6403125000.000 -4.4850742817E-001 -2.5952601433E-001 
6425000000.000 +1.6697175801E-001 +4.7945469618E-001 
6446875000.000 +1.9980032742E-001 -4.6279227734E-001 
6468750000.000 -4.6100911498E-001 +2.1043424308E-001 
6490625000.000 +4.8258712888E-001 +1.4988039434E-001 
6512500000.000 -2.6091307402E-001 -4.2991453409E-001 
6534375000.000 -9.7641520202E-002 +4.8553770781E-001 
6556250000.000 +4.0782451630E-001 -2.9429781437E-001 
6578125000.000 -5.0367957354E-001 -3.9118718356E-002 
6600000000.000 +3.4238585830E-001 +3.6321535707E-001 
6621875000.000 -5.0140940584E-003 -5.0455248356E-001 
6643750000.000 -3.3174034953E-001 +3.8411450386E-001 
6665625000.000 +5.0120073557E-001 -6.8463675678E-002 
6687500000.000 -4.1961526871E-001 -2.8534173965E-001 
6709375000.000 +1.2470202893E-001 +4.9158942699E-001 
6731250000.000 +2.3555423319E-001 -4.4889867306E-001 
6753125000.000 -4.7509136796E-001 +1.8334309757E-001 
6775000000.000 +4.6033138037E-001 +1.7932783067E-001 
6796875000.000 -2.1353618801E-001 -4.5190939307E-001 
6818750000.000 -1.3120390475E-001 +4.9443849921E-001 
6840625000.000 +4.1469326615E-001 -2.7408394217E-001 
6862500000.000 -4.9149891734E-001 -8.6898148060E-002 
6884375000.000 +3.1953021884E-001 +3.9898100495E-001 
6906250000.000 +1.6600575298E-002 -5.0714468956E-001 
6928125000.000 -3.5089087486E-001 +3.5662740469E-001 
6950000000.000 +5.0396078825E-001 -3.0672289431E-002 
6971875000.000 -4.0137565136E-001 -3.1007274985E-001 
6993750000.000 +9.3746922910E-002 +4.9730834365E-001 
7015625000.000 +2.6027238369E-001 -4.2943730950E-001 
7037500000.000 -4.8002377152E-001 +1.4849145710E-001 
7059375000.000 +4.5778444409E-001 +2.0388099551E-001 
7081250000.000 -2.0406346023E-001 -4.5576253533E-001 
7103125000.000 -1.4383973181E-001 +4.7091829777E-001 
7125000000.000 +4.2184984684E-001 -2.4680449069E-001 
7146875000.000 -4.8695448041E-001 -9.3200735748E-002 
7168750000.000 +2.8959041834E-001 +3.7706384063E-001 
7190625000.000 +5.5309277028E-002 -4.7712594271E-001 
7212500000.000 -3.6408394575E-001 +3.3655467629E-001 
7234375000.000 +4.8731318116E-001 -9.2398095876E-003 
7256250000.000 -3.7034922838E-001 -3.2615193725E-001 
7278125000.000 +6.6609159112E-002 +4.9487575889E-001 
7300000000.000 +2.7697309852E-001 -4.1443601251E-001 
7321875000.000 -4.7871696949E-001 +1.3042391837E-001 
7343750000.000 +4.4239231944E-001 +2.1492756903E-001 
7365625000.000 -1.7998676002E-001 -4.5560914278E-001 
7387500000.000 -1.7001543939E-001 +4.6457433701E-001 
7409375000.000 +4.2763662338E-001 -2.3562988639E-001 
7431250000.000 -4.6955773234E-001 -1.1454053223E-001 
7453125000.000 +2.7540713549E-001 +4.0336582065E-001 
7475000000.000 +5.3658574820E-002 -4.8589545488E-001 
7496875000.000 -3.5366266966E-001 +3.2181477547E-001 
7518750000.000 +4.7335439920E-001 +1.2429389171E-002 
7540625000.000 -3.4889125824E-001 -3.3023151755E-001 
7562500000.000 +4.4436424971E-002 +4.6871882677E-001 
7584375000.000 +2.8636625409E-001 -3.6848676205E-001 
7606250000.000 -4.6902826428E-001 +7.9806052148E-002 
7628125000.000 +4.1029834747E-001 +2.5411126018E-001 
7650000000.000 -1.4137277007E-001 -4.6531930566E-001 
7671875000.000 -2.0351687074E-001 +4.3766433001E-001 
7693750000.000 +4.4246304035E-001 -1.8370521069E-001 
7715625000.000 -4.5950779319E-001 -1.5911285579E-001 
7737500000.000 +2.4192294478E-001 +4.1511845589E-001 
7759375000.000 +1.0886973143E-001 -4.6115380526E-001 
7781250000.000 -4.0041536093E-001 +2.7855142951E-001 
7803125000.000 +4.7892084718E-001 +5.0333686173E-002 
7825000000.000 -3.1261447072E-001 -3.6077523232E-001 
7846875000.000 -4.1794804856E-003 +4.8424172401E-001 
7868750000.000 +3.1800913811E-001 -3.6125665903E-001 
7890625000.000 -4.7761291265E-001 +5.4331265390E-002 
7912500000.000 +3.9337792993E-001 +2.7906584740E-001 
7934375000.000 -1.1089848727E-001 -4.6825769544E-001 
7956250000.000 -2.2815109789E-001 +4.2267787457E-001 
7978125000.000 +4.4687685370E-001 -1.6488023102E-001 
8000000000.000 -4.3281653523E-001 -1.7221415043E-001 
8021875000.000 +2.0120371878E-001 +4.2504668236E-001 
8043750000.000 +1.3233220577E-001 -4.5913961530E-001 
8065625000.000 -3.9594975114E-001 +2.5147619843E-001 
8087500000.000 +4.6094018221E-001 +8.5556961596E-002 
8109375000.000 -2.9512473941E-001 -3.7763857841E-001 
8131250000.000 -2.4683041498E-002 +4.7574004531E-001 
8153125000.000 +3.3332160115E-001 -3.3678436279E-001 
8175000000.000 -4.7758641839E-001 +3.2987929881E-002 
8196875000.000 +3.7967842817E-001 +2.8996390104E-001 
8218750000.000 -8.7533921003E-002 -4.6826186776E-001 
8240625000.000 -2.4409459531E-001 +4.0728986263E-001 
8262500000.000 +4.5186063647E-001 -1.4066210389E-001 
8284375000.000 -4.3037992716E-001 -1.9605085254E-001 
8306250000.000 +1.9248862565E-001 +4.3021830916E-001 
8328125000.000 +1.4095555246E-001 -4.4624152780E-001 
8350000000.000 -4.0576273203E-001 +2.3575638235E-001 
8371875000.000 +4.5980295539E-001 +9.6249081194E-002 
8393750000.000 -2.7905488014E-001 -3.7623599172E-001 
8415625000.000 -4.1869685054E-002 +4.6649244428E-001 
8437500000.000 +3.4296411276E-001 -3.2047033310E-001 
8459375000.000 -4.6973103285E-001 +1.2719865888E-002 
8481250000.000 +3.5856780410E-001 +3.0031636357E-001 
8503125000.000 -6.4486168325E-002 -4.6470859647E-001 
8525000000.000 -2.6193749905E-001 +3.9031428099E-001 
8546875000.000 +4.5410552621E-001 -1.2015616894E-001 
8568750000.000 -4.1878932714E-001 -2.1157428622E-001 
8590625000.000 +1.7161644995E-001 +4.3759170175E-001 
8612500000.000 +1.5769839287E-001 -4.4241607189E-001 
8634375000.000 -4.0604528785E-001 +2.2567124665E-001 
8656250000.000 +4.4860610366E-001 +1.0685068369E-001 
8678125000.000 -2.6760247350E-001 -3.8040453196E-001 
8700000000.000 -4.5271053910E-002 +4.5609512925E-001 
8721875000.000 +3.3912691474E-001 -2.9836639762E-001 
8743750000.000 -4.6018108726E-001 -6.3221775927E-003 
8765625000.000 +3.4292563796E-001 +3.0510085821E-001 
8787500000.000 -4.9125093967E-002 -4.5573166013E-001 
8809375000.000 -2.7043250203E-001 +3.7449207902E-001 
8831250000.000 +4.5149236917E-001 -1.0244923085E-001 
8853125000.000 -4.0652382374E-001 -2.2153957188E-001 
8875000000.000 +1.5657202899E-001 +4.3520355225E-001 
8896875000.000 +1.7146497965E-001 -4.2801472545E-001 
8918750000.000 -4.1223153472E-001 +2.0648054779E-001 
8940625000.000 +4.4658732414E-001 +1.1932103336E-001 
8962500000.000 -2.5043621659E-001 -3.8405528665E-001 
8984375000.000 -7.0101231337E-002 +4.5354369283E-001 
9006250000.000 +3.5161390901E-001 -2.9571864009E-001 
