!  1-Port S-parameters saved by WinCal
! VAR NAME=Unknown labuser
! VAR Error Term Name=ELdm phys rcv port 1 phys src port 2
!
# Hz S RI R 50
1000000000.000 -6.0412481427E-002 +1.4779984951E-001 
1021875000.000 +7.1120023727E-002 -1.4082960784E-001 
1043750000.000 -8.8000848889E-002 +9.7500540316E-002 
1065625000.000 +1.1572202295E-001 -1.2683002651E-001 
1087500000.000 -1.4048966765E-001 +3.8323223591E-002 
1109375000.000 +1.4812682569E-001 -7.7097430825E-002 
1131250000.000 -1.7439562082E-001 -4.5980505645E-002 
1153125000.000 +1.4129902422E-001 -6.0726748779E-003 
1175000000.000 -1.8363292515E-001 -1.3060769439E-001 
1196875000.000 +1.0022305697E-001 +1.0032764822E-001 
1218750000.000 -1.2937074900E-001 -2.2926039994E-001 
1240625000.000 -4.2228531092E-002 +2.0758970082E-001 
1262500000.000 +5.1195245236E-002 -2.3697516322E-001 
1284375000.000 -2.0378351212E-001 +1.3897675276E-001 
1306250000.000 +1.6415141523E-001 -8.1595055759E-002 
1328125000.000 -2.0688545704E-001 +8.1316819414E-003 
1350000000.000 +1.6561384499E-001 +3.3241678029E-002 
1371875000.000 -1.4721333981E-001 -1.0079652816E-001 
1393750000.000 +1.1176534742E-001 +7.8720934689E-002 
1415625000.000 -8.7128050625E-002 -1.4800183475E-001 
1437500000.000 +8.2087516785E-002 +7.8978136182E-002 
1459375000.000 -6.9627799094E-002 -2.2090019286E-001 
1481250000.000 -2.0208019763E-002 +1.4137752354E-001 
1503125000.000 +6.8414092064E-002 -2.5140693784E-001 
1525000000.000 -2.0188298821E-001 +4.1436687112E-002 
1546875000.000 +9.8417088389E-002 -9.1711364686E-002 
1568750000.000 -1.7545993626E-001 -3.5950407386E-002 
1590625000.000 +6.2861606479E-002 -5.2305079997E-002 
1612500000.000 -2.0195613801E-001 -2.7016745880E-002 
1634375000.000 +1.2932904065E-001 +4.1128199548E-002 
1656250000.000 -1.6999734938E-001 -1.6154827178E-001 
1678125000.000 +2.9583653435E-002 +1.3841889799E-001 
1700000000.000 -4.5215401798E-002 -1.8724110723E-001 
1721875000.000 -4.3741166592E-002 +1.1858158559E-001 
1743750000.000 +2.7620196342E-002 -1.9809603691E-001 
1765625000.000 -1.3597983122E-001 +9.4764634967E-002 
1787500000.000 +1.2269578874E-001 -1.6666062176E-001 
1809375000.000 -2.3715250194E-001 -1.7469258979E-002 
1831250000.000 +1.3852538168E-001 -3.1092764810E-002 
1853125000.000 -2.2265465558E-001 -1.3899677992E-001 
1875000000.000 +4.8980977386E-002 +8.3729080856E-002 
1896875000.000 -1.3221408427E-001 -1.7384676635E-001 
1918750000.000 -3.3411975950E-002 +9.9312402308E-002 
1940625000.000 -8.5423491895E-002 -1.5625433624E-001 
1962500000.000 -6.1055667698E-002 +1.3194563985E-001 
1984375000.000 +2.3410967551E-003 -1.8611948192E-001 
2006250000.000 -1.6528977454E-001 +1.2620237470E-001 
2028125000.000 +1.3503661752E-001 -1.1983264238E-001 
2050000000.000 -2.2023841739E-001 -1.5179348178E-002 
2071875000.000 +1.3881053030E-001 -5.1915044896E-003 
2093750000.000 -1.8536441028E-001 -1.4143393934E-001 
2115625000.000 +5.4363690317E-002 +7.6322369277E-002 
2137500000.000 -1.0562004894E-001 -2.0335908234E-001 
2159375000.000 -6.0286644846E-002 +8.2259498537E-002 
2181250000.000 -6.2846183777E-002 -1.8323782086E-001 
2203125000.000 -1.1956591159E-001 +9.4456210732E-002 
2225000000.000 +1.6817294061E-002 -1.7340478301E-001 
2246875000.000 -2.2562322021E-001 +3.5991199315E-002 
2268750000.000 +5.6035585701E-002 -3.7200164050E-002 
2290625000.000 -1.8001595140E-001 -4.1389424354E-002 
2312500000.000 +1.4936717227E-002 -1.8671626225E-002 
2334375000.000 -2.0000609756E-001 -2.3985764012E-002 
2356250000.000 +9.2094659805E-002 +5.5222142488E-002 
2378125000.000 -1.8410885334E-001 -1.7983318865E-001 
2400000000.000 -4.9635056406E-002 +1.8889451027E-001 
2421875000.000 +1.8768906593E-002 -1.8485805392E-001 
2443750000.000 -1.4897061884E-001 +6.9445729256E-002 
2465625000.000 +3.0623445287E-002 -1.1873385310E-001 
2487500000.000 -1.7374180257E-001 +3.3229112625E-002 
2509375000.000 +8.4224611521E-002 -8.3556659520E-002 
2531250000.000 -2.3262734711E-001 -8.4573581815E-002 
2553125000.000 +2.3186558858E-002 +4.9002110958E-002 
2575000000.000 -1.5915969014E-001 -1.2250855565E-001 
2596875000.000 -2.9148645699E-002 +6.0895051807E-002 
2618750000.000 -1.4638556540E-001 -1.4109477401E-001 
2640625000.000 -9.6367314458E-002 +1.3300932944E-001 
2662500000.000 -1.6495848075E-002 -1.3600088656E-001 
2684375000.000 -1.7831403017E-001 +5.3270936012E-002 
2706250000.000 -1.1082500219E-002 -4.4340476394E-002 
2728125000.000 -1.4015035331E-001 +5.0595112145E-002 
2750000000.000 +4.9960184842E-002 -7.2269700468E-002 
2771875000.000 -2.2628067434E-001 -2.4769341573E-002 
2793750000.000 +7.0842131972E-002 +6.9689348340E-002 
2815625000.000 -1.3749884069E-001 -1.5838392079E-001 
2837500000.000 -7.1828164160E-002 +7.5555406511E-002 
2859375000.000 -9.4465985894E-002 -1.0990037769E-001 
2881250000.000 -7.2884075344E-002 +7.3834672570E-002 
2903125000.000 -6.0382027179E-002 -1.6536888480E-001 
2925000000.000 -2.0588205755E-001 +7.5013048947E-002 
2946875000.000 +2.0535290241E-002 -6.5712787211E-002 
2968750000.000 -2.1983136237E-001 -1.5276897699E-002 
2990625000.000 -1.5034355223E-002 +4.8184925690E-003 
3012500000.000 -2.1157275140E-001 -2.2563761100E-002 
3034375000.000 +3.5312856198E-004 +6.7058965564E-002 
3056250000.000 -1.8957827985E-001 -8.6125202477E-002 
3078125000.000 -5.3929630667E-002 +1.5086629987E-001 
3100000000.000 -8.2071758807E-002 -1.2458018959E-001 
3121875000.000 -1.4589871466E-001 +1.4680534601E-001 
3143750000.000 +3.9114467800E-002 -8.8817797601E-002 
3165625000.000 -2.1669289470E-001 +3.8770820946E-002 
3187500000.000 +4.8171103001E-002 +3.1485401094E-002 
3209375000.000 -1.5163524449E-001 -5.5818732828E-002 
3231250000.000 -2.6658663526E-002 +2.5161717087E-002 
3253125000.000 -1.4915859699E-001 -4.8193816096E-002 
3275000000.000 -2.7241263539E-002 +3.2965589315E-002 
3296875000.000 -1.7567460239E-001 -9.7318254411E-002 
3318750000.000 -8.8473089039E-002 +1.1453847587E-001 
3340625000.000 -1.1264327168E-001 -1.1936265230E-001 
3362500000.000 -1.8415576220E-001 +1.4318549633E-001 
3384375000.000 -1.9458332099E-003 -6.8315595388E-002 
3406250000.000 -2.5665190816E-001 +6.8977415562E-002 
3428125000.000 +3.1184224412E-002 +8.5493206978E-002 
3450000000.000 -1.7869229615E-001 -2.0942527801E-002 
3471875000.000 -2.5205202401E-002 +1.1249233037E-001 
3493750000.000 -1.2845075130E-001 -2.7021689340E-002 
3515625000.000 -2.1686103195E-002 +1.2599578500E-001 
3537500000.000 -7.1275837719E-002 -1.0207459331E-001 
3559375000.000 -1.3526175916E-001 +1.0596466810E-001 
3581250000.000 -2.7794180438E-002 -2.4633549154E-002 
3603125000.000 -9.9898599088E-002 +4.6306412667E-002 
3625000000.000 -9.1312773526E-002 -7.7950105071E-002 
3646875000.000 -1.9153699279E-001 +1.3885121047E-001 
3668750000.000 +6.5281026065E-002 -3.5712584853E-002 
3690625000.000 -3.0175924301E-001 -1.3623733073E-002 
3712500000.000 +7.7563403174E-003 +2.1541324258E-001 
3734375000.000 -1.1718618870E-001 -1.1308968812E-001 
3756250000.000 -1.4433661103E-001 +1.9548988342E-001 
3778125000.000 -8.3202794194E-003 -1.5948083252E-002 
3800000000.000 -1.3938157260E-001 +1.2107864022E-001 
3821875000.000 +2.0362599753E-003 +3.2706104219E-002 
3843750000.000 -9.5044992864E-002 +8.4922179580E-002 
3865625000.000 -6.0594659299E-003 -1.0892406106E-002 
3887500000.000 -1.4794345200E-001 +1.0561351478E-001 
3909375000.000 +9.5871455967E-002 +1.3470275328E-002 
3931250000.000 -2.2416810691E-001 -4.2760822922E-002 
3953125000.000 +2.0553521812E-002 +1.8602678180E-001 
3975000000.000 -7.1894831955E-002 -1.2708505988E-001 
3996875000.000 -1.4101357758E-001 +1.4088179171E-001 
4018750000.000 -3.2328896224E-002 -1.1274586432E-002 
4040625000.000 -1.0365555435E-001 +1.1285444349E-001 
4062500000.000 -3.4398552030E-002 -3.8465291262E-002 
4084375000.000 -1.7612858117E-001 +1.4802354574E-001 
4106250000.000 +8.4595978260E-002 +3.4819804132E-002 
4128125000.000 -2.1313039958E-001 +1.8790649250E-002 
4150000000.000 +3.3613543957E-002 +1.9299282134E-001 
4171875000.000 -4.3284833431E-002 -4.2697403580E-002 
4193750000.000 -4.5863840729E-002 +9.8069958389E-002 
4215625000.000 -7.7087536454E-002 +2.0126013085E-002 
4237500000.000 +2.9649246484E-002 +1.2574115396E-001 
4259375000.000 -5.5779401213E-002 -1.1687927693E-001 
4281250000.000 -1.3705605268E-001 +1.7636029422E-001 
4303125000.000 +1.0280895978E-001 -3.3721528947E-002 
4325000000.000 -2.0000663400E-001 +5.9418966994E-003 
4346875000.000 +1.6163405031E-002 +1.0252312571E-001 
4368750000.000 -1.1395140737E-001 -1.0741619626E-003 
4390625000.000 -1.8015908077E-002 +9.2154249549E-002 
4412500000.000 -1.0287044942E-001 +1.2354017235E-002 
4434375000.000 -1.4957786538E-002 +1.0890451074E-001 
4456250000.000 -9.1397099197E-002 -1.1269358947E-004 
4478125000.000 -5.8284648694E-003 +1.4201019704E-001 
4500000000.000 -5.6422911584E-002 -6.9885611534E-002 
4521875000.000 -1.0660700500E-001 +1.8982405961E-001 
4543750000.000 +9.7831919789E-002 -2.5989891961E-002 
4565625000.000 -1.7830799520E-001 +3.6622013897E-002 
4587500000.000 +2.9705051333E-002 +1.1003411561E-001 
4609375000.000 -7.0894166827E-002 +3.1283080578E-002 
4631250000.000 +2.9421944171E-002 +4.0040761232E-002 
4653125000.000 -1.5459139645E-001 +1.2120238505E-002 
4675000000.000 +4.0587589145E-002 +1.7265082896E-001 
4696875000.000 -3.2724604011E-002 -9.0046897531E-002 
4718750000.000 -1.0566361994E-001 +1.4332377911E-001 
4740625000.000 +2.2997120395E-002 +2.6775253937E-002 
4762500000.000 -3.8675401360E-002 +8.1251382828E-002 
4784375000.000 -2.0936295390E-002 -3.2279979438E-002 
4806250000.000 -1.0709114373E-001 +1.4627869427E-001 
4828125000.000 +1.0708551854E-001 -2.0105482545E-003 
4850000000.000 -1.8579909205E-001 +1.3334590010E-002 
4871875000.000 +6.3741371036E-002 +1.5871745348E-001 
4893750000.000 -7.2117686272E-002 -5.8616254479E-002 
4915625000.000 -3.3475339413E-002 +1.6049623489E-001 
4937500000.000 -3.6592318793E-004 -7.7780662104E-003 
4959375000.000 -2.2017374635E-002 +1.2647660077E-001 
4981250000.000 +2.3907503113E-002 -2.4204108864E-002 
5003125000.000 -4.9192450941E-002 +1.1704076827E-001 
5025000000.000 +8.5052415729E-002 -3.3422563225E-002 
5046875000.000 -1.1813727021E-001 +3.9046302438E-002 
5068750000.000 +7.8948438168E-002 +3.8519922644E-002 
5090625000.000 -1.0805240273E-001 -2.4129541591E-002 
5112500000.000 +3.5249851644E-002 +7.3813125491E-002 
5134375000.000 -1.0731550306E-001 -5.6724421680E-002 
5156250000.000 -3.1783044338E-002 +1.4259140193E-001 
5178125000.000 -2.7156742290E-002 -4.8297863454E-002 
5200000000.000 -9.3343958259E-002 +1.3138432801E-001 
5221875000.000 +2.0705275238E-002 +1.9696107134E-002 
5243750000.000 -7.5085557997E-002 +1.1552922428E-001 
5265625000.000 +7.5873695314E-002 +2.9783012345E-002 
5287500000.000 -9.9457010627E-002 +4.7658868134E-002 
5309375000.000 +6.7022524774E-002 +1.0453579575E-001 
5331250000.000 -1.3733684085E-002 +4.5254700817E-003 
5353125000.000 +4.2099706829E-002 +3.9970871061E-002 
5375000000.000 -6.7113846540E-002 +1.8756968202E-003 
5396875000.000 +8.0163806677E-002 +9.7826115787E-002 
5418750000.000 -2.7497660369E-002 -1.3520324230E-001 
5440625000.000 -1.1397878826E-001 +1.2692357600E-001 
5462500000.000 +7.3460318148E-002 -9.2984298244E-003 
5484375000.000 -1.0731929541E-001 +2.0344518125E-002 
5506250000.000 -7.5609860942E-003 +4.3416351080E-002 
5528125000.000 -8.3541803062E-002 +9.6026152372E-002 
5550000000.000 +9.2706851661E-002 +5.7482745498E-002 
5571875000.000 -1.1262570322E-001 -3.7088515237E-003 
5593750000.000 +5.2638381720E-002 +1.8324702978E-001 
5615625000.000 +5.6091573089E-002 -4.9584563822E-002 
5637500000.000 -1.2915965170E-002 +9.1313056648E-002 
5659375000.000 +6.6431678832E-002 -1.5171552077E-002 
5681250000.000 +6.0629737563E-003 +4.8494774848E-002 
5703125000.000 +7.0783190429E-002 -6.5649688244E-002 
5725000000.000 -7.2538681328E-002 +2.0859804936E-003 
5746875000.000 +5.2887864411E-002 -2.1665547043E-002 
5768750000.000 -1.0098501295E-001 -3.1945962459E-002 
5790625000.000 +1.8047919497E-002 +2.8187653050E-002 
5812500000.000 -1.2198603153E-001 -4.4793933630E-002 
5834375000.000 -2.5193154812E-002 +1.3208436966E-001 
5856250000.000 -2.9713401571E-002 -4.4369589537E-002 
5878125000.000 -9.0323932469E-002 +1.4183355868E-001 
5900000000.000 +6.1477560550E-002 +4.9749374390E-002 
5921875000.000 -3.4794289619E-002 +8.1975735724E-002 
5943750000.000 +8.1314332783E-002 +5.5072236806E-002 
5965625000.000 +5.5634826422E-003 +4.6766035259E-002 
5987500000.000 +1.1793404073E-001 +1.8519381061E-002 
6009375000.000 -1.2439318933E-002 -4.2067501694E-002 
6031250000.000 +8.8405236602E-002 +3.1799815595E-002 
6053125000.000 +7.9179089516E-003 -1.2745115161E-001 
6075000000.000 -4.1452117264E-002 +1.2033802457E-002 
6096875000.000 +4.5533184893E-003 -6.7717701197E-002 
6118750000.000 -6.6664509475E-002 -1.7600808293E-002 
6140625000.000 -6.1624526978E-002 -3.6525726318E-002 
6162500000.000 -9.3584835529E-002 +6.7139625549E-002 
6184375000.000 +1.5683202073E-003 +1.3693854213E-002 
6206250000.000 -1.0108977556E-001 +6.6263735294E-002 
6228125000.000 +5.1669452339E-002 +9.6627667546E-002 
6250000000.000 -2.1415321156E-002 +2.7110707015E-002 
6271875000.000 +7.7865667641E-002 +9.3159012496E-002 
6293750000.000 +3.9826013148E-002 -4.0385257453E-002 
6315625000.000 +4.5116271824E-002 +5.7172179222E-002 
6337500000.000 +8.8362775743E-002 -6.8157508969E-002 
6359375000.000 +1.4427584596E-002 -4.3411958963E-002 
6381250000.000 +1.4397429302E-002 -9.9973388016E-002 
6403125000.000 -5.0019264221E-002 -2.7293706313E-002 
6425000000.000 +9.7253769636E-003 -1.0045418888E-001 
6446875000.000 -1.5306310356E-001 -4.9744460732E-002 
6468750000.000 -3.4144546837E-002 +3.2655801624E-002 
6490625000.000 -1.0545025021E-001 -2.5145804510E-002 
6512500000.000 -5.9333521873E-002 +7.2062969208E-002 
6534375000.000 -7.4300490320E-002 +4.1174169630E-002 
6556250000.000 +1.6440315172E-002 +1.2419394404E-001 
6578125000.000 +8.7194805965E-003 -1.3633174822E-002 
6600000000.000 +5.6622643024E-003 +1.2546825409E-001 
6621875000.000 +1.2204796821E-001 -4.0021978319E-002 
6643750000.000 -3.6881167442E-002 +1.1033690535E-002 
6665625000.000 +1.2381391972E-001 -1.3844557106E-002 
6687500000.000 -2.3502245545E-002 -9.2352598906E-002 
6709375000.000 +4.3954998255E-002 -3.6772601306E-002 
6731250000.000 -6.6389717162E-002 -1.0577746481E-001 
6753125000.000 +2.8047352098E-003 -8.8180806488E-003 
6775000000.000 -1.0429685563E-001 -1.4303468168E-001 
6796875000.000 -1.2024766952E-001 +9.8948635161E-002 
6818750000.000 +2.7400730178E-002 -6.6848315299E-002 
6840625000.000 -1.7962247133E-001 +2.0726496354E-002 
6862500000.000 +9.5013855025E-003 +1.0416767746E-001 
6884375000.000 -2.7634993196E-002 +1.2341803871E-002 
6906250000.000 +1.6124831745E-003 +3.6302201450E-002 
6928125000.000 -2.9103329405E-002 +5.7964876294E-002 
6950000000.000 +1.1596821249E-001 +3.0848218128E-002 
6971875000.000 -2.9050271958E-002 -8.7921954691E-002 
6993750000.000 +4.4840622693E-002 +5.9110987931E-002 
7015625000.000 +3.6693353206E-002 -1.4343029261E-001 
7037500000.000 -6.8307600915E-002 -8.4162466228E-003 
7059375000.000 +1.0667596012E-002 -9.4366155565E-002 
7081250000.000 -1.0268972069E-001 -2.8063395992E-002 
7103125000.000 -3.5774163902E-002 -6.3167572021E-002 
7125000000.000 -1.4567416906E-001 +2.7039505541E-002 
7146875000.000 +2.1509660408E-002 +7.7547645196E-004 
7168750000.000 -1.8435436487E-001 -5.8367904276E-003 
7190625000.000 +3.5189233720E-002 +1.6902381182E-001 
7212500000.000 -1.2092492543E-002 -9.4388134778E-002 
7234375000.000 -7.2899289429E-002 +1.3833577931E-001 
7256250000.000 +1.0279659927E-001 -1.7446794081E-003 
7278125000.000 -1.6207098961E-002 +7.4455114082E-003 
7300000000.000 +4.9561411142E-002 -3.8396254182E-002 
7321875000.000 -2.0514858887E-002 +1.1673645116E-002 
7343750000.000 +8.8137976825E-002 -9.1435559094E-002 
7365625000.000 -1.2899778783E-001 -7.3258362710E-002 
7387500000.000 +4.8777274787E-002 +2.3713929579E-002 
7409375000.000 -8.3641082048E-002 -1.4393660426E-001 
7431250000.000 -8.6852319539E-002 +5.0309542567E-002 
7453125000.000 -3.9675708860E-002 -4.5991152525E-002 
7475000000.000 -6.0143370181E-002 +2.8375992551E-002 
7496875000.000 -8.1604585052E-002 -3.0639279634E-002 
7518750000.000 -3.5583913326E-002 +1.4019338787E-001 
7540625000.000 +8.2748711109E-002 -8.3354882896E-002 
7562500000.000 -1.5779720247E-001 +4.5611631125E-002 
7584375000.000 +1.4637175202E-001 +8.9939177036E-002 
7606250000.000 -1.6047552228E-002 -1.4583189785E-001 
7628125000.000 -2.9902826995E-002 +4.1745290160E-002 
7650000000.000 +2.3861082271E-002 -4.9593493342E-002 
7671875000.000 +2.7231270447E-002 -5.8209683746E-002 
7693750000.000 -9.9259085953E-002 -1.1771322042E-001 
7715625000.000 -2.9140843078E-002 +6.6151365638E-002 
7737500000.000 -2.8440852184E-003 -1.6258554161E-001 
7759375000.000 -1.8251983821E-001 +3.7150520831E-002 
7781250000.000 +5.6992724538E-002 -9.3500157818E-003 
7803125000.000 -1.6146276891E-001 -4.7908097506E-002 
7825000000.000 +1.0633626021E-002 +9.6602968872E-002 
7846875000.000 -4.1937228292E-002 -6.8668879569E-002 
7868750000.000 -3.2428916544E-002 +5.9395369142E-002 
7890625000.000 -4.6523022465E-003 -2.8168281540E-002 
7912500000.000 +2.2760828957E-002 +1.6282405704E-002 
7934375000.000 -2.4409370497E-002 -1.1725811660E-001 
7956250000.000 -6.6385574639E-002 +5.2271150053E-002 
7978125000.000 +7.6119363308E-002 -1.0324041545E-001 
8000000000.000 -1.4888146520E-001 -9.1424666345E-002 
8021875000.000 -3.6468844861E-002 +1.9544180483E-002 
8043750000.000 -5.8460287750E-002 -5.6282050908E-002 
8065625000.000 -7.1284241974E-002 -4.5897703618E-002 
8087500000.000 -1.3475373387E-001 +1.8844474107E-002 
8109375000.000 +2.0820731297E-002 +3.9363123477E-002 
8131250000.000 -1.0682137311E-001 -7.3584914207E-002 
8153125000.000 -4.0837988257E-002 +1.1234447360E-001 
8175000000.000 +2.3755742237E-002 -7.2925679386E-002 
8196875000.000 -8.2302540541E-002 +3.3501081169E-002 
8218750000.000 +4.0700808167E-002 -3.3510435373E-002 
8240625000.000 -6.3449576497E-002 -2.8655039147E-002 
8262500000.000 +1.4971215278E-002 -5.6189406663E-002 
8284375000.000 -1.0342006385E-001 -5.0461705774E-002 
8306250000.000 +6.5693524666E-003 -2.7244692668E-002 
8328125000.000 -1.2625488639E-001 -9.7619242966E-002 
8350000000.000 -5.8336868882E-002 +3.6415927112E-002 
8371875000.000 -8.3873376250E-002 -8.5833869874E-002 
8393750000.000 -1.0568454862E-001 +4.4947128743E-002 
8415625000.000 -6.0001041740E-002 -3.4620020539E-002 
8437500000.000 -9.1164767742E-002 +6.1826430261E-002 
8459375000.000 -9.1823926196E-003 -3.1644951552E-002 
8481250000.000 -1.0970827937E-001 +4.2895544320E-002 
8503125000.000 +4.3346434832E-002 +7.4705237057E-004 
8525000000.000 -1.0974957049E-001 -3.3550288528E-002 
8546875000.000 +3.1354114413E-002 +4.8395622522E-002 
8568750000.000 -5.1019266248E-002 -1.0919866711E-001 
8590625000.000 -5.8825436980E-002 +2.8945587575E-002 
8612500000.000 -2.3477368057E-002 -8.3365604281E-002 
8634375000.000 -9.1182902455E-002 -2.6823965833E-002 
8656250000.000 -8.6182869971E-002 -5.5108837783E-002 
8678125000.000 -9.0417675674E-002 +3.1856410205E-002 
8700000000.000 -5.1757790148E-002 -7.9122662544E-002 
8721875000.000 -1.7965650558E-001 +4.5011881739E-002 
8743750000.000 +1.6383593902E-002 +3.7531923503E-002 
8765625000.000 -1.3716304302E-001 -3.5953152925E-002 
8787500000.000 -2.9822988436E-002 +9.3761689961E-002 
8809375000.000 -4.8354197294E-002 -3.2575923949E-002 
8831250000.000 -2.7508923784E-002 +5.8494273573E-002 
8853125000.000 -2.5003913790E-002 -5.8613851666E-002 
8875000000.000 -4.9934335053E-002 +4.1731514037E-002 
8896875000.000 +7.7148014680E-003 -8.3924017847E-002 
8918750000.000 -1.1739001423E-001 -6.8956110626E-003 
8940625000.000 +6.2157567590E-003 -3.7204921246E-002 
8962500000.000 -1.3148091733E-001 -5.7723812759E-002 
8984375000.000 -4.7143276781E-002 +9.5049059018E-003 
9006250000.000 -1.1044694483E-001 -4.5264095068E-002 
