!  1-Port S-parameters saved by WinCal
! VAR NAME=Unknown labuser
! VAR Error Term Name=ETrt phys rcv port 2 phys src port 1
!
# Hz S RI R 50
1000000000.000 -5.6096643209E-001 +4.6101903915E-001 
1021875000.000 +7.3580718040E-001 -7.4586093426E-002 
1043750000.000 -6.5063786507E-001 -3.3077833056E-001 
1065625000.000 +3.5699880123E-001 +6.3904523849E-001 
1087500000.000 +5.0800535828E-002 -7.2465556860E-001 
1109375000.000 -4.3987530470E-001 +5.7133567333E-001 
1131250000.000 +6.7612826824E-001 -2.2650463879E-001 
1153125000.000 -6.8775373697E-001 -1.8075427413E-001 
1175000000.000 +4.6005231142E-001 +5.2999967337E-001 
1196875000.000 -9.3011237681E-002 -7.0194941759E-001 
1218750000.000 -3.1338250637E-001 +6.1902421713E-001 
1240625000.000 +6.2105244398E-001 -3.4229695797E-001 
1262500000.000 -6.9851744175E-001 -5.4393917322E-002 
1284375000.000 +5.5074101686E-001 +4.4082057476E-001 
1306250000.000 -2.1651959419E-001 -6.7126625776E-001 
1328125000.000 -1.9168075919E-001 +6.8416827917E-001 
1350000000.000 +5.3423374891E-001 -4.6079212427E-001 
1371875000.000 -7.0957767963E-001 +9.1107979417E-002 
1393750000.000 +6.3837158680E-001 +3.0740794539E-001 
1415625000.000 -3.6561107635E-001 -6.1563616991E-001 
1437500000.000 -2.4389194325E-002 +7.0521765947E-001 
1459375000.000 +4.1533756256E-001 -5.6937038898E-001 
1481250000.000 -6.5472060442E-001 +2.5270980597E-001 
1503125000.000 +6.7576420307E-001 +1.4977049828E-001 
1525000000.000 -4.8075565696E-001 -4.9726563692E-001 
1546875000.000 +1.2990272045E-001 +6.7542958260E-001 
1568750000.000 +2.6678720117E-001 -6.2705773115E-001 
1590625000.000 -5.6752163172E-001 +3.7549388409E-001 
1612500000.000 +6.7466485500E-001 +9.9836876616E-003 
1634375000.000 -5.6520646811E-001 -3.8429811597E-001 
1656250000.000 +2.5140750408E-001 +6.2647438049E-001 
1678125000.000 +1.3974693418E-001 -6.6952985525E-001 
1700000000.000 -4.8206737638E-001 +4.7200930119E-001 
1721875000.000 +6.7522937059E-001 -1.2666234374E-001 
1743750000.000 -6.2395787239E-001 -2.6036030054E-001 
1765625000.000 +3.7814614177E-001 +5.7806730270E-001 
1787500000.000 -9.3593606725E-003 -6.8236839771E-001 
1809375000.000 -3.8232696056E-001 +5.6792539358E-001 
1831250000.000 +6.3019782305E-001 -2.7386337519E-001 
1853125000.000 -6.6819679737E-001 -1.2383662909E-001 
1875000000.000 +4.9281293154E-001 +4.7716924548E-001 
1896875000.000 -1.5700079501E-001 -6.6919124126E-001 
1918750000.000 -2.3459233344E-001 +6.3763117790E-001 
1940625000.000 +5.4718124866E-001 -4.0682706237E-001 
1962500000.000 -6.6414284706E-001 +3.8309600204E-002 
1984375000.000 +5.7288813591E-001 +3.4467768669E-001 
2006250000.000 -2.9290464520E-001 -5.9508472681E-001 
2028125000.000 -9.1412976384E-002 +6.5373277664E-001 
2050000000.000 +4.3696635962E-001 -4.9930107594E-001 
2071875000.000 -6.3207238913E-001 +1.7459899187E-001 
2093750000.000 +6.1364936829E-001 +2.1075204015E-001 
2115625000.000 -3.9578801394E-001 -5.2162700891E-001 
2137500000.000 +3.8322791457E-002 +6.4738619328E-001 
2159375000.000 +3.3693256974E-001 -5.6375783682E-001 
2181250000.000 -5.9074479342E-001 +2.8718441725E-001 
2203125000.000 +6.5274554491E-001 +8.8051006198E-002 
2225000000.000 -4.9125352502E-001 -4.2953148484E-001 
2246875000.000 +1.6929729283E-001 +6.3280349970E-001 
2268750000.000 +2.0684655011E-001 -6.1748063564E-001 
2290625000.000 -5.1873230934E-001 +4.1047984362E-001 
2312500000.000 +6.4437377453E-001 -6.6389389336E-002 
2334375000.000 -5.7444536686E-001 -3.0789417028E-001 
2356250000.000 +3.1998267770E-001 +5.5539840460E-001 
2378125000.000 +5.4402723908E-002 -6.2228715420E-001 
2400000000.000 -3.9840459824E-001 +4.9063646793E-001 
2421875000.000 +6.0097360611E-001 -1.9173848629E-001 
2443750000.000 -6.0026246309E-001 -1.7527376115E-001 
2465625000.000 +4.0670242906E-001 +4.8130038381E-001 
2487500000.000 -7.0734605193E-002 -6.1203885078E-001 
2509375000.000 -2.9139101505E-001 +5.4665046930E-001 
2531250000.000 +5.3436720371E-001 -2.9162901640E-001 
2553125000.000 -6.0862839222E-001 -7.1918815374E-002 
2575000000.000 +4.7913834453E-001 +3.9412194490E-001 
2596875000.000 -1.7890647054E-001 -5.8846586943E-001 
2618750000.000 -1.7467680573E-001 +5.8474457264E-001 
2640625000.000 +4.7413101792E-001 -3.8667449355E-001 
2662500000.000 -6.0211259127E-001 +6.3134059310E-002 
2684375000.000 +5.3215819597E-001 +2.9397958517E-001 
2706250000.000 -2.9219207168E-001 -5.4153412580E-001 
2728125000.000 -5.6925151497E-002 +6.1367148161E-001 
2750000000.000 +3.7473499775E-001 -4.8670005798E-001 
2771875000.000 -5.7138741016E-001 +1.8832498789E-001 
2793750000.000 +5.8212363720E-001 +1.5706488490E-001 
2815625000.000 -3.9447623491E-001 -4.4772213697E-001 
2837500000.000 +8.0946274102E-002 +5.8654242754E-001 
2859375000.000 +2.6056471467E-001 -5.3466778994E-001 
2881250000.000 -4.9814718962E-001 +3.0688959360E-001 
2903125000.000 +5.7246822119E-001 +3.5125553608E-002 
2925000000.000 -4.6009677649E-001 -3.4683823586E-001 
2946875000.000 +1.7627903819E-001 +5.3971344233E-001 
2968750000.000 +1.5917825699E-001 -5.5601751804E-001 
2990625000.000 -4.4299831986E-001 +3.7351337075E-001 
3012500000.000 +5.8145934343E-001 -6.9494239986E-002 
3034375000.000 -5.1975488663E-001 -2.6253870130E-001 
3056250000.000 +2.8730049729E-001 +5.0273215771E-001 
3078125000.000 +5.2082732320E-002 -5.7724207640E-001 
3100000000.000 -3.6147147417E-001 +4.6530631185E-001 
3121875000.000 +5.5528813601E-001 -1.7845149338E-001 
3143750000.000 -5.7979255915E-001 -1.5248659253E-001 
3165625000.000 +3.9133569598E-001 +4.3172594905E-001 
3187500000.000 -8.2441732287E-002 -5.8287018538E-001 
3209375000.000 -2.5063782930E-001 +5.2779012918E-001 
3231250000.000 +5.0611126423E-001 -3.0111938715E-001 
3253125000.000 -5.8805310726E-001 -3.0901664868E-002 
3275000000.000 +4.8235669732E-001 +3.4742870927E-001 
3296875000.000 -2.0280799270E-001 -5.4426151514E-001 
3318750000.000 -1.3236290216E-001 +5.7681792974E-001 
3340625000.000 +4.1154670715E-001 -3.9828673005E-001 
3362500000.000 -5.7203531265E-001 +8.9786231518E-002 
3384375000.000 +5.3028327227E-001 +2.3395082355E-001 
3406250000.000 -3.0636566877E-001 -4.8703825474E-001 
3428125000.000 -1.9266763702E-002 +5.7541805506E-001 
3450000000.000 +3.3315169811E-001 -4.7680470347E-001 
3471875000.000 -5.2641034126E-001 +2.0476405323E-001 
3493750000.000 +5.5960851908E-001 +1.3822886348E-001 
3515625000.000 -3.9763271809E-001 -4.1890779138E-001 
3537500000.000 +9.4245836139E-002 +5.7093816996E-001 
3559375000.000 +2.3252314329E-001 -5.3089815378E-001 
3581250000.000 -4.8785093427E-001 +3.1211546063E-001 
3603125000.000 +5.7540661097E-001 +5.9681325220E-003 
3625000000.000 -4.6913734078E-001 -3.2131960988E-001 
3646875000.000 +2.0260992646E-001 +5.2900826931E-001 
3668750000.000 +1.1612501740E-001 -5.6693762541E-001 
3690625000.000 -3.8997459412E-001 +3.9163845778E-001 
3712500000.000 +5.6132602692E-001 -9.6434414387E-002 
3734375000.000 -5.1964807510E-001 -2.0457655191E-001 
3756250000.000 +2.9397237301E-001 +4.6529385448E-001 
3778125000.000 +5.2181249484E-003 -5.6214970350E-001 
3800000000.000 -3.1507271528E-001 +4.5807385445E-001 
3821875000.000 +5.1569855213E-001 -2.1040779352E-001 
3843750000.000 -5.4585647583E-001 -1.1381674558E-001 
3865625000.000 +3.9467218518E-001 +3.8744810224E-001 
3887500000.000 -9.9766716361E-002 -5.3668403625E-001 
3909375000.000 -2.1322029829E-001 +5.0931644440E-001 
3931250000.000 +4.5561918616E-001 -2.9879805446E-001 
3953125000.000 -5.5115371943E-001 -5.4359589703E-003 
3975000000.000 +4.6008801460E-001 +3.0458369851E-001 
3996875000.000 -2.1452555060E-001 -5.0192052126E-001 
4018750000.000 -1.0292995721E-001 +5.4333209991E-001 
4040625000.000 +3.7765565515E-001 -3.9969053864E-001 
4062500000.000 -5.4077994823E-001 +1.2180107087E-001 
4084375000.000 +5.1756256819E-001 +1.8285702169E-001 
4106250000.000 -3.2275441289E-001 -4.4571429491E-001 
4128125000.000 +4.3495234102E-002 +5.4545235634E-001 
4150000000.000 +2.7364954352E-001 -4.5018965006E-001 
4171875000.000 -4.9580901861E-001 +2.3153604567E-001 
4193750000.000 +5.2983528376E-001 +7.5402490795E-002 
4215625000.000 -3.9913764596E-001 -3.6806941032E-001 
4237500000.000 +1.3410702348E-001 +5.2795869112E-001 
4259375000.000 +1.7814341187E-001 -5.1010346413E-001 
4281250000.000 -4.3179249763E-001 +3.1997144222E-001 
4303125000.000 +5.3832715750E-001 -2.9111942276E-002 
4325000000.000 -4.5999842882E-001 -2.7505350113E-001 
4346875000.000 +2.3057249188E-001 +4.8511511087E-001 
4368750000.000 +7.9760886729E-002 -5.3056484461E-001 
4390625000.000 -3.5573711991E-001 +4.0241464972E-001 
4412500000.000 +5.1466751099E-001 -1.3143566251E-001 
4434375000.000 -5.0736916065E-001 -1.7625714839E-001 
4456250000.000 +3.2111069560E-001 +4.2699599266E-001 
4478125000.000 -3.6910947412E-002 -5.3925240040E-001 
4500000000.000 -2.6341822743E-001 +4.6179375052E-001 
4521875000.000 +4.8019003868E-001 -2.4254116416E-001 
4543750000.000 -5.3094696999E-001 -6.1364438385E-002 
4565625000.000 +4.1180461645E-001 +3.4811481833E-001 
4587500000.000 -1.5042100847E-001 -5.1435631514E-001 
4609375000.000 -1.6320489347E-001 +5.1650464535E-001 
4631250000.000 +4.1682833433E-001 -3.4634417295E-001 
4653125000.000 -5.2986288071E-001 +5.6024130434E-002 
4675000000.000 +4.6954485774E-001 +2.5731882453E-001 
4696875000.000 -2.5885236263E-001 -4.7199073434E-001 
4718750000.000 -4.9477916211E-002 +5.2388703823E-001 
4740625000.000 +3.3657985926E-001 -4.1340351105E-001 
4762500000.000 -5.0172293186E-001 +1.5940016508E-001 
4784375000.000 +5.0135678053E-001 +1.4618687332E-001 
4806250000.000 -3.2924121618E-001 -4.0105414391E-001 
4828125000.000 +5.4544325918E-002 +5.2165031433E-001 
4850000000.000 +2.4186748266E-001 -4.5876491070E-001 
4871875000.000 -4.6287584305E-001 +2.5158557296E-001 
4893750000.000 +5.1951014996E-001 +4.3347638100E-002 
4915625000.000 -4.1139107943E-001 -3.2693365216E-001 
4937500000.000 +1.6015429795E-001 +4.9160435796E-001 
4959375000.000 +1.5279749036E-001 -5.0166481733E-001 
4981250000.000 -4.0336292982E-001 +3.4387332201E-001 
5003125000.000 +5.1827436686E-001 -5.8394949883E-002 
5025000000.000 -4.6786797047E-001 -2.4309000373E-001 
5046875000.000 +2.5938564539E-001 +4.5425963402E-001 
5068750000.000 +4.3802171946E-002 -5.1411038637E-001 
5090625000.000 -3.2735332847E-001 +4.0898326039E-001 
5112500000.000 +4.9555000663E-001 -1.6103219986E-001 
5134375000.000 -5.0414514542E-001 -1.3954979181E-001 
5156250000.000 +3.4182557464E-001 +3.8930922747E-001 
5178125000.000 -7.1239158511E-002 -5.1153111458E-001 
5200000000.000 -2.1921698749E-001 +4.5759382844E-001 
5221875000.000 +4.4178166986E-001 -2.5764015317E-001 
5243750000.000 -5.1255869865E-001 -2.4864817038E-002 
5265625000.000 +4.1780561209E-001 +3.0531054735E-001 
5287500000.000 -1.8716050684E-001 -4.7948986292E-001 
5309375000.000 -1.1112831533E-001 +4.9725830555E-001 
5331250000.000 +3.6985003948E-001 -3.5449102521E-001 
5353125000.000 -5.0057572126E-001 +9.1269150376E-002 
5375000000.000 +4.6445769072E-001 +2.0729994774E-001 
5396875000.000 -2.7817481756E-001 -4.3161386251E-001 
5418750000.000 -1.0220164433E-002 +5.0255584717E-001 
5440625000.000 +2.9500263929E-001 -4.1201439500E-001 
5462500000.000 -4.6731403470E-001 +1.7639295757E-001 
5484375000.000 +4.8786729574E-001 +1.2159449607E-001 
5506250000.000 -3.3865836263E-001 -3.6775946617E-001 
5528125000.000 +6.9566912949E-002 +4.9798896909E-001 
5550000000.000 +2.1075983346E-001 -4.5978108048E-001 
5571875000.000 -4.2105925083E-001 +2.6269829273E-001 
5593750000.000 +4.9150019884E-001 +1.3913827948E-002 
5615625000.000 -3.9728993177E-001 -2.8553861380E-001 
5637500000.000 +1.7593245208E-001 +4.6371445060E-001 
5659375000.000 +1.0438521951E-001 -4.8627704382E-001 
5681250000.000 -3.5691967607E-001 +3.5226777196E-001 
5703125000.000 +4.8772189021E-001 -1.0549081117E-001 
5725000000.000 -4.5618018508E-001 -1.8321469426E-001 
5746875000.000 +2.8360846639E-001 +4.0833348036E-001 
5768750000.000 -7.8881019726E-003 -4.8312899470E-001 
5790625000.000 -2.7878543735E-001 +4.0907791257E-001 
5812500000.000 +4.5435458422E-001 -1.9557589293E-001 
5834375000.000 -4.8346939683E-001 -9.9385671318E-002 
5856250000.000 +3.5532590747E-001 +3.4671363235E-001 
5878125000.000 -9.4064794481E-002 -4.7705331445E-001 
5900000000.000 -1.9369117916E-001 +4.5249360800E-001 
5921875000.000 +4.1416159272E-001 -2.6832336187E-001 
5943750000.000 -4.9943205714E-001 -4.0963348001E-003 
5965625000.000 +4.1539272666E-001 +2.7437669039E-001 
5987500000.000 -1.9463628531E-001 -4.5524430275E-001 
6009375000.000 -8.4468215704E-002 +4.8495852947E-001 
6031250000.000 +3.3161067963E-001 -3.4856608510E-001 
6053125000.000 -4.7384834290E-001 +1.0163885355E-001 
6075000000.000 +4.5079323649E-001 +1.7335239053E-001 
6096875000.000 -2.8101342916E-001 -3.9853444695E-001 
6118750000.000 +2.5335360318E-002 +4.7856619954E-001 
6140625000.000 +2.5564467907E-001 -4.0026748180E-001 
6162500000.000 -4.3916684389E-001 +2.0368628204E-001 
6184375000.000 +4.6317565441E-001 +7.8949250281E-002 
6206250000.000 -3.4742149711E-001 -3.3973896503E-001 
6228125000.000 +1.0724268854E-001 +4.7552496195E-001 
6250000000.000 +1.7584174871E-001 -4.5810216665E-001 
6271875000.000 -3.9719352126E-001 +2.8574052453E-001 
6293750000.000 +4.9020355940E-001 -1.6163272783E-002 
6315625000.000 -4.2079401016E-001 -2.5491040945E-001 
6337500000.000 +2.0677833259E-001 +4.3948993087E-001 
6359375000.000 +7.4928678572E-002 -4.8578229547E-001 
6381250000.000 -3.1862020493E-001 +3.6761468649E-001 
6403125000.000 +4.6716207266E-001 -1.2144393474E-001 
6425000000.000 -4.6048161387E-001 -1.4522701502E-001 
6446875000.000 +2.8501072526E-001 +3.6948436499E-001 
6468750000.000 -2.9975229874E-002 -4.7499927878E-001 
6490625000.000 -2.3556980491E-001 +4.0639618039E-001 
6512500000.000 +4.2203703523E-001 -2.1080271900E-001 
6534375000.000 -4.5494985580E-001 -6.2887802720E-002 
6556250000.000 +3.4831649065E-001 +3.1665563583E-001 
6578125000.000 -1.2079562992E-001 -4.4906133413E-001 
6600000000.000 -1.5913531184E-001 +4.3806689978E-001 
6621875000.000 +3.8010782003E-001 -2.8206309676E-001 
6643750000.000 -4.7445234656E-001 +2.7875242755E-002 
6665625000.000 +4.1245177388E-001 +2.3825691640E-001 
6687500000.000 -2.1793967485E-001 -4.2410436273E-001 
6709375000.000 -5.3416438401E-002 +4.6662735939E-001 
6731250000.000 +3.0203866959E-001 -3.6614906788E-001 
6753125000.000 -4.4319328666E-001 +1.3361704350E-001 
6775000000.000 +4.4983917475E-001 +1.4027410746E-001 
6796875000.000 -2.9271775484E-001 -3.5621288419E-001 
6818750000.000 +3.7186104804E-002 +4.7114729881E-001 
6840625000.000 +2.1680197120E-001 -4.1584223509E-001 
6862500000.000 -4.1253721714E-001 +2.1347393095E-001 
6884375000.000 +4.6959039569E-001 +4.7485206276E-002 
6906250000.000 -3.6453181505E-001 -2.9688999057E-001 
6928125000.000 +1.3815918565E-001 +4.4426795840E-001 
6950000000.000 +1.3647098839E-001 -4.4613167644E-001 
6971875000.000 -3.6099535227E-001 +2.9793864489E-001 
6993750000.000 +4.6607050300E-001 -4.6999122947E-002 
7015625000.000 -4.1174513102E-001 -2.1589155495E-001 
7037500000.000 +2.2145354748E-001 +4.1035968065E-001 
7059375000.000 +3.9376292378E-002 -4.6077728271E-001 
7081250000.000 -2.9207912087E-001 +3.6122360826E-001 
7103125000.000 +4.3341606855E-001 -1.4240895212E-001 
7125000000.000 -4.3604633212E-001 -1.3408625126E-001 
7146875000.000 +2.9779174924E-001 +3.4753459692E-001 
7168750000.000 -4.6315666288E-002 -4.4467651844E-001 
7190625000.000 -2.1373365819E-001 +3.9700108767E-001 
7212500000.000 +4.0471869707E-001 -2.1185718477E-001 
7234375000.000 -4.5662668347E-001 -4.0041804314E-002 
7256250000.000 +3.5222437978E-001 +2.9048493505E-001 
7278125000.000 -1.4293293655E-001 -4.4251292944E-001 
7300000000.000 -1.2128260732E-001 +4.4065997005E-001 
7321875000.000 +3.4221088886E-001 -3.0075672269E-001 
7343750000.000 -4.4551926851E-001 +6.0492839664E-002 
7365625000.000 +4.0175846219E-001 +1.9691336155E-001 
7387500000.000 -2.2352960706E-001 -3.8800850511E-001 
7409375000.000 -2.2351868451E-002 +4.4636890292E-001 
7431250000.000 +2.6590633392E-001 -3.5190442204E-001 
7453125000.000 -4.1631200910E-001 +1.4995743334E-001 
7475000000.000 +4.2224308848E-001 +1.0687858611E-001 
7496875000.000 -2.9321533442E-001 -3.2275649905E-001 
7518750000.000 +5.6703604758E-002 +4.2442911863E-001 
7540625000.000 +1.9329845905E-001 -3.9110162854E-001 
7562500000.000 -3.7015381455E-001 +2.1793770790E-001 
7584375000.000 +4.2912626266E-001 +3.0126350001E-002 
7606250000.000 -3.4100565314E-001 -2.6761236787E-001 
7628125000.000 +1.3954895735E-001 +4.1821065545E-001 
7650000000.000 +1.1281612515E-001 -4.2990252376E-001 
7671875000.000 -3.2825642824E-001 +3.0223020911E-001 
7693750000.000 +4.3585205078E-001 -7.0216096938E-002 
7715625000.000 -4.0458860993E-001 -1.8003524840E-001 
7737500000.000 +2.3066797853E-001 +3.6364528537E-001 
7759375000.000 +1.8829053268E-002 -4.3077510595E-001 
7781250000.000 -2.5650238991E-001 +3.4758657217E-001 
7803125000.000 +4.0839633346E-001 -1.4680838585E-001 
7825000000.000 -4.1889885068E-001 -1.0596990585E-001 
7846875000.000 +2.9562610388E-001 +3.2445967197E-001 
7868750000.000 -6.8315505981E-002 -4.2489549518E-001 
7890625000.000 -1.8786521256E-001 +3.9133480191E-001 
7912500000.000 +3.7343597412E-001 -2.2882670164E-001 
7934375000.000 -4.3701252341E-001 -1.6843494028E-002 
7956250000.000 +3.5838040709E-001 +2.5575965643E-001 
7978125000.000 -1.5903967619E-001 -4.0744954348E-001 
8000000000.000 -9.3235857785E-002 +4.2043235898E-001 
8021875000.000 +3.1540164351E-001 -2.9583388567E-001 
8043750000.000 -4.2770206928E-001 +7.0325300097E-002 
8065625000.000 +3.9584112167E-001 +1.7735853791E-001 
8087500000.000 -2.2864702344E-001 -3.6598038673E-001 
8109375000.000 -1.2979159132E-002 +4.3744701147E-001 
8131250000.000 +2.4560846388E-001 -3.5627916455E-001 
8153125000.000 -4.0130922198E-001 +1.5618300438E-001 
8175000000.000 +4.2349222302E-001 +9.2990115285E-002 
8196875000.000 -3.0127120018E-001 -3.1224092841E-001 
8218750000.000 +7.9042859375E-002 +4.2749726772E-001 
8240625000.000 +1.6872340441E-001 -3.9993652701E-001 
8262500000.000 -3.5914438963E-001 +2.3609256744E-001 
8284375000.000 +4.2985355854E-001 +6.2605389394E-003 
8306250000.000 -3.5450783372E-001 -2.4277149141E-001 
8328125000.000 +1.5853115916E-001 +3.9852771163E-001 
8350000000.000 +8.9629888535E-002 -4.2170792818E-001 
8371875000.000 -3.0724370480E-001 +3.0325207114E-001 
8393750000.000 +4.2221233249E-001 -8.3381824195E-002 
8415625000.000 -3.9796471596E-001 -1.6422684491E-001 
8437500000.000 +2.3758652806E-001 +3.5578784347E-001 
8459375000.000 +1.1078201933E-003 -4.3248522282E-001 
8481250000.000 -2.3650340736E-001 +3.6209478974E-001 
8503125000.000 +3.9868643880E-001 -1.6816288233E-001 
8525000000.000 -4.2716071010E-001 -7.8546620905E-002 
8546875000.000 +3.1125181913E-001 +3.0043795705E-001 
8568750000.000 -9.1903887689E-002 -4.2236286402E-001 
8590625000.000 -1.5706700087E-001 +4.0359878540E-001 
8612500000.000 +3.5168257356E-001 -2.5012755394E-001 
8634375000.000 -4.3122386932E-001 +1.3410951942E-002 
8656250000.000 +3.6392310262E-001 +2.2315488756E-001 
8678125000.000 -1.7544476688E-001 -3.8744831085E-001 
8700000000.000 -6.8350337446E-002 +4.1972425580E-001 
8721875000.000 +2.9050165415E-001 -3.0518627167E-001 
8743750000.000 -4.1692256927E-001 +9.0728029609E-002 
8765625000.000 +3.9872774482E-001 +1.5345065296E-001 
8787500000.000 -2.4442060292E-001 -3.4993180633E-001 
8809375000.000 +1.0060448200E-002 +4.3001675606E-001 
8831250000.000 +2.2719599307E-001 -3.6286899447E-001 
8853125000.000 -3.9148032665E-001 +1.7493262887E-001 
8875000000.000 +4.2503869534E-001 +6.8538904190E-002 
8896875000.000 -3.1539934874E-001 -2.9051145911E-001 
8918750000.000 +1.0341619700E-001 +4.1688647866E-001 
8940625000.000 +1.4314709604E-001 -4.0499851108E-001 
8962500000.000 -3.4147745371E-001 +2.5780108571E-001 
8984375000.000 +4.2729032040E-001 -2.5302529335E-002 
9006250000.000 -3.7100008130E-001 -2.1239733696E-001 
