!  1-Port S-parameters saved by WinCal
! VAR NAME=2-Port SOLT labuser 2
! VAR Error Term Name=ESrm phys rcv port 1 phys src port 1
!
# Hz S RI R 50
8000000000.000 -1.2561573895E-001 -1.1581658219E-001 
8100000000.000 -1.7643295745E-001 -3.2644972108E-002 
8200000000.000 -1.1155624016E-001 -4.0271473562E-002 
8300000000.000 -1.3812393804E-001 -3.4181063458E-002 
8400000000.000 -1.9452372602E-001 -2.2664191281E-002 
8500000000.000 -1.1174370785E-001 +4.7190582275E-002 
8600000000.000 -1.3242228279E-001 +1.3834726890E-003 
8700000000.000 -1.9078566795E-001 +2.4344956785E-002 
8800000000.000 -7.9465125731E-002 +1.0502055920E-001 
8900000000.000 -8.3279836723E-002 -2.6396115767E-003 
9000000000.000 -1.2078617518E-001 +4.4845170769E-002 
9100000000.000 -6.9210432753E-002 +9.2570674931E-002 
9200000000.000 -3.8753900083E-002 +1.7876298926E-002 
9300000000.000 -1.2098893667E-001 +3.5872722514E-002 
9400000000.000 -9.2958356464E-002 +1.1890436798E-001 
9500000000.000 -2.0375758096E-002 +4.1867510142E-002 
9600000000.000 -8.6535015683E-002 +3.2421840595E-002 
9700000000.000 -9.5071004354E-002 +5.7141867495E-002 
9800000000.000 -5.3260045135E-002 +8.7023399447E-002 
9900000000.000 -3.7907072369E-002 +4.3604759906E-002 
10000000000.000 -1.0874164343E-001 +6.4916560912E-002 
10100000000.000 -2.0074516679E-002 +9.1522805247E-002 
10200000000.000 -3.2812112936E-002 +7.5490714993E-002 
10300000000.000 -3.8786842333E-002 +2.4613510300E-002 
10400000000.000 -4.4201116673E-002 +8.1487776018E-002 
10500000000.000 -4.0729221655E-002 +8.7279713605E-002 
10600000000.000 -2.9725198156E-003 +5.3167466049E-002 
10700000000.000 -5.3493841168E-002 +7.4505844340E-002 
10800000000.000 -1.3159595095E-002 +7.3918160472E-002 
10900000000.000 +1.0872650639E-002 +4.5544291514E-002 
11000000000.000 -5.0850793150E-002 +3.1463231955E-002 
11100000000.000 -6.5615894779E-003 +5.5925720723E-002 
11200000000.000 -2.6635924756E-003 +7.7990960990E-002 
11300000000.000 +6.2133585467E-003 +1.2398013684E-002 
11400000000.000 +1.7622927968E-003 +6.7356324105E-002 
11500000000.000 +5.7901726916E-003 +5.1088944951E-002 
11600000000.000 -1.1578585758E-002 +1.6118029963E-002 
11700000000.000 +3.0798450892E-002 +5.1683065128E-002 
11800000000.000 -4.2241777863E-002 +4.4889234257E-003 
11900000000.000 -1.9496420087E-003 +2.3786980170E-002 
12000000000.000 -3.1636923221E-002 +5.9086331841E-002 
