!  1-Port S-parameters saved by WinCal
! VAR NAME=2-Port SOLT labuser 2
! VAR Error Term Name=EDir phys rcv port 1 phys src port 1
!
# Hz S RI R 50
8000000000.000 -3.7436031976E-001 +8.9263114180E-001 
8100000000.000 +9.1302105327E-001 +2.9524682554E-001 
8200000000.000 +4.4237455756E-001 -4.1409677097E-001 
8300000000.000 -6.8155220156E-001 +3.1841364265E-002 
8400000000.000 -8.7371611147E-001 +1.3254303464E+000 
8500000000.000 +1.1260527891E-001 +4.3865277244E-001 
8600000000.000 -1.1477184059E-001 -4.5493829556E-001 
8700000000.000 -6.5918519121E-001 -7.5692927334E-001 
8800000000.000 -5.7533237874E-001 +1.9986289772E-001 
8900000000.000 +1.6155978400E-002 +1.6637555140E-001 
9000000000.000 +2.5577040649E-001 -4.0057902036E-001 
9100000000.000 -3.2261916138E-001 -6.3991050386E-001 
9200000000.000 -1.0994449035E-001 -1.8971419674E-001 
9300000000.000 +4.4508355014E-001 +3.1059070566E-002 
9400000000.000 +8.3261271529E-001 -1.8396913214E-001 
9500000000.000 +3.0676535289E-001 -2.4453456136E-001 
9600000000.000 +2.4076749909E-001 +2.6782707688E-001 
9700000000.000 +5.4939829997E-001 +7.4016981348E-001 
9800000000.000 +6.4271952931E-001 +2.8897557375E-001 
9900000000.000 +8.4614368956E-002 +4.4503148349E-003 
10000000000.000 -4.1642073340E-001 +5.3456847638E-001 
10100000000.000 -2.4717252751E-001 +9.1982097168E-001 
10200000000.000 +1.0824183415E-001 +4.2533614722E-001 
10300000000.000 -2.0029021050E-001 -2.1583843008E-001 
10400000000.000 -7.1584105729E-001 +3.9571856226E-002 
10500000000.000 -7.5453192377E-001 +4.0318653628E-001 
10600000000.000 +1.8777161061E-002 +4.1750016855E-002 
10700000000.000 -1.0695105745E-002 -5.2741020372E-001 
10800000000.000 -2.9878717882E-001 -5.0131918926E-001 
10900000000.000 -2.6274795684E-001 +3.3130984951E-002 
11000000000.000 +3.3282718335E-001 +1.3307749055E-001 
11100000000.000 +3.7090639206E-001 -2.2675948047E-001 
11200000000.000 +2.3109593640E-002 -4.1516273943E-001 
11300000000.000 -1.2049088313E-001 +4.7909967740E-003 
11400000000.000 +1.3074463851E-001 +2.4425334464E-001 
11500000000.000 +1.7293856480E-001 +5.3095357837E-002 
11600000000.000 -1.0489823192E-001 -1.0455740458E-001 
11700000000.000 -3.9303273606E-001 +7.6149476729E-002 
11800000000.000 -6.8461605706E-002 +1.6237698381E-001 
11900000000.000 +1.6116129400E-001 -6.4056069335E-002 
12000000000.000 +3.0616924784E-002 -2.5404140273E-001 
