!  1-Port S-parameters saved by WinCal
! VAR NAME=2-Port SOLT labuser 2
! VAR Error Term Name=ERft phys rcv port 1 phys src port 1
!
# Hz S RI R 50
8000000000.000 +3.4030534916E+000 +3.0483970334E+000 
8100000000.000 +1.3531708367E+000 -4.8946447636E+000 
8200000000.000 -3.5185739653E+000 -5.6453910632E+000 
8300000000.000 -2.7649232843E+000 +3.3254442155E+000 
8400000000.000 +5.5040234161E+000 +6.0749391886E+000 
8500000000.000 +3.8540201509E+000 -1.7219820818E+000 
8600000000.000 -4.3155715101E+000 -3.5387414114E+000 
8700000000.000 -5.8802078471E+000 +1.0378851630E+000 
8800000000.000 +2.1181266892E+000 +3.9108251827E+000 
8900000000.000 +7.8898513166E+000 -1.3094267284E+000 
9000000000.000 -1.3372259014E-001 -4.3484849377E+000 
9100000000.000 -5.3121880178E+000 +1.8877189371E+000 
9200000000.000 -1.0563123478E+000 +6.0043836071E+000 
9300000000.000 +5.3109162998E+000 +1.3461495512E-001 
9400000000.000 +2.0096996011E+000 -5.8983390233E+000 
9500000000.000 -4.6587553667E+000 -1.4879750147E+000 
9600000000.000 -1.1701986875E+000 +6.2591261324E+000 
9700000000.000 +5.7145012490E+000 +3.4527672437E+000 
9800000000.000 +3.3586387169E+000 -4.8175410583E+000 
9900000000.000 -4.8124143974E+000 -3.2569240901E+000 
10000000000.000 -3.6849271530E+000 +5.5686424679E+000 
10100000000.000 +4.9882003515E+000 +4.9863383639E+000 
10200000000.000 +5.3677770121E+000 -4.2864752232E+000 
10300000000.000 -2.9360247451E+000 -5.0714324991E+000 
10400000000.000 -4.3488602191E+000 +3.9737855620E+000 
10500000000.000 +4.2484419662E+000 +7.5001935826E+000 
10600000000.000 +5.4371551734E+000 -1.9329490169E+000 
10700000000.000 -2.8245616636E+000 -5.5965649033E+000 
10800000000.000 -5.7329476919E+000 +1.3749562847E+000 
10900000000.000 +2.8214624904E+000 +5.5846539016E+000 
11000000000.000 +7.7427822936E+000 +6.5082764247E-002 
11100000000.000 -1.8110572469E-001 -5.0731894349E+000 
11200000000.000 -6.8595678620E+000 +9.1983437327E-001 
11300000000.000 -1.3046659937E+000 +6.1451038669E+000 
11400000000.000 +6.6957546649E+000 +1.1774250173E+000 
11500000000.000 +2.9946088323E+000 -4.6964030698E+000 
11600000000.000 -4.8511822104E+000 -1.3833364199E+000 
11700000000.000 -4.0562807765E+000 +6.8443340735E+000 
11800000000.000 +3.9536567231E+000 +3.5043793921E+000 
11900000000.000 +4.0104881280E+000 -4.4671321587E+000 
12000000000.000 -2.9566343594E+000 -3.9467712318E+000 
