!  1-Port S-parameters saved by WinCal
! VAR NAME=2-Port SOLT labuser 2
! VAR Error Term Name=ELdm phys rcv port 1 phys src port 2
!
# Hz S RI R 50
8000000000.000 -2.0600732314E-001 -1.6635523051E-001 
8100000000.000 -1.5492679242E-001 +1.6607753404E-002 
8200000000.000 -1.5474168134E-001 -3.9724793596E-003 
8300000000.000 -1.3704007936E-001 +7.7296414365E-004 
8400000000.000 -1.4478164167E-001 +3.7066049062E-002 
8500000000.000 -7.4658588690E-002 +5.4491982116E-002 
8600000000.000 -6.7444844606E-002 +4.1170401956E-002 
8700000000.000 -1.1471791149E-001 -4.3349044519E-002 
8800000000.000 -4.5928644692E-002 +6.4449617524E-002 
8900000000.000 -5.0332719484E-002 -5.2087231868E-002 
9000000000.000 -1.0667678438E-001 +8.5538239563E-003 
9100000000.000 -1.3413825415E-001 -2.2538223955E-002 
9200000000.000 -6.4092904721E-002 +4.2013647593E-004 
9300000000.000 -1.5826863632E-001 +3.8703635519E-002 
9400000000.000 -1.2333456230E-001 +6.9560853032E-002 
9500000000.000 -1.1193854288E-001 +1.1973204797E-001 
9600000000.000 -1.0706111172E-001 +2.5704317557E-002 
9700000000.000 -1.3575885488E-001 +1.6116996928E-001 
9800000000.000 -4.5474221972E-002 +2.9870478985E-002 
9900000000.000 -2.3546221360E-003 +1.4573986455E-001 
10000000000.000 -6.5213885288E-002 +5.9526699162E-002 
10100000000.000 +3.4491280817E-002 +6.0954993316E-002 
10200000000.000 -3.8987298003E-002 +2.7775156596E-002 
10300000000.000 +6.9779470839E-002 +8.0367913830E-003 
10400000000.000 -6.8690695367E-002 +1.4554488745E-002 
10500000000.000 -1.1516240933E-002 -1.6281853715E-002 
10600000000.000 -6.3466404306E-002 +5.0271426259E-002 
10700000000.000 -8.2187716139E-002 -5.8795369272E-002 
10800000000.000 -9.2590773241E-002 +1.0921469534E-001 
10900000000.000 -9.0331891873E-002 -3.1404338311E-002 
11000000000.000 -9.5293176638E-004 +9.8758526048E-002 
11100000000.000 -6.7541519394E-002 +9.9521400121E-002 
11200000000.000 +1.2623864800E-002 +1.0991470538E-001 
11300000000.000 -5.7670805348E-003 +1.1258625813E-001 
11400000000.000 +6.6586504390E-002 +5.9558509223E-005 
11500000000.000 -1.3109294668E-002 +1.2857554192E-001 
11600000000.000 +6.2455234669E-002 -5.4824064757E-002 
11700000000.000 -1.0638948965E-002 +5.4764409030E-002 
11800000000.000 -2.2793193612E-002 -8.2286078196E-002 
11900000000.000 +2.0975376813E-002 -2.2022545305E-003 
12000000000.000 -6.7381505917E-002 -4.9590200308E-002 
