!  1-Port S-parameters saved by WinCal
! VAR NAME=2-Port SOLT labuser 2
! VAR Error Term Name=ETrt phys rcv port 1 phys src port 2
!
# Hz S RI R 50
8000000000.000 -1.5603080532E+000 -5.4792036211E+000 
8100000000.000 -5.1853633704E+000 -1.9203948299E+000 
8200000000.000 -4.5954469801E+000 +3.2321870372E+000 
8300000000.000 +3.8687453408E-002 +5.5928787024E+000 
8400000000.000 +4.4976819883E+000 +3.0520920154E+000 
8500000000.000 +5.0696339227E+000 -1.8839585188E+000 
8600000000.000 +1.3694988819E+000 -5.2810975437E+000 
8700000000.000 -3.6206317559E+000 -4.0174603565E+000 
8800000000.000 -5.2776939369E+000 +4.8902039219E-001 
8900000000.000 -2.6966963309E+000 +4.6265600742E+000 
9000000000.000 +2.2820868600E+000 +4.8621745111E+000 
9100000000.000 +5.3357345962E+000 +9.9192274757E-001 
9200000000.000 +3.9315943892E+000 -3.7408303775E+000 
9300000000.000 -7.9054253764E-001 -5.3855606896E+000 
9400000000.000 -4.9094619274E+000 -2.5395925259E+000 
9500000000.000 -4.9661221575E+000 +2.5731143060E+000 
9600000000.000 -7.4922439767E-001 +5.6849807653E+000 
9700000000.000 +4.2665249830E+000 +3.9904678313E+000 
9800000000.000 +5.8849180698E+000 -1.3581817271E+000 
9900000000.000 +2.2662199169E+000 -5.7267323371E+000 
10000000000.000 -3.5436828718E+000 -5.2125219255E+000 
10100000000.000 -6.3952182489E+000 +8.4185838136E-002 
10200000000.000 -3.4164832694E+000 +5.4542075910E+000 
10300000000.000 +2.5722374189E+000 +5.9587475019E+000 
10400000000.000 +6.3951382633E+000 +1.2242226223E+000 
10500000000.000 +4.4754978012E+000 -4.6855618013E+000 
10600000000.000 -1.4688063711E+000 -6.2236780050E+000 
10700000000.000 -5.8822798933E+000 -2.3906551450E+000 
10800000000.000 -5.3313825523E+000 +3.3259299966E+000 
10900000000.000 -8.1910735970E-002 +6.2910858909E+000 
11000000000.000 +5.1184276105E+000 +3.4349213963E+000 
11100000000.000 +5.6038083309E+000 -2.1831966099E+000 
11200000000.000 +1.4935903084E+000 -5.7297056245E+000 
11300000000.000 -3.7757046189E+000 -4.4660597442E+000 
11400000000.000 -5.8279323795E+000 +4.4132735598E-001 
11500000000.000 -3.0079436685E+000 +4.9618211513E+000 
11600000000.000 +2.3409366873E+000 +5.3046595913E+000 
11700000000.000 +5.6823835837E+000 +1.1363874612E+000 
11800000000.000 +4.2294216012E+000 -4.0212684933E+000 
11900000000.000 -7.3501144070E-001 -5.7892676552E+000 
12000000000.000 -5.2130192378E+000 -2.7383002834E+000 
