!  1-Port S-parameters saved by WinCal
! VAR NAME=2-Port SOLT labuser 6
! VAR Error Term Name=ETrt phys rcv port 1 phys src port 2
!
# Hz S RI R 50
8000000000.000 -1.2994215864E-001 -5.7372127757E-001 
8100000000.000 -5.2474028992E-001 -2.2702745841E-001 
8200000000.000 -4.9485178796E-001 +3.1032027039E-001 
8300000000.000 -2.6770541852E-002 +5.7983799789E-001 
8400000000.000 +4.4919021518E-001 +3.4183441566E-001 
8500000000.000 +5.3786655976E-001 -1.6992815699E-001 
8600000000.000 +1.6777823293E-001 -5.4533635356E-001 
8700000000.000 -3.5697098933E-001 -4.3528394460E-001 
8800000000.000 -5.5277180686E-001 +2.7057785703E-002 
8900000000.000 -3.0033884775E-001 +4.7361442414E-001 
9000000000.000 +2.1906730104E-001 +5.1644215811E-001 
9100000000.000 +5.5250350766E-001 +1.2437044732E-001 
9200000000.000 +4.2313102224E-001 -3.7703957742E-001 
9300000000.000 -6.6133730801E-002 -5.6403270519E-001 
9400000000.000 -5.0289112063E-001 -2.8074419115E-001 
9500000000.000 -5.2551028712E-001 +2.5253798554E-001 
9600000000.000 -9.3283088341E-002 +5.9042675488E-001 
9700000000.000 +4.3477479404E-001 +4.2836580444E-001 
9800000000.000 +6.1573922035E-001 -1.2760758603E-001 
9900000000.000 +2.4801416264E-001 -5.9036111386E-001 
10000000000.000 -3.5651539225E-001 -5.4944281009E-001 
10100000000.000 -6.6701330257E-001 -4.1129423882E-003 
10200000000.000 -3.6285716426E-001 +5.5957383383E-001 
10300000000.000 +2.5559505120E-001 +6.2118865557E-001 
10400000000.000 +6.6104620367E-001 +1.3593216586E-001 
10500000000.000 +4.6929182209E-001 -4.7814689839E-001 
10600000000.000 -1.4307932134E-001 -6.4242512597E-001 
10700000000.000 -6.0379896888E-001 -2.5634943704E-001 
10800000000.000 -5.5510899027E-001 +3.3883276581E-001 
10900000000.000 -1.4362358797E-002 +6.4620918644E-001 
11000000000.000 +5.2176304171E-001 +3.5906050612E-001 
11100000000.000 +5.7830919172E-001 -2.1967928090E-001 
11200000000.000 +1.5800523714E-001 -5.8651280007E-001 
11300000000.000 -3.8229779520E-001 -4.6147726078E-001 
11400000000.000 -5.9730513205E-001 +4.0508988093E-002 
11500000000.000 -3.1208635399E-001 +5.0643753183E-001 
11600000000.000 +2.3526087161E-001 +5.4297160147E-001 
11700000000.000 +5.7879323603E-001 +1.1918877687E-001 
11800000000.000 +4.3380249282E-001 -4.0579774990E-001 
11900000000.000 -7.0696596512E-002 -5.8966883428E-001 
12000000000.000 -5.2807222936E-001 -2.8259123223E-001 
