!  1-Port S-parameters saved by WinCal
! VAR NAME=2-Port SOLT labuser 6
! VAR Error Term Name=ERft phys rcv port 1 phys src port 1
!
# Hz S RI R 50
8000000000.000 +3.3383846880E-001 +3.0271908044E-001 
8100000000.000 +1.4090372651E-001 -4.8578503943E-001 
8200000000.000 -3.4248581122E-001 -5.6163116594E-001 
8300000000.000 -2.7963744180E-001 +3.2862708663E-001 
8400000000.000 +5.3781070646E-001 +6.1307982504E-001 
8500000000.000 +3.8701068381E-001 -1.6858519129E-001 
8600000000.000 -4.3040049942E-001 -3.5673363767E-001 
8700000000.000 -5.8714145357E-001 +9.5615393651E-002 
8800000000.000 +2.1079263259E-001 +3.9480335890E-001 
8900000000.000 +7.9397850453E-001 -1.2518000165E-001 
9000000000.000 -1.1109750470E-002 -4.3440384403E-001 
9100000000.000 -5.3404509902E-001 +1.8651759284E-001 
9200000000.000 -1.0988561225E-001 +6.0080368771E-001 
9300000000.000 +5.2982050891E-001 +1.5617782752E-002 
9400000000.000 +2.0853652614E-001 -5.9015934606E-001 
9500000000.000 -4.6633129230E-001 -1.5101409024E-001 
9600000000.000 -1.1827308165E-001 +6.2772905549E-001 
9700000000.000 +5.7018582845E-001 +3.4933975658E-001 
9800000000.000 +3.3825911170E-001 -4.8075280196E-001 
9900000000.000 -4.8050871543E-001 -3.2839664339E-001 
10000000000.000 -3.7365270581E-001 +5.5727944944E-001 
10100000000.000 +4.9955509079E-001 +5.0024620138E-001 
10200000000.000 +5.4080734270E-001 -4.2593222168E-001 
10300000000.000 -2.9130615884E-001 -5.0858292370E-001 
10400000000.000 -4.3536689448E-001 +3.9830720245E-001 
10500000000.000 +4.1817292394E-001 +7.5346049337E-001 
10600000000.000 +5.4490020943E-001 -1.9051254835E-001 
10700000000.000 -2.8173662526E-001 -5.6325998750E-001 
10800000000.000 -5.7311363190E-001 +1.3540173060E-001 
10900000000.000 +2.8241865189E-001 +5.6024603298E-001 
11000000000.000 +7.7676621376E-001 +1.1245140250E-002 
11100000000.000 -1.7178391623E-002 -5.0567730549E-001 
11200000000.000 -6.8907385900E-001 +8.8242271746E-002 
11300000000.000 -1.3383588535E-001 +6.1547328257E-001 
11400000000.000 +6.7117094848E-001 +1.1950733675E-001 
11500000000.000 +3.0246460721E-001 -4.6833900471E-001 
11600000000.000 -4.8519911711E-001 -1.3988011334E-001 
11700000000.000 -4.0777383061E-001 +6.8535163724E-001 
11800000000.000 +3.9263300605E-001 +3.5302017005E-001 
11900000000.000 +4.0322185619E-001 -4.4422618574E-001 
12000000000.000 -2.9480252828E-001 -3.9784738160E-001 
